!CSV A.01.01
!Keysight Technologies,N5247B,US56070639,A.17.30.08
!Date: Wednesday, July 22, 2026 12:06:02
!Source: Standard

BEGIN CH1_DATA
Freq(Hz),S21(REAL),S21(IMAG),S11(REAL),S11(IMAG),S22(REAL),S22(IMAG),S12(REAL),S12(IMAG)
26500000000,-0.00063492777,-0.0048652273,-1.0003107,0.02149269,-0.99209011,0.032410681,-0.00092570006,-0.0051288106
26567500000,-0.00066419085,-0.0047597475,-0.99853313,0.019635946,-0.99187261,0.031962752,-0.00071694003,-0.0050123436
26635000000,-0.0010336121,-0.0049189348,-0.99702847,0.02111873,-0.9896419,0.031593889,-0.00096016971,-0.0051302034
26702500000,-0.00078795536,-0.0047252635,-0.99890846,0.021113455,-0.99064773,0.033648476,-0.0007332043,-0.0051045511
26770000000,-0.00078008865,-0.0051814369,-0.99844921,0.019692421,-0.99145263,0.030774534,-0.00094220409,-0.0050951014
26837500000,-0.000783419,-0.0047272756,-0.99649149,0.021334797,-0.98833883,0.032355666,-0.0010609549,-0.0050217854
26905000000,-0.00068772747,-0.0047246744,-0.99917859,0.020475462,-0.99034393,0.0316367,-0.00094072416,-0.0050663999
26972500000,-0.00083921826,-0.0049109622,-0.99673212,0.020295233,-0.99046266,0.030385464,-0.00073006377,-0.0048342496
27040000000,-0.00073083292,-0.0048943921,-0.99815154,0.022079792,-0.98724657,0.031617302,-0.00093103095,-0.0050291168
27107500000,-0.00069592986,-0.00476785,-0.99910527,0.02079767,-0.99012709,0.031835645,-0.00092178339,-0.0048206123
27175000000,-0.00096805615,-0.0047176592,-0.99651474,0.020423412,-0.98866999,0.029143542,-0.0010088527,-0.0048358031
27242500000,-0.00062984729,-0.0046846448,-0.99601185,0.022395581,-0.98781097,0.031223297,-0.00057602534,-0.0049027442
27310000000,-0.00044223666,-0.004790518,-0.99779052,0.020726107,-0.98861361,0.031819023,-0.00070104026,-0.0049885316
27377500000,-0.00032904476,-0.0047101765,-0.99607223,0.021839872,-0.98638666,0.029695168,-0.0010799515,-0.005093128
27445000000,-0.00052750902,-0.0047604935,-0.99701667,0.021808654,-0.98609054,0.030989081,-0.00096626685,-0.0048762108
27512500000,-0.00037791696,-0.0049337409,-0.99741572,0.020816475,-0.98868674,0.030364037,-0.00093534274,-0.0047264174
27580000000,-0.00050483551,-0.0047472846,-0.99465883,0.02223295,-0.98529541,0.030096173,-0.00086748449,-0.0049265735
27647500000,-0.00064589188,-0.0051342961,-0.99712861,0.022025704,-0.98589724,0.031297326,-0.00076222979,-0.0050256434
27715000000,-0.0004901425,-0.0051219016,-0.99700296,0.021690726,-0.98719215,0.030087769,-0.00078438851,-0.00514293
27782500000,-0.00071271602,-0.0054157879,-0.99590182,0.022068441,-0.98459637,0.029876471,-0.00057875598,-0.0050825533
27850000000,-0.00066948443,-0.0055999905,-0.99653155,0.021852612,-0.9856233,0.032079116,-0.00097873015,-0.0049688555
27917500000,-0.000379976,-0.0051111034,-0.99554646,0.021577358,-0.98513913,0.028783828,-0.00068687764,-0.0053580804
27985000000,-0.00060958695,-0.0048644696,-0.99501288,0.022814304,-0.98331809,0.02994743,-0.00094688265,-0.0052359896
28052500000,-0.00059005641,-0.0052305963,-0.99669778,0.021786243,-0.98500812,0.030016512,-0.00082204095,-0.0054800799
28120000000,-0.0007157037,-0.0052615255,-0.99570352,0.021609604,-0.98521304,0.028641641,-0.0010960109,-0.0048859236
28187500000,-0.00067934225,-0.0051667066,-0.9948321,0.022594288,-0.98352343,0.030319333,-0.00084069913,-0.0053174486
28255000000,-0.00098554161,-0.0052224905,-0.99643296,0.02225861,-0.98491693,0.029770106,-0.001051973,-0.0053261127
28322500000,-0.00086147757,-0.0052027414,-0.99557865,0.022004038,-0.98397261,0.0286268,-0.00059352792,-0.0053435308
28390000000,-0.00073578209,-0.0053448188,-0.99592531,0.022666216,-0.98260945,0.030629583,-0.00079578377,-0.0051832432
28457500000,-0.00089063565,-0.0049774428,-0.99645996,0.022087395,-0.98482728,0.029638171,-0.0006592857,-0.0050743553
28525000000,-0.00059311651,-0.0052560004,-0.99582368,0.022912204,-0.98446488,0.030043632,-0.00054721395,-0.0053948057
28592500000,-0.00022677146,-0.0051119672,-0.9944011,0.023185492,-0.98258257,0.030536443,-0.00085799838,-0.0051194984
28660000000,-0.00057621044,-0.0050610569,-0.99637651,0.02274999,-0.98494279,0.030333579,-0.00071675214,-0.0053576166
28727500000,-0.00069478981,-0.0050459118,-0.99620479,0.023085177,-0.98355865,0.030096602,-0.00051714538,-0.005162653
28795000000,-0.00082275772,-0.0051569492,-0.99608588,0.022299558,-0.98343736,0.031133071,-0.00025683688,-0.0053560459
28862500000,-0.00042384816,-0.0052104034,-0.99704015,0.023094922,-0.98428768,0.030740261,-0.0008981633,-0.0052732513
28930000000,-0.00065042754,-0.0054457048,-0.99631047,0.022717446,-0.98387098,0.029271692,-0.0004713987,-0.0055365274
28997500000,-0.00065831357,-0.0053886129,-0.99579787,0.023455217,-0.98338288,0.030368946,-0.0005419263,-0.0054640174
29065000000,-0.00051802478,-0.0057747704,-0.99638879,0.023304768,-0.98574615,0.031158954,-0.00022929249,-0.0055262395
29132500000,-0.00070933159,-0.0056002308,-0.99611115,0.022790134,-0.98382837,0.02984789,-0.00031645759,-0.005680345
29200000000,-0.00040494045,-0.0056705698,-0.99562317,0.022886515,-0.98334259,0.030614644,-0.00076613599,-0.006127419
29267500000,-0.00088862906,-0.0056351423,-0.99720246,0.023035824,-0.98524064,0.030248582,-0.0004825542,-0.0059698983
29335000000,-0.00056861684,-0.005666716,-0.99550152,0.0228654,-0.98372364,0.028773278,-0.00044814369,-0.0057738214
29402500000,-0.00067508104,-0.0063201752,-0.99499327,0.023656234,-0.98467726,0.029644877,-0.00074864866,-0.0057940278
29470000000,-0.00086165883,-0.0059514865,-0.99653524,0.023773924,-0.98656076,0.029025391,-0.0005909162,-0.0059576444
29537500000,-0.0012608743,-0.0060124551,-0.99478072,0.022211701,-0.98414981,0.027927458,-0.0011203123,-0.0062546879
29605000000,-0.00077181333,-0.0060683535,-0.99480271,0.023748636,-0.98479265,0.02907154,-0.00076458929,-0.0060783592
29672500000,-0.0012429634,-0.0063667046,-0.9975512,0.022681117,-0.986305,0.028092057,-0.00084208138,-0.0059950082
29740000000,-0.00094062369,-0.0060391976,-0.99514282,0.023036808,-0.98474526,0.027302831,-0.0010519726,-0.0058165551
29807500000,-0.00088053732,-0.0061700586,-0.99561334,0.02404967,-0.98553199,0.028150201,-0.0011451093,-0.0061397236
29875000000,-0.0014426913,-0.0062845033,-0.99648976,0.024078041,-0.98771089,0.026283324,-0.0013973308,-0.0061143422
29942500000,-0.00094764581,-0.0061309682,-0.99448752,0.022661068,-0.98629367,0.026099041,-0.00089672639,-0.0058682747
30010000000,-0.0012252501,-0.0058137593,-0.99511272,0.024467617,-0.98763567,0.028504014,-0.001139235,-0.0057757925
30077500000,-0.0013101312,-0.0060420288,-0.99622869,0.023852795,-0.98791009,0.025740743,-0.00094363245,-0.0056690834
30145000000,-0.00093299767,-0.0058260369,-0.9948402,0.023302197,-0.98550332,0.026399359,-0.0011168105,-0.0058284844
30212500000,-0.00095701707,-0.0058657434,-0.99570429,0.024477303,-0.98928285,0.026325196,-0.0012746599,-0.005614344
30280000000,-0.0011307979,-0.0055918689,-0.99609399,0.02352947,-0.98855376,0.025620252,-0.0010534024,-0.0056101084
30347500000,-0.0011573356,-0.0059651807,-0.99389756,0.024644017,-0.98685396,0.025680572,-0.00070397276,-0.0057289591
30415000000,-0.0015022757,-0.0061509134,-0.99572027,0.024623469,-0.98969752,0.027022123,-0.00094158918,-0.0057003298
30482500000,-0.0010808392,-0.0060283924,-0.99541497,0.023700327,-0.98857129,0.025311634,-0.0010901991,-0.0058488585
30550000000,-0.0013054571,-0.0062019355,-0.99484408,0.0244959,-0.98757142,0.027260631,-0.00089285709,-0.0059608282
30617500000,-0.0013419283,-0.0064648688,-0.99629939,0.025404602,-0.98944288,0.026774481,-0.0009096773,-0.0059780972
30685000000,-0.00086390064,-0.0058563668,-0.99523944,0.02410692,-0.98744285,0.02613771,-0.00070940808,-0.0061997981
30752500000,-0.0011001136,-0.0063097272,-0.99340934,0.026382148,-0.98690361,0.026965857,-0.00073915499,-0.0061397161
30820000000,-0.0014703006,-0.0064041466,-0.99447072,0.024353504,-0.99008989,0.026186526,-0.00096839154,-0.0065354411
30887500000,-0.0013782738,-0.0063549634,-0.99294323,0.025203168,-0.98662508,0.026263297,-0.0010345376,-0.0064106365
30955000000,-0.0015637591,-0.0067846291,-0.99402499,0.025915444,-0.98836601,0.027950168,-0.00062881131,-0.00640035
31022500000,-0.0015237206,-0.006529788,-0.99454147,0.026322007,-0.98846173,0.027313113,-0.0013507667,-0.0067798547
31090000000,-0.0012972762,-0.0066322503,-0.99326396,0.025808007,-0.98646736,0.026885629,-0.0012996085,-0.0067558736
31157500000,-0.0017258764,-0.0064010532,-0.99356091,0.026190072,-0.98688489,0.027656823,-0.0010052812,-0.0070745423
31225000000,-0.0020519313,-0.0070672072,-0.99457502,0.026051164,-0.98635906,0.026240706,-0.0013956627,-0.0066351253
31292500000,-0.0016760421,-0.0064349985,-0.9920302,0.025618583,-0.98503739,0.027112573,-0.0010514341,-0.0070278724
31360000000,-0.001665214,-0.0065918211,-0.99262798,0.026890874,-0.98683357,0.026982173,-0.001801581,-0.0072020749
31427500000,-0.0019300026,-0.0063225408,-0.99141109,0.026125059,-0.98606366,0.027892105,-0.0021091565,-0.0069787386
31495000000,-0.0023805057,-0.0062215379,-0.99171478,0.026582956,-0.9852941,0.027481407,-0.0017297892,-0.0067332494
31562500000,-0.0021895701,-0.0061194939,-0.99347806,0.026844174,-0.98635715,0.026986584,-0.0018516518,-0.0067894035
31630000000,-0.0021862683,-0.0065285,-0.9924863,0.025753975,-0.98544276,0.025902033,-0.0020398847,-0.0069418219
31697500000,-0.0022636703,-0.0065126698,-0.99331355,0.026645511,-0.98519278,0.026412398,-0.0023340657,-0.0064535122
31765000000,-0.0026213578,-0.0059750425,-0.99167073,0.026422739,-0.9869346,0.026234835,-0.0020361214,-0.0065034833
31832500000,-0.0021912516,-0.0061139758,-0.99216932,0.027020663,-0.98714638,0.026364774,-0.0021039369,-0.0066379937
31900000000,-0.001994356,-0.0061935689,-0.99179262,0.026441909,-0.98622203,0.026723571,-0.0023346329,-0.0064495546
31967500000,-0.0024198485,-0.005838193,-0.99252123,0.026581839,-0.9874534,0.026949629,-0.0020065643,-0.0064603966
32035000000,-0.0018790639,-0.0061240075,-0.9920131,0.026525021,-0.98731351,0.027231067,-0.0025267568,-0.0060526328
32102500000,-0.0022104355,-0.0060774153,-0.990964,0.026752338,-0.98612821,0.027902775,-0.0021396475,-0.0062395371
32170000000,-0.0021413262,-0.00600217,-0.99121034,0.027184278,-0.98724407,0.027334303,-0.0019116001,-0.0061987289
32237500000,-0.0017273193,-0.005994,-0.99184203,0.025952756,-0.98754585,0.026933014,-0.0018882061,-0.0061630323
32305000000,-0.0020669596,-0.0059956862,-0.9905194,0.026330173,-0.98748863,0.027148843,-0.0018181026,-0.0063475054
32372500000,-0.0019790814,-0.0058423113,-0.99039662,0.026903421,-0.98740613,0.027509987,-0.0015497771,-0.0062952056
32440000000,-0.0022080746,-0.005927952,-0.9920221,0.026844695,-0.98769444,0.027837038,-0.0016885307,-0.0058728936
32507500000,-0.0019456542,-0.0059762327,-0.99021387,0.026261788,-0.98681867,0.027857665,-0.0015646568,-0.0064836876
32575000000,-0.0018915625,-0.0058779963,-0.99066991,0.026837677,-0.98736262,0.02784279,-0.0017458257,-0.0067331814
32642500000,-0.0023951991,-0.0060089892,-0.99125075,0.026687026,-0.98656309,0.026654065,-0.0016718695,-0.0068232077
32710000000,-0.0023223809,-0.0059924107,-0.99099785,0.026412576,-0.98740327,0.02670145,-0.0019778621,-0.0070143025
32777500000,-0.0018495668,-0.006026234,-0.9901107,0.026275694,-0.98775578,0.027041748,-0.0019409364,-0.0067389421
32845000000,-0.0017752631,-0.0057191467,-0.99009466,0.026688039,-0.98663867,0.026777506,-0.0020280089,-0.0069958866
32912500000,-0.0018687771,-0.0059988126,-0.98963785,0.026590556,-0.98639882,0.027384996,-0.0020897945,-0.00667278
32980000000,-0.002223579,-0.0060244193,-0.99014509,0.02656284,-0.98749053,0.025945544,-0.0022693984,-0.0067329118
33047500000,-0.0024070533,-0.0060050674,-0.99097621,0.025891691,-0.98702699,0.025367498,-0.0023808591,-0.0067454185
33115000000,-0.0021853577,-0.0059130341,-0.98952377,0.025697276,-0.98723513,0.025842734,-0.002231152,-0.0067863143
33182500000,-0.0022022957,-0.0060262866,-0.9899261,0.025847882,-0.9879241,0.025148034,-0.0030279809,-0.0069650421
33250000000,-0.0022307399,-0.0062896074,-0.99015641,0.024858817,-0.98619592,0.025303483,-0.0027938038,-0.0064207376
33317500000,-0.0026451852,-0.0062701497,-0.98986167,0.025758207,-0.98683947,0.025816828,-0.0031693988,-0.0063269306
33385000000,-0.0022197121,-0.0055079977,-0.99177271,0.025331169,-0.98819304,0.024027795,-0.0031812324,-0.0069528911
33452500000,-0.0025644512,-0.0057385657,-0.99034452,0.025220782,-0.98568249,0.02435869,-0.0032589794,-0.0062732799
33520000000,-0.0023106509,-0.0060717328,-0.99082708,0.025474817,-0.98853785,0.0246481,-0.0029603317,-0.0065508154
33587500000,-0.0027984963,-0.0057423124,-0.99080884,0.025136739,-0.98878163,0.022644341,-0.0036134552,-0.0060007414
33655000000,-0.0026535911,-0.0055995081,-0.99103767,0.024653628,-0.98673552,0.024221942,-0.0033292202,-0.0057930555
33722500000,-0.0027726321,-0.0053421436,-0.99125695,0.025117487,-0.9889496,0.025178641,-0.0034856456,-0.0060034548
33790000000,-0.0030408513,-0.0056497678,-0.99114656,0.025273293,-0.98794937,0.02375409,-0.0037379239,-0.0055841268
33857500000,-0.0025259629,-0.0057643689,-0.99135607,0.024681836,-0.98775887,0.025057077,-0.0034576673,-0.0060002278
33925000000,-0.0026738017,-0.0053798156,-0.99181622,0.02580604,-0.98882347,0.025011688,-0.0033888288,-0.0053869681
33992500000,-0.0028047436,-0.0051442971,-0.99265486,0.02470693,-0.9878245,0.0239667,-0.0031836582,-0.0053878268
34060000000,-0.0025223554,-0.0055954289,-0.99150258,0.025678009,-0.98793787,0.025660753,-0.0029984587,-0.0053781923
34127500000,-0.003098536,-0.0051326966,-0.99224913,0.025966883,-0.98975164,0.025680892,-0.0031207867,-0.0057248464
34195000000,-0.0025650901,-0.0049871504,-0.99215245,0.025268734,-0.98690927,0.025132328,-0.0034557958,-0.0056984518
34262500000,-0.002912153,-0.0054253777,-0.99140799,0.026592851,-0.98677796,0.027383357,-0.0030970708,-0.0052992175
34330000000,-0.0024491621,-0.0055148331,-0.99228549,0.02611661,-0.9879182,0.026833355,-0.0030476628,-0.005140258
34397500000,-0.0023508614,-0.0054038423,-0.99274766,0.026608765,-0.98551047,0.026906282,-0.0029443649,-0.0051083546
34465000000,-0.0024550781,-0.005519391,-0.99298275,0.027518719,-0.98699749,0.028100938,-0.002994105,-0.0055293296
34532500000,-0.0027306816,-0.0053761434,-0.99254942,0.026430473,-0.98727292,0.026914418,-0.0026437093,-0.0053948658
34600000000,-0.0025107262,-0.0053924774,-0.99218351,0.026897252,-0.98541474,0.02796936,-0.0030463734,-0.0054994938
34667500000,-0.0028213393,-0.0054305699,-0.99196106,0.027587414,-0.98651803,0.028829426,-0.0030279895,-0.0058064656
34735000000,-0.0033415444,-0.0056680879,-0.99250185,0.025951326,-0.98730439,0.027157485,-0.0025463994,-0.0058609983
34802500000,-0.002629129,-0.0051855468,-0.9924944,0.027563006,-0.98498052,0.028755903,-0.0033163468,-0.0058505358
34870000000,-0.0025678482,-0.0056099873,-0.9928863,0.027217835,-0.98526406,0.029132307,-0.003164561,-0.0056864396
34937500000,-0.0031942856,-0.0053593609,-0.99200213,0.026938021,-0.98598504,0.028422505,-0.003042331,-0.0054448298
35005000000,-0.0030223681,-0.006035048,-0.99197757,0.027573274,-0.98568559,0.029364221,-0.0030477052,-0.0060274401
35072500000,-0.0032572406,-0.0055556847,-0.99317962,0.027087688,-0.98554456,0.029001087,-0.0031647617,-0.0056089917
35140000000,-0.004135171,-0.005583345,-0.9919163,0.025491849,-0.98331398,0.028464168,-0.0033595152,-0.0052803466
35207500000,-0.0037313744,-0.0052238195,-0.99155194,0.026683405,-0.98590195,0.029024072,-0.0036998887,-0.0051987534
35275000000,-0.0036639401,-0.0048390543,-0.99236763,0.026503911,-0.98606068,0.028271016,-0.003221499,-0.0051568062
35342500000,-0.0033776697,-0.0044632112,-0.99149424,0.025367856,-0.98468578,0.028543457,-0.0035983524,-0.0052923169
35410000000,-0.004189217,-0.0049478039,-0.99127752,0.027569756,-0.98674887,0.028440252,-0.003457427,-0.0050079641
35477500000,-0.0040793349,-0.0051111509,-0.99175078,0.026104152,-0.98667812,0.027833968,-0.0040118122,-0.004632026
35545000000,-0.0036324533,-0.0052357847,-0.99018252,0.02605316,-0.98651147,0.027808338,-0.0035859097,-0.0047940435
35612500000,-0.0040015616,-0.0043526292,-0.99227017,0.027166963,-0.98696756,0.028616697,-0.0036687686,-0.0045982236
35680000000,-0.0038212442,-0.0043490026,-0.99188185,0.026014864,-0.98766702,0.028123438,-0.0034005435,-0.004526732
35747500000,-0.0037697474,-0.0048350394,-0.99128789,0.026296973,-0.98762715,0.029117137,-0.0034271663,-0.0042595402
35815000000,-0.0037971174,-0.0044826372,-0.99132621,0.027218044,-0.98975563,0.028829455,-0.0030754013,-0.0048832865
35882500000,-0.0034484724,-0.0042918571,-0.99091136,0.026328348,-0.98937631,0.02898981,-0.0032546041,-0.0044267643
35950000000,-0.0039207535,-0.0040973295,-0.99069947,0.027283549,-0.98970699,0.03003794,-0.002883662,-0.0044761854
36017500000,-0.0032797763,-0.0036253356,-0.99086982,0.027063027,-0.99059415,0.029557139,-0.0032786657,-0.0043247161
36085000000,-0.0033111903,-0.0041977027,-0.99064922,0.026112795,-0.99058425,0.029496253,-0.0031040835,-0.0045064748
36152500000,-0.0034803424,-0.0038567302,-0.99216503,0.027228415,-0.99146014,0.029513091,-0.0037516057,-0.0036894903
36220000000,-0.0029281448,-0.0038416921,-0.99134386,0.026158422,-0.99156618,0.029420853,-0.0026652198,-0.0041041984
36287500000,-0.0031384511,-0.0040336717,-0.98881698,0.026204973,-0.99161017,0.028830811,-0.0027856575,-0.0042129941
36355000000,-0.0032310421,-0.0039266101,-0.98985875,0.028204635,-0.99330437,0.029190421,-0.0030596037,-0.004313495
36422500000,-0.0028781965,-0.0039321627,-0.99249518,0.027066112,-0.9921006,0.028932095,-0.0033042568,-0.0043942509
36490000000,-0.0033955837,-0.0037761012,-0.9910863,0.026176251,-0.99314541,0.030408867,-0.0028164678,-0.0043402971
36557500000,-0.0027531413,-0.0040507969,-0.98949492,0.026572049,-0.99396718,0.030044466,-0.0029058484,-0.0046221814
36625000000,-0.0029934999,-0.0040377039,-0.98827732,0.026753783,-0.99246591,0.029318303,-0.0029632444,-0.0039293747
36692500000,-0.0032244297,-0.004639097,-0.98862189,0.027826965,-0.99335253,0.030020773,-0.0028867542,-0.0044438285
36760000000,-0.0029394943,-0.004061169,-0.9911254,0.027792066,-0.99312073,0.029447019,-0.0028782303,-0.0049172877
36827500000,-0.0029983134,-0.0039601158,-0.99021709,0.02663672,-0.99388093,0.030237511,-0.0029505291,-0.0041558067
36895000000,-0.0029808753,-0.0038254925,-0.98819625,0.027571261,-0.99589312,0.030059397,-0.0029965485,-0.004265388
36962500000,-0.0028029107,-0.0040776338,-0.98923457,0.027385145,-0.99438655,0.029197514,-0.00298889,-0.004279647
37030000000,-0.0032717374,-0.0040667295,-0.98910034,0.026447535,-0.99304211,0.02999416,-0.0028938465,-0.0044156192
37097500000,-0.0033032321,-0.0036933536,-0.99027491,0.027363628,-0.99485981,0.030463517,-0.0030327467,-0.0046590799
37165000000,-0.0032223812,-0.0041375998,-0.98836756,0.025698364,-0.99279881,0.029890835,-0.0032694773,-0.0046746777
37232500000,-0.0031489115,-0.0041400227,-0.98787796,0.027144909,-0.99422622,0.030734509,-0.0030378578,-0.0044516539
37300000000,-0.0027601637,-0.0041910294,-0.99051487,0.027545899,-0.99518931,0.030861363,-0.0031541386,-0.0042893854
37367500000,-0.0034534126,-0.003950072,-0.991319,0.026250541,-0.99310517,0.030530542,-0.0037327122,-0.0040101511
37435000000,-0.0030959409,-0.0041726325,-0.99014944,0.026135027,-0.994344,0.032351859,-0.0036072112,-0.0041463384
37502500000,-0.0029698345,-0.0037811135,-0.98949075,0.026010454,-0.99420989,0.030805469,-0.0036931995,-0.0046324204
37570000000,-0.0029590279,-0.0034936457,-0.98915696,0.027078103,-0.99258983,0.031583089,-0.0039520985,-0.0041282219
37637500000,-0.0030721994,-0.0038183937,-0.99082804,0.027125649,-0.99359256,0.032322757,-0.0032884157,-0.0040075136
37705000000,-0.003025827,-0.0036513167,-0.99198645,0.026517034,-0.9930371,0.032047838,-0.0032909038,-0.0038469806
37772500000,-0.0028884676,-0.0032717681,-0.99196512,0.026772514,-0.99202651,0.032382876,-0.0033226244,-0.0037020801
37840000000,-0.0029482651,-0.0031375848,-0.99251395,0.025510877,-0.99290532,0.032803386,-0.0032939215,-0.0038186568
37907500000,-0.002848204,-0.0035387969,-0.99056727,0.025500767,-0.9919973,0.033041671,-0.0033033362,-0.0039207912
