!CSV A.01.01
!Keysight Technologies,N5247B,US56070639,A.17.30.08
!Date: Wednesday, July 22, 2026 11:59:04
!Source: Standard

BEGIN CH1_DATA
Freq(Hz),S21(REAL),S21(IMAG),S11(REAL),S11(IMAG),S22(REAL),S22(IMAG),S12(REAL),S12(IMAG)
26500000000,-0.00072869309,-0.0053082742,-1.0049143,0.019832969,-0.98543215,0.030684263,-0.00092039537,-0.0056647081
26567500000,-0.00097647868,-0.0054240073,-1.00289,0.017889798,-0.9858073,0.030905098,-0.00080534653,-0.0054703467
26635000000,-0.00067257229,-0.0056853327,-1.0018477,0.019082248,-0.98296762,0.030579954,-0.00095571578,-0.0057419064
26702500000,-0.00089833757,-0.0057609347,-1.0041883,0.019560099,-0.98379576,0.0323167,-0.00059318589,-0.0061013321
26770000000,-0.00097242754,-0.0053892327,-1.0031228,0.017624058,-0.98408413,0.02863276,-0.0011465137,-0.0057947291
26837500000,-0.00082739413,-0.0052694287,-1.0019324,0.019469962,-0.98158836,0.031054437,-0.0012107354,-0.0059393784
26905000000,-0.001157861,-0.0053599617,-1.0044135,0.019036874,-0.98411298,0.030975342,-0.00135179,-0.0057383501
26972500000,-0.00086159934,-0.0054701986,-1.0019709,0.018738538,-0.98341691,0.029054761,-0.00094126607,-0.0059838281
27040000000,-0.0013015019,-0.005793178,-1.0032241,0.020119991,-0.98069948,0.02989395,-0.0013682795,-0.0061482885
27107500000,-0.0011895606,-0.0055014533,-1.0036521,0.019297034,-0.98341531,0.030774117,-0.0014095671,-0.0057294322
27175000000,-0.0011263875,-0.0055545154,-1.0013134,0.018335268,-0.9818868,0.027998179,-0.00096531934,-0.0056008394
27242500000,-0.00087993545,-0.0056010657,-1.0015361,0.020582259,-0.98086095,0.030168861,-0.00097138854,-0.0057442356
27310000000,-0.00080465485,-0.0055055041,-1.0024509,0.018933773,-0.98155022,0.030693129,-0.0010882786,-0.0061461958
27377500000,-0.00073249417,-0.0057403338,-1.0012887,0.019832388,-0.97954839,0.02852048,-0.0012197227,-0.0060024387
27445000000,-0.00085931201,-0.0057917461,-1.0018048,0.020421118,-0.97874296,0.029215753,-0.0011864905,-0.0058787451
27512500000,-0.0010590858,-0.0059871404,-1.0026183,0.019085467,-0.98143613,0.028936148,-0.0014388517,-0.0058726096
27580000000,-0.00085372361,-0.0056851716,-0.99977815,0.020065784,-0.977992,0.028814137,-0.00091714528,-0.0058937296
27647500000,-0.00090515031,-0.0058156983,-1.0026662,0.019557118,-0.9788484,0.030919045,-0.0014261043,-0.0061257076
27715000000,-0.0010906376,-0.0060498961,-1.0015793,0.0195629,-0.97907674,0.029034585,-0.0014079112,-0.0057441075
27782500000,-0.0012277656,-0.0061499532,-1.0012107,0.020232886,-0.97744393,0.02910462,-0.001023978,-0.0060391454
27850000000,-0.0015105853,-0.0062309513,-1.00187,0.020287931,-0.97850478,0.03046608,-0.0013329539,-0.0060482379
27917500000,-0.0011265443,-0.0061350614,-1.0010387,0.01933229,-0.97729069,0.028455317,-0.0010350986,-0.0062052612
27985000000,-0.001366382,-0.006014497,-1.0006099,0.02154097,-0.975752,0.028742731,-0.0015055209,-0.0062857433
28052500000,-0.0013908732,-0.0062399935,-1.0021625,0.019878298,-0.97759521,0.02908206,-0.001186843,-0.0060704532
28120000000,-0.0015148772,-0.0059457393,-1.0011635,0.020013481,-0.97779703,0.027776599,-0.0014782755,-0.0058824206
28187500000,-0.0014046691,-0.005858527,-1.0008298,0.020648777,-0.97658074,0.029266968,-0.0014122147,-0.0057693534
28255000000,-0.0019016198,-0.0056469683,-1.0015439,0.020561725,-0.9773919,0.029501677,-0.0014030765,-0.0062734014
28322500000,-0.0013772079,-0.005840824,-1.0005049,0.019945264,-0.97634333,0.027778268,-0.0013380011,-0.0059573217
28390000000,-0.0018232614,-0.005574008,-1.0014807,0.021228537,-0.97540301,0.029457927,-0.001238179,-0.0060346727
28457500000,-0.0014706653,-0.005534207,-1.0013208,0.020282954,-0.97745591,0.029029429,-0.0009923263,-0.0055698045
28525000000,-0.0013290917,-0.0061744153,-1.0007508,0.020736247,-0.97727758,0.028972626,-0.0010527611,-0.0058262199
28592500000,-0.0015285264,-0.005625505,-0.99997473,0.021247506,-0.97475362,0.030056149,-0.0011924051,-0.0060276221
28660000000,-0.0014800217,-0.0060138972,-1.0014355,0.020646036,-0.97702169,0.029453307,-0.0011748821,-0.0060550356
28727500000,-0.0011163084,-0.0058470322,-1.0010624,0.020846277,-0.97626066,0.029411677,-0.0011572071,-0.0057218703
28795000000,-0.0011547389,-0.0057454291,-1.0008411,0.020214885,-0.97565603,0.030638993,-0.0010093477,-0.0060680946
28862500000,-0.001381204,-0.00590911,-1.0017667,0.020875007,-0.97643441,0.03020817,-0.0011319497,-0.0060814256
28930000000,-0.0011079828,-0.0058286218,-1.0013051,0.020308316,-0.97606498,0.028951019,-0.00092926528,-0.0061172638
28997500000,-0.0013721877,-0.0058793165,-1.0008779,0.02121485,-0.97572076,0.029324822,-0.0010658391,-0.0059728529
29065000000,-0.0012469152,-0.0061167972,-1.0013562,0.021178216,-0.97768092,0.030199602,-0.00074185268,-0.005906119
29132500000,-0.0013855705,-0.0064292215,-1.0016794,0.020183772,-0.97578859,0.029388189,-0.00068452256,-0.0061347261
29200000000,-0.0012748674,-0.0062969336,-1.0012546,0.020932019,-0.97465539,0.029667348,-0.0011328722,-0.0064695776
29267500000,-0.001352094,-0.0060720914,-1.002126,0.020960867,-0.97739875,0.02929204,-0.0011057178,-0.0063942652
29335000000,-0.001121969,-0.0063047172,-1.0006385,0.020541549,-0.97591096,0.028337151,-0.0011263783,-0.0063435943
29402500000,-0.0015156654,-0.0063674892,-1.0002739,0.021256372,-0.97642422,0.028563455,-0.00088807411,-0.0065696021
29470000000,-0.0012801427,-0.0065617152,-1.0018189,0.021397561,-0.9778592,0.028116345,-0.00098186848,-0.0066965572
29537500000,-0.0015378372,-0.0065832315,-1.0000736,0.019532606,-0.97576958,0.026753053,-0.0013674126,-0.0064878813
29605000000,-0.001595668,-0.0068297819,-1.0000565,0.021745205,-0.97657108,0.028295517,-0.0015897942,-0.0065917857
29672500000,-0.0016311291,-0.0066362312,-1.0030936,0.020913482,-0.97761983,0.027041286,-0.0014677942,-0.0066078901
29740000000,-0.0017251819,-0.0065125171,-1.0007455,0.020761997,-0.97601086,0.025927603,-0.0014117775,-0.0064779916
29807500000,-0.0020279973,-0.0066565359,-1.0009812,0.021670431,-0.97661829,0.026596576,-0.0013561533,-0.0066853333
29875000000,-0.001820805,-0.0065288623,-1.0016491,0.021701515,-0.97916716,0.0244385,-0.0020875591,-0.0067247832
29942500000,-0.0015767468,-0.0061913407,-1.0002664,0.020388838,-0.97819108,0.024826575,-0.0014536241,-0.0062452243
30010000000,-0.0020401934,-0.0066974796,-1.0015047,0.021996021,-0.97949523,0.026735842,-0.0016474586,-0.0060278066
30077500000,-0.0020454123,-0.0064894171,-1.0018235,0.020791769,-0.98011279,0.023886919,-0.0012614781,-0.0061399555
30145000000,-0.0016039197,-0.0062197279,-1.0004067,0.020815894,-0.97774631,0.024421364,-0.0014077176,-0.0065203775
30212500000,-0.0016295966,-0.0062289946,-1.0012674,0.022726208,-0.98154098,0.024555564,-0.0016128566,-0.0060763555
30280000000,-0.0019290138,-0.0062054535,-1.0017591,0.020496488,-0.98137426,0.024267018,-0.0014258192,-0.0062018903
30347500000,-0.0014987607,-0.0065256706,-0.9996112,0.021994084,-0.97892517,0.024070919,-0.0010457471,-0.0060066995
30415000000,-0.0020212461,-0.006229965,-1.0011837,0.022281185,-0.98187882,0.026275024,-0.0011548505,-0.0064777378
30482500000,-0.0016839687,-0.0062888879,-1.0008401,0.02104184,-0.98086363,0.024265751,-0.0012443608,-0.006531727
30550000000,-0.0020650737,-0.0067471019,-0.99990129,0.021949023,-0.97943228,0.026179463,-0.0011426853,-0.0062696561
30617500000,-0.0015587891,-0.0066329697,-1.0021755,0.023031965,-0.98138577,0.025911391,-0.00093955238,-0.0064066155
30685000000,-0.0016220214,-0.0063587828,-1.0006241,0.02132827,-0.97907859,0.024972826,-0.00049855642,-0.0067612943
30752500000,-0.0015601632,-0.0064981906,-0.99937075,0.024012893,-0.9791317,0.026920378,-0.00059840619,-0.0069282567
30820000000,-0.001845879,-0.0066905236,-1.0002843,0.021914959,-0.98127818,0.025311798,-0.0012068367,-0.007136642
30887500000,-0.0019796523,-0.0066648796,-0.99928284,0.022423327,-0.97813106,0.025916696,-0.0010145025,-0.0069710063
30955000000,-0.0018051382,-0.0066768997,-1.0004249,0.022793278,-0.98003805,0.028081164,-0.00071846525,-0.0069685457
31022500000,-0.00190531,-0.0070658345,-1.0011661,0.023678869,-0.97977459,0.026973158,-0.0012361105,-0.0075161722
31090000000,-0.0017400258,-0.0070074988,-0.99885654,0.023282707,-0.97684354,0.027136803,-0.00080382614,-0.0069449004
31157500000,-0.0019447418,-0.0075043272,-0.99938649,0.023820907,-0.97673827,0.027787417,-0.0016148271,-0.0073030717
31225000000,-0.0022583588,-0.0071119983,-1.000298,0.02335,-0.97752804,0.026263684,-0.0019163052,-0.0079635745
31292500000,-0.0017240766,-0.0068770014,-0.99828321,0.023008019,-0.97595787,0.027124941,-0.00097600638,-0.0078188255
31360000000,-0.0020385587,-0.007358647,-0.99911356,0.024444133,-0.97708786,0.026184961,-0.0015425384,-0.0072966078
31427500000,-0.0024063876,-0.0068969815,-0.99824417,0.022784121,-0.97601384,0.026780009,-0.0021083513,-0.0076058879
31495000000,-0.0022978862,-0.0069403411,-0.99820161,0.024138927,-0.97565448,0.026877552,-0.0017781693,-0.0076277535
31562500000,-0.0027225409,-0.0071950331,-0.99955642,0.023849845,-0.97688282,0.026720405,-0.0017024984,-0.0073880432
31630000000,-0.0025543396,-0.007031179,-0.99864531,0.023785204,-0.97571218,0.026074201,-0.0019322687,-0.0077028386
31697500000,-0.0022515226,-0.0070327669,-0.99955237,0.023930579,-0.97572386,0.026447922,-0.0021616302,-0.0080721043
31765000000,-0.0022540155,-0.0070554647,-0.99868262,0.024594307,-0.97676027,0.0259175,-0.0021656798,-0.0074468064
31832500000,-0.0024724214,-0.0065288991,-0.99879432,0.024414569,-0.97765231,0.026011705,-0.0022627541,-0.0072567472
31900000000,-0.0027326313,-0.0067135217,-0.99881959,0.024445936,-0.97644097,0.026485175,-0.0020974977,-0.0072777043
31967500000,-0.002804623,-0.0067003318,-0.99824435,0.023995221,-0.97814316,0.02706629,-0.0019533162,-0.0071234247
32035000000,-0.0024447779,-0.0073647615,-0.99798352,0.0242818,-0.97771448,0.027497321,-0.0022742471,-0.0067460453
32102500000,-0.0026038364,-0.0072476789,-0.99747992,0.024969958,-0.97701961,0.028174266,-0.0023797709,-0.0067424937
32170000000,-0.0021943292,-0.0070650573,-0.99783552,0.024338096,-0.97770035,0.027651638,-0.0019091433,-0.0073964712
32237500000,-0.0025601368,-0.0067566605,-0.99801457,0.024370015,-0.9777773,0.027668923,-0.0020362455,-0.0072387718
32305000000,-0.0023755559,-0.0067169406,-0.9979862,0.023754716,-0.97796202,0.027878344,-0.0019515969,-0.0069316598
32372500000,-0.0024623494,-0.0069076018,-0.99757016,0.024022609,-0.97849852,0.028537214,-0.0017831919,-0.0070979432
32440000000,-0.0025461423,-0.0064152884,-0.99913573,0.025041714,-0.97818178,0.028852418,-0.0021379201,-0.0073862267
32507500000,-0.0022325888,-0.0071534663,-0.99697882,0.023677807,-0.9774729,0.028823905,-0.0019100737,-0.0075641046
32575000000,-0.0024814329,-0.0067459261,-0.99813646,0.02414012,-0.97703516,0.029338449,-0.0017385749,-0.0075965291
32642500000,-0.0019702376,-0.0071687261,-0.99817353,0.024537951,-0.97643214,0.027990788,-0.0021700624,-0.0076802098
32710000000,-0.0022321371,-0.0070900004,-0.99774212,0.023157656,-0.97642809,0.028405756,-0.0021255978,-0.0075368048
32777500000,-0.0026442166,-0.0075384872,-0.99629539,0.023561478,-0.97617817,0.028256953,-0.0018372929,-0.0077206739
32845000000,-0.0026755293,-0.0070991032,-0.99761254,0.023849577,-0.97539961,0.027946115,-0.0024018721,-0.008364954
32912500000,-0.0025527237,-0.0070739212,-0.99699843,0.023411483,-0.97551054,0.028570056,-0.0024609021,-0.0080657145
32980000000,-0.0027725738,-0.00721954,-0.99751759,0.023835331,-0.97585636,0.027036488,-0.0028342488,-0.0081255306
33047500000,-0.0029508641,-0.0072409259,-0.99795127,0.023300201,-0.9754687,0.025571883,-0.0028341901,-0.0083085364
33115000000,-0.0032240418,-0.00730266,-0.99699175,0.022933431,-0.97571343,0.026444964,-0.0034914578,-0.008260468
33182500000,-0.0032299801,-0.0071461415,-0.99786282,0.023500443,-0.97600996,0.02471453,-0.0033779859,-0.0080389064
33250000000,-0.0030279187,-0.0067440383,-0.99823791,0.021977738,-0.97399729,0.025068328,-0.0034453385,-0.0078975298
33317500000,-0.0028979296,-0.0071161482,-0.99735767,0.022857428,-0.97470629,0.02497679,-0.0036547235,-0.007652787
33385000000,-0.0035776084,-0.0067381812,-0.99908864,0.023101002,-0.97533286,0.023442119,-0.0034332338,-0.0077562276
33452500000,-0.0037440557,-0.0069493726,-0.99845934,0.023115277,-0.97417247,0.023663938,-0.003844165,-0.0071077133
33520000000,-0.0037042606,-0.0069445022,-0.9980883,0.023406923,-0.97621256,0.023473263,-0.0040498562,-0.0073122452
33587500000,-0.003672055,-0.0066194017,-0.9988606,0.023572028,-0.97669876,0.02126801,-0.0040266565,-0.0074329604
33655000000,-0.0037109745,-0.0068900483,-0.99799675,0.02295962,-0.97506857,0.021648869,-0.0040909061,-0.0071530812
33722500000,-0.0038418397,-0.006384525,-0.9984535,0.023189276,-0.97676635,0.023522049,-0.0040850258,-0.0066149589
33790000000,-0.0038182493,-0.0065169143,-0.99871027,0.023509175,-0.97593701,0.02222386,-0.004273063,-0.0067582121
33857500000,-0.0040630093,-0.006253249,-0.99844295,0.022986621,-0.9753108,0.023520112,-0.0042264131,-0.0069662305
33925000000,-0.003889895,-0.00643255,-0.9994421,0.024110407,-0.97693193,0.023197114,-0.004000145,-0.0065834946
33992500000,-0.0039142668,-0.005993186,-0.99898612,0.022960782,-0.97559941,0.022044003,-0.0041962643,-0.0067936275
34060000000,-0.0037792483,-0.0060556899,-0.99894089,0.02385211,-0.97601277,0.023875535,-0.0042867246,-0.005952307
34127500000,-0.0038379026,-0.0059111589,-0.9993856,0.02432061,-0.97732151,0.023577578,-0.003905151,-0.0061588124
34195000000,-0.0036859657,-0.0057714125,-0.99949157,0.023763418,-0.9744314,0.023552924,-0.0043352204,-0.0063044676
34262500000,-0.0037644485,-0.0060483245,-0.99883795,0.024493635,-0.97459143,0.026072919,-0.0040308805,-0.0060185883
34330000000,-0.0036953103,-0.0058178711,-0.99972653,0.024242878,-0.97570217,0.025369376,-0.0039281896,-0.0059778597
34397500000,-0.0035943389,-0.0059741633,-0.99944228,0.024617821,-0.97367847,0.025489509,-0.0032449288,-0.0059502963
34465000000,-0.0035622998,-0.0056123398,-0.99964237,0.025522619,-0.97503161,0.027258247,-0.0035486969,-0.0060840342
34532500000,-0.0037586037,-0.0061130719,-0.99940169,0.024221435,-0.97491032,0.025997505,-0.003333207,-0.0057867644
34600000000,-0.0040465435,-0.0060976627,-0.99914706,0.024076685,-0.97311616,0.027341992,-0.0036179097,-0.0063119726
34667500000,-0.0034652222,-0.0058363443,-0.99939072,0.025794297,-0.97349083,0.027780622,-0.0035714158,-0.0061315522
34735000000,-0.0037835483,-0.0059956368,-1.0003861,0.023817837,-0.97314095,0.027387977,-0.0031223565,-0.0061763795
34802500000,-0.0042563826,-0.0056940974,-0.99998784,0.025154948,-0.97153133,0.029049724,-0.003481087,-0.0064150388
34870000000,-0.0039536492,-0.0063071791,-0.99978727,0.024716139,-0.97116721,0.027863979,-0.0036319455,-0.0065147392
34937500000,-0.0039378451,-0.0057512275,-1.0001467,0.024382204,-0.97251683,0.027451366,-0.0040012617,-0.0062700603
35005000000,-0.0042887544,-0.0054866043,-0.99964905,0.025157407,-0.97156125,0.028913578,-0.0038950806,-0.0061197127
35072500000,-0.0046093008,-0.006073412,-1.0015579,0.024544001,-0.97179168,0.027496099,-0.0041720262,-0.0063883066
35140000000,-0.00435375,-0.0061480729,-1.000568,0.02340658,-0.96948224,0.027229235,-0.004329036,-0.006551235
35207500000,-0.0048413803,-0.0058759344,-1.0010378,0.024558984,-0.97133338,0.026660733,-0.0042696311,-0.006669689
35275000000,-0.004615624,-0.0060286317,-0.9999733,0.024610706,-0.9711386,0.0252993,-0.0042096297,-0.0059040277
35342500000,-0.0043563163,-0.0049494444,-1.0001038,0.023938164,-0.97041935,0.026129477,-0.0043078102,-0.0058548218
35410000000,-0.0050552632,-0.0057114027,-1.0000845,0.02562727,-0.97270334,0.024929211,-0.0044985963,-0.0056520882
35477500000,-0.0049210405,-0.0048614657,-1.0002381,0.024582416,-0.97357368,0.024436504,-0.0043226238,-0.0050906152
35545000000,-0.0050618066,-0.0051252423,-0.99858993,0.025395304,-0.97321844,0.025208473,-0.0044885762,-0.0050003706
35612500000,-0.0056877621,-0.0048220456,-1.0005627,0.025671393,-0.97367024,0.025903851,-0.0040758066,-0.0047101337
35680000000,-0.0046666181,-0.0050250762,-0.999551,0.024900019,-0.97442913,0.02528581,-0.0042560706,-0.0047671366
35747500000,-0.0046944548,-0.0043384461,-0.99859297,0.024948001,-0.97418332,0.025598824,-0.0040304465,-0.0053162742
35815000000,-0.0048034852,-0.0041789114,-0.99870747,0.026232541,-0.97588676,0.025083482,-0.0040019159,-0.0051047904
35882500000,-0.0048056566,-0.0048504933,-0.99873275,0.025506433,-0.97600234,0.025718924,-0.0037170006,-0.0048448648
35950000000,-0.0044390261,-0.0043956367,-0.99994838,0.026367217,-0.97664094,0.026932687,-0.0044414932,-0.0047964649
36017500000,-0.0043215924,-0.0039097378,-0.99921066,0.025594786,-0.97723657,0.025883779,-0.004099194,-0.0048727849
36085000000,-0.0047583967,-0.0040129009,-0.99824291,0.024815172,-0.97751492,0.026792616,-0.0036683248,-0.0043721274
36152500000,-0.0042028641,-0.0041451054,-0.99906409,0.026253715,-0.97818345,0.026069984,-0.0037753046,-0.0041623376
36220000000,-0.0043484471,-0.0040374557,-0.99967122,0.02535817,-0.97855759,0.025684774,-0.0035985454,-0.00438296
36287500000,-0.0039591743,-0.0040910705,-0.9973011,0.025129601,-0.97938544,0.02580902,-0.0035540077,-0.0042485488
36355000000,-0.0042716381,-0.0037062496,-0.99805349,0.026878387,-0.98068118,0.026089072,-0.004123067,-0.0047894055
36422500000,-0.0038048369,-0.0035451839,-0.9997651,0.025748163,-0.97929126,0.026224852,-0.0034787718,-0.0044640042
36490000000,-0.0039686202,-0.0040812716,-0.99777985,0.025075011,-0.98073643,0.027259,-0.0033204509,-0.0043763635
36557500000,-0.0037498767,-0.0037676545,-0.99810094,0.025910169,-0.98030728,0.026139975,-0.0038590429,-0.0048879613
36625000000,-0.0039127762,-0.0036734594,-0.99748069,0.025636792,-0.97923768,0.025849342,-0.0036205477,-0.0044069886
36692500000,-0.0037710001,-0.0039471993,-0.99769902,0.026097596,-0.97985339,0.026511639,-0.0033763428,-0.0045608236
36760000000,-0.0040108063,-0.0040131449,-0.99950826,0.026167721,-0.97926664,0.025327951,-0.0037632321,-0.0042535113
36827500000,-0.0042369319,-0.0038322853,-0.99766541,0.024675995,-0.98010182,0.025758997,-0.0035982986,-0.004277973
36895000000,-0.0041628485,-0.0036414608,-0.99712956,0.026163697,-0.98225069,0.025366634,-0.0035086484,-0.0043682726
36962500000,-0.0036811342,-0.0033922689,-0.99847531,0.025954366,-0.97981906,0.024482697,-0.0039042758,-0.004283776
37030000000,-0.003925005,-0.0035727883,-0.99807078,0.024869591,-0.97913152,0.024801135,-0.0041294717,-0.0038527257
37097500000,-0.0041690809,-0.0034248999,-0.99903178,0.025999486,-0.98031616,0.024723887,-0.0037506216,-0.0043628365
37165000000,-0.0036878104,-0.0035892073,-0.99831063,0.024838001,-0.97793913,0.023916304,-0.0040308703,-0.0041101882
37232500000,-0.0036975862,-0.0037973486,-0.9972173,0.02563104,-0.98053479,0.024098396,-0.0039874674,-0.0039019932
37300000000,-0.0039342619,-0.0031665326,-0.99979728,0.026248693,-0.98177516,0.023493797,-0.0044702231,-0.0040154508
37367500000,-0.0037455317,-0.003253662,-0.9987613,0.025895298,-0.9794398,0.023075819,-0.0038250317,-0.0039686812
37435000000,-0.0035807635,-0.0031578727,-0.99833465,0.025391772,-0.98046851,0.024932079,-0.0037769196,-0.0035192112
37502500000,-0.0034814205,-0.0034838058,-0.99933589,0.025277197,-0.98052216,0.02277258,-0.0039227968,-0.0035361601
37570000000,-0.0036027734,-0.0030458136,-0.99931186,0.025791246,-0.97999007,0.023778077,-0.0036969238,-0.0033614715
37637500000,-0.0027488237,-0.002989057,-0.99990702,0.026056208,-0.98133349,0.023274399,-0.0035910273,-0.0033525929
37705000000,-0.003338818,-0.0026878431,-0.99994302,0.025770485,-0.98009038,0.022557735,-0.0033791873,-0.0033810665
37772500000,-0.0030222884,-0.002716721,-0.99950522,0.026427016,-0.98081112,0.023069665,-0.003373804,-0.0033351709
37840000000,-0.00272039,-0.0024691424,-1.0006318,0.026299715,-0.98106223,0.022878826,-0.0030818647,-0.0032595564
37907500000,-0.0029537212,-0.0023369072,-1.0003347,0.025869276,-0.98086905,0.023087027,-0.0031626809,-0.0028267989
37975000000,-0.0026109873,-0.0024376602,-0.99888277,0.026770055,-0.98207664,0.024520934,-0.0032855798,-0.0030237872
38042500000,-0.0025549936,-0.0025664438,-0.99930882,0.026990861,-0.98225892,0.023431987,-0.0029991597,-0.0025950149
