!CSV A.01.01
!Keysight Technologies,N5247B,US56070639,A.17.30.08
!Date: Wednesday, July 22, 2026 11:58:18
!Source: Standard

BEGIN CH1_DATA
Freq(Hz),S21(REAL),S21(IMAG),S11(REAL),S11(IMAG),S22(REAL),S22(IMAG),S12(REAL),S12(IMAG)
26500000000,0.0010593912,-0.0066917595,-1.006156,0.017569393,-0.98699629,0.028218269,0.00090665766,-0.0072930111
26567500000,0.00075426977,-0.0068062823,-1.0045451,0.015107185,-0.98671246,0.028421521,0.0010988764,-0.0069957469
26635000000,0.0012611095,-0.0067476998,-1.0027721,0.016788185,-0.98385817,0.027884305,0.0011571811,-0.0072647445
26702500000,0.00102215,-0.0067790039,-1.0050424,0.017295152,-0.98532629,0.029675469,0.00096045271,-0.0073967329
26770000000,0.00098415301,-0.0071763112,-1.0042275,0.015440032,-0.98531854,0.0267151,0.00077538437,-0.0076539032
26837500000,0.00095388386,-0.0068059824,-1.0029742,0.016849831,-0.98222494,0.027961403,0.00076564285,-0.0071850666
26905000000,0.00070528185,-0.0075019542,-1.0058577,0.016339794,-0.98446095,0.027814001,0.00055049045,-0.0073484648
26972500000,0.00081508583,-0.0072549507,-1.0032568,0.01611802,-0.98408484,0.026765019,0.00088294339,-0.0073078186
27040000000,0.00090051885,-0.0076285163,-1.0044806,0.017806005,-0.98102176,0.027925219,0.00093738199,-0.0076113809
27107500000,0.001072428,-0.0074238679,-1.0053339,0.016508341,-0.98377109,0.028213233,0.00084777642,-0.0075244093
27175000000,0.0010393142,-0.0072561484,-1.0027366,0.015881851,-0.98226786,0.025689155,0.00098546804,-0.0072440417
27242500000,0.00094893435,-0.007331986,-1.0025289,0.017813176,-0.98126614,0.027894258,0.00079509779,-0.0073023019
27310000000,0.0011704345,-0.0073366137,-1.0040469,0.016213447,-0.98251867,0.028297529,0.00094447518,-0.0077006849
27377500000,0.00091042579,-0.0072337734,-1.0023148,0.016742349,-0.97978401,0.026469618,0.0010828612,-0.0078234142
27445000000,0.0014342021,-0.0073664263,-1.003242,0.017052531,-0.97961724,0.027714342,0.00082251406,-0.0073703825
27512500000,0.00084237964,-0.0074885348,-1.0038073,0.015597582,-0.98197258,0.027343422,0.00092151272,-0.0076145232
27580000000,0.001344386,-0.0074267471,-1.0007517,0.017020971,-0.97827351,0.026804149,0.0013065194,-0.0076032523
27647500000,0.0011321898,-0.0077524884,-1.0036807,0.016821235,-0.97834575,0.028788954,0.00090201339,-0.0080511896
27715000000,0.00094981329,-0.0076321037,-1.0033492,0.016543299,-0.97982454,0.026680559,0.0009894718,-0.0078566186
27782500000,0.0010767709,-0.0080646258,-1.0028937,0.017139137,-0.9772191,0.026842415,0.0012121401,-0.0080358125
27850000000,0.0011046992,-0.0083281947,-1.003762,0.017169178,-0.97823423,0.028671563,0.00094694924,-0.0080413148
27917500000,0.0010088149,-0.0081103537,-1.0026443,0.016280621,-0.97779155,0.026442945,0.0010898121,-0.0085236533
27985000000,0.00065072766,-0.0080126207,-1.0020961,0.018669397,-0.97565532,0.026733488,0.00089955865,-0.0082423026
28052500000,0.00063829683,-0.0081706643,-1.0040264,0.016301602,-0.97750866,0.027200639,0.00076262141,-0.007778923
28120000000,0.00069765956,-0.0081002247,-1.0029213,0.01629737,-0.97736049,0.02571255,0.00080596516,-0.0078068245
28187500000,0.00068527134,-0.0083612585,-1.0024134,0.017980248,-0.97568506,0.027567998,0.00091277761,-0.0080439169
28255000000,0.00033447053,-0.0083166165,-1.0032952,0.01752463,-0.97723132,0.027372897,0.00091411499,-0.0079178866
28322500000,0.00067890086,-0.0080357641,-1.002663,0.017129928,-0.97586334,0.025660783,0.00073481631,-0.0080906535
28390000000,0.00037397025,-0.0080344016,-1.0031346,0.017632641,-0.97505897,0.027745463,0.00035417726,-0.0077562728
28457500000,0.00027249102,-0.0079612341,-1.0031314,0.017000556,-0.97647917,0.027480453,0.00090080523,-0.0077868085
28525000000,0.0004741603,-0.0079272138,-1.0029026,0.017408878,-0.97638601,0.027715206,0.00081929937,-0.007754867
28592500000,0.00078417105,-0.0079102945,-1.00177,0.017303646,-0.97417378,0.0279755,0.00077056116,-0.0081749428
28660000000,0.00061535323,-0.0084355911,-1.0031323,0.017350286,-0.97668046,0.027704418,0.00086746248,-0.0079964921
28727500000,0.00049799093,-0.0081409626,-1.0027632,0.01807363,-0.97554088,0.027311251,0.00098379562,-0.0078386441
28795000000,0.0006203946,-0.0079863891,-1.003237,0.016487211,-0.97503108,0.028914854,0.0010116587,-0.0079220366
28862500000,0.00066891662,-0.0079257609,-1.0038009,0.017705441,-0.97586888,0.028273791,0.00091578416,-0.0079328194
28930000000,0.00079210824,-0.0081922468,-1.002809,0.016912937,-0.97559005,0.02723518,0.0011033572,-0.0083704395
28997500000,0.0011626583,-0.008450916,-1.0023315,0.017503969,-0.97449225,0.027635969,0.00085352408,-0.0083646411
29065000000,0.000831899,-0.0084306784,-1.0033623,0.017572962,-0.9763695,0.028372012,0.0010927462,-0.0080660842
29132500000,0.00088237342,-0.0084753931,-1.0036032,0.016288638,-0.97483152,0.027351111,0.0011167759,-0.0084834248
29200000000,0.00059106341,-0.0087407753,-1.003016,0.016293585,-0.9742943,0.028085142,0.0011687404,-0.0087367333
29267500000,0.00042194535,-0.0089178411,-1.0045339,0.016795091,-0.97540444,0.02804248,0.00081247743,-0.0086727189
29335000000,0.0009560351,-0.0088246828,-1.0027684,0.016330197,-0.97456002,0.026333153,0.0010840715,-0.0086351084
29402500000,0.0008607941,-0.009003575,-1.0017833,0.017065808,-0.97529745,0.026889488,0.00087269314,-0.0088394042
29470000000,0.00090574502,-0.0088249194,-1.0037864,0.017443284,-0.9767397,0.026297927,0.00081437163,-0.009222893
29537500000,0.00067162863,-0.009255562,-1.0020127,0.015539348,-0.9743365,0.02496399,0.00054726994,-0.0091616912
29605000000,0.00055251736,-0.0094632488,-1.0017287,0.017220467,-0.97496277,0.026794583,0.00047644484,-0.0089467075
29672500000,0.00017333077,-0.0094677564,-1.0051539,0.016649008,-0.97634822,0.025067121,0.00067715347,-0.0090570385
29740000000,0.00020042714,-0.0091179376,-1.0032233,0.016567439,-0.97502089,0.024589658,0.00045632524,-0.0086494023
29807500000,-0.00013859756,-0.0093483878,-1.0031115,0.01731199,-0.97579598,0.024669647,0.00074368808,-0.0091531398
29875000000,0.00047825836,-0.0093548782,-1.0044709,0.016802132,-0.97846305,0.022704482,-0.00017065508,-0.0093568023
29942500000,0.00022029574,-0.0091508562,-1.0019972,0.016075198,-0.97629601,0.022677582,0.00047030055,-0.0089363465
30010000000,-0.00022387411,-0.0092104729,-1.0028087,0.017717183,-0.97804689,0.025037974,0.00048189424,-0.0086814584
30077500000,-0.00023116567,-0.0092764152,-1.0043243,0.01686722,-0.97804725,0.022512317,5.3504482e-006,-0.0086910743
30145000000,-0.00041962648,-0.0091728009,-1.0029603,0.016492799,-0.97597587,0.023149773,0.00039111462,-0.0089922007
30212500000,7.9001766e-005,-0.0093248477,-1.0035449,0.017990202,-0.979316,0.02257058,0.0006592148,-0.0085934559
30280000000,-0.0003366773,-0.0091700405,-1.0031581,0.016191632,-0.97861969,0.022429645,0.00061213924,-0.0084282774
30347500000,0.00038726768,-0.0093122013,-1.0014015,0.017909855,-0.97684801,0.022949845,0.00077967881,-0.0086953826
30415000000,-0.00040628738,-0.0095510036,-1.0035104,0.018108994,-0.97976083,0.024839789,0.00080099329,-0.0087722167
30482500000,-0.00012307521,-0.0092484606,-1.003096,0.016461089,-0.97852993,0.022830814,0.00048602885,-0.0088555515
30550000000,-5.8806036e-005,-0.0093893511,-1.0019345,0.017553061,-0.97674739,0.024859726,0.00092385267,-0.0088893212
30617500000,0.00035833626,-0.0095764706,-1.0036445,0.018162981,-0.97929984,0.02436167,0.00086227863,-0.0089417649
30685000000,0.00020837761,-0.0093124211,-1.0023147,0.016816467,-0.97702885,0.023675054,0.0012402514,-0.0095252553
30752500000,0.00014552358,-0.0096644219,-1.0005956,0.019137174,-0.97659725,0.025506824,0.0011756001,-0.0092618689
30820000000,-0.00010636821,-0.010052237,-1.0020639,0.016861886,-0.97901016,0.02352348,0.00084836362,-0.009847004
30887500000,-4.4665765e-005,-0.010110927,-1.000265,0.017522871,-0.97606647,0.023869574,0.0012257216,-0.0093051102
30955000000,-0.00031476934,-0.0099216821,-1.0017102,0.017859071,-0.97714037,0.026020706,0.0015670753,-0.0098440228
31022500000,5.4332428e-005,-0.010416321,-1.0028965,0.018366486,-0.97716713,0.024987578,0.00085002463,-0.0098808026
31090000000,-0.00011059549,-0.010486819,-1.0004965,0.017668486,-0.9749735,0.025274634,0.0010287319,-0.010144367
31157500000,-0.00025110855,-0.01034369,-1.0011494,0.018655658,-0.97473437,0.025411934,0.00098504103,-0.010243227
31225000000,-0.0002952558,-0.010753094,-1.0016279,0.017922193,-0.97517127,0.023446798,0.0012453441,-0.010655913
31292500000,-0.0001744742,-0.010325615,-1.000308,0.017643958,-0.97362256,0.024039626,0.00077895611,-0.01088947
31360000000,-0.0011984902,-0.01038693,-1.000649,0.018871367,-0.97511375,0.023816779,-0.00012216461,-0.011219083
31427500000,-0.0011185879,-0.010450653,-1.0004113,0.018517733,-0.9741345,0.02415742,-0.00010969734,-0.010822037
31495000000,-0.00070348475,-0.010732729,-0.99998474,0.019302517,-0.97374129,0.024048358,7.9995487e-005,-0.01093323
31562500000,-0.0011338547,-0.0099301022,-1.0016866,0.019007042,-0.97461152,0.023677528,-0.00018389057,-0.011175179
31630000000,-0.0011675432,-0.010576768,-1.0015042,0.018152744,-0.97310746,0.022364259,-6.0256571e-007,-0.011101824
31697500000,-0.0013263188,-0.010521641,-1.0021166,0.01862517,-0.97283268,0.022788167,-0.00029637897,-0.010765471
31765000000,-0.0014241771,-0.010556466,-1.0007994,0.018244058,-0.97530735,0.023101091,-0.00025853235,-0.010671302
31832500000,-0.0014455877,-0.010199952,-1.0009038,0.018730462,-0.97510231,0.022177845,-0.0005602506,-0.010493947
31900000000,-0.0016418211,-0.010040285,-1.0009294,0.018848911,-0.97402102,0.022660069,-0.00017809332,-0.010639773
31967500000,-0.00086987409,-0.010336006,-1.00081,0.018742859,-0.97533524,0.02346909,-0.0002934552,-0.0098586613
32035000000,-0.0013221693,-0.010343845,-1.0020782,0.018711537,-0.97542226,0.023971677,-0.00035672029,-0.010135675
32102500000,-0.0013240754,-0.010259111,-1.0003746,0.019120984,-0.97404075,0.024557486,-0.0007197673,-0.010333199
32170000000,-0.00070940354,-0.010198364,-1.0005742,0.018627375,-0.97455156,0.024065435,-0.00029410329,-0.01028023
32237500000,-0.0010039657,-0.0098015768,-1.0003676,0.018885225,-0.97495723,0.024369836,-0.00033713505,-0.010169582
32305000000,-0.00093154563,-0.01055762,-1.0004456,0.018083215,-0.97469962,0.024236381,-0.00011837622,-0.010253408
32372500000,-0.0010312917,-0.010485834,-0.99976563,0.018638879,-0.97478968,0.024582803,6.4691529e-005,-0.010688903
32440000000,-0.001350462,-0.0098616928,-1.0011754,0.019496068,-0.97469789,0.025044858,-5.3716358e-005,-0.010809737
32507500000,-0.0008990569,-0.010132837,-0.99996275,0.017582033,-0.9737699,0.024828643,0.00031758257,-0.010868383
32575000000,-0.0010918961,-0.010495489,-1.0001236,0.018535197,-0.97353107,0.024514347,0.00025344035,-0.011378457
32642500000,-0.0010958002,-0.010221898,-1.0010577,0.018508255,-0.97209507,0.023802489,3.8750703e-005,-0.011125783
32710000000,-0.0013302008,-0.010486762,-1.0008204,0.017314255,-0.97221017,0.023389965,2.1677464e-005,-0.011236917
32777500000,-0.0013277149,-0.010634411,-1.0000143,0.017653912,-0.97297567,0.02409704,-0.00044639129,-0.011322857
32845000000,-0.00099007925,-0.010358026,-1.0009109,0.017536223,-0.97149789,0.023271292,-0.0007224516,-0.01187446
32912500000,-0.0013553067,-0.010733787,-1.0001954,0.017375916,-0.97104502,0.023193568,-0.00059074257,-0.011839933
32980000000,-0.0013081385,-0.010885067,-1.001603,0.01716885,-0.97250497,0.021891952,-0.00063567329,-0.011786618
33047500000,-0.001905621,-0.010794839,-1.001585,0.016982168,-0.97138494,0.020321339,-0.0011379363,-0.011788785
33115000000,-0.0019412725,-0.010702888,-1.0010424,0.017316923,-0.9714976,0.020902053,-0.00068847171,-0.011934921
33182500000,-0.0016106167,-0.010711439,-1.0017529,0.017193913,-0.97207046,0.019488454,-0.001371114,-0.011625655
33250000000,-0.0019505473,-0.010694761,-1.0019927,0.015667677,-0.9707759,0.019506171,-0.0017415639,-0.011947493
33317500000,-0.0019295262,-0.010866796,-1.0016065,0.016939819,-0.9713949,0.019462198,-0.0021134862,-0.011509646
33385000000,-0.0021470087,-0.010883016,-1.0036836,0.01744163,-0.97304928,0.01850915,-0.0021523102,-0.012444334
33452500000,-0.0025111092,-0.010720037,-1.0027242,0.017168522,-0.97136068,0.017355829,-0.0025856313,-0.011388909
33520000000,-0.0026065349,-0.010541427,-1.0026212,0.017856598,-0.97427535,0.017674536,-0.0020985682,-0.011311773
33587500000,-0.0024931584,-0.0099742077,-1.0035471,0.017353922,-0.97430557,0.015780061,-0.0028886646,-0.011677439
33655000000,-0.0026396045,-0.010398393,-1.0027281,0.017101973,-0.97311354,0.016725376,-0.0027907467,-0.011494547
33722500000,-0.0030489815,-0.010341008,-1.0033544,0.017498136,-0.97532129,0.017506063,-0.0027892713,-0.011144167
33790000000,-0.002192196,-0.010103465,-1.0037769,0.017321497,-0.97464359,0.016877413,-0.0030589118,-0.010848706
33857500000,-0.0029182329,-0.010242873,-1.0029963,0.017463148,-0.97434157,0.017799109,-0.002918791,-0.011168125
33925000000,-0.0029167412,-0.010128523,-1.0041156,0.018485278,-0.97595638,0.017715454,-0.0030346694,-0.01048266
33992500000,-0.002830232,-0.0099255964,-1.0042,0.017500162,-0.97499985,0.016698152,-0.0029099926,-0.010659555
34060000000,-0.0027331663,-0.010131894,-1.0038176,0.017813534,-0.97570717,0.018278331,-0.0031494128,-0.010586273
34127500000,-0.0029804381,-0.0097256582,-1.0042384,0.018636234,-0.97778893,0.018842869,-0.0031244773,-0.010195833
34195000000,-0.0026456942,-0.0098340642,-1.0032899,0.018166631,-0.97489595,0.018119693,-0.0032064524,-0.01086128
34262500000,-0.0029229757,-0.0099778194,-1.0033041,0.018942267,-0.97456348,0.021223038,-0.0031164731,-0.010358171
34330000000,-0.0030287858,-0.010160077,-1.0045148,0.018677443,-0.97619933,0.02023989,-0.0031106407,-0.010287137
34397500000,-0.0025619189,-0.0097574508,-1.0041533,0.018873692,-0.97405875,0.020159543,-0.002784966,-0.010251706
34465000000,-0.0029376524,-0.0099330861,-1.0046178,0.019085914,-0.97550684,0.022657514,-0.0023770402,-0.010393647
34532500000,-0.0029623276,-0.0098488061,-1.0042744,0.01793319,-0.97616088,0.021301806,-0.0024555663,-0.010478285
34600000000,-0.002929176,-0.010718846,-1.0040126,0.018064916,-0.97431952,0.02202338,-0.0024566497,-0.010691023
34667500000,-0.0025799698,-0.010631052,-1.0039995,0.019544691,-0.97548336,0.022997737,-0.0025331106,-0.010260687
34735000000,-0.0030628513,-0.010439208,-1.0050112,0.017922789,-0.9749251,0.022062778,-0.0023003044,-0.01112322
34802500000,-0.0027115566,-0.010751927,-1.0052882,0.019039124,-0.97305906,0.022854596,-0.0025256705,-0.011133249
34870000000,-0.0032402149,-0.010033388,-1.005518,0.018824041,-0.97343349,0.022798598,-0.0025057844,-0.01154652
34937500000,-0.0035630034,-0.010353763,-1.0051938,0.017975301,-0.97413665,0.02171278,-0.0029540914,-0.011192501
35005000000,-0.0038516482,-0.011006346,-1.0050968,0.019303085,-0.97281104,0.023140684,-0.0028143115,-0.010918145
35072500000,-0.0041556773,-0.011016491,-1.0076462,0.018101335,-0.97329843,0.022054672,-0.0031355675,-0.0116832
35140000000,-0.0048420746,-0.010436419,-1.0061681,0.017572269,-0.97049224,0.021853119,-0.0032433055,-0.011082651
35207500000,-0.0045217937,-0.011034343,-1.006559,0.017758243,-0.97352779,0.021992438,-0.0041073132,-0.010681849
35275000000,-0.0044979313,-0.010652417,-1.0057359,0.018257959,-0.973463,0.019894196,-0.0041272249,-0.010486409
35342500000,-0.0047177928,-0.0096840123,-1.0061108,0.0181816,-0.97299761,0.02089607,-0.004092345,-0.010640258
35410000000,-0.0054476717,-0.010405242,-1.005963,0.019585744,-0.9752807,0.019849613,-0.0046012839,-0.010440852
35477500000,-0.0052176816,-0.010028978,-1.0067334,0.018241942,-0.97561294,0.01960656,-0.0050116437,-0.010092717
35545000000,-0.0051802956,-0.010094275,-1.0037838,0.019106567,-0.97531831,0.020156264,-0.0046524792,-0.0099964552
35612500000,-0.005568882,-0.0097572282,-1.007291,0.020649016,-0.97513855,0.021804154,-0.0043133292,-0.0094963806
35680000000,-0.0054774573,-0.0094414726,-1.0068063,0.019055247,-0.97636056,0.021727711,-0.0043702638,-0.0089386832
35747500000,-0.0053584678,-0.0089195184,-1.0046026,0.01970762,-0.97661901,0.021795303,-0.0041560773,-0.0099043185
35815000000,-0.0057519865,-0.0091090472,-1.0053438,0.020561993,-0.97833526,0.020915061,-0.0046123019,-0.0094046751
35882500000,-0.0056586685,-0.0088985227,-1.0046471,0.019758713,-0.97737628,0.021719776,-0.0041568158,-0.0088090217
35950000000,-0.0052626343,-0.0082639232,-1.0050002,0.021232009,-0.97815508,0.023204476,-0.0045479508,-0.00908338
36017500000,-0.0057240454,-0.0085481936,-1.0044342,0.020364642,-0.97881937,0.021842986,-0.0043311925,-0.0088226665
36085000000,-0.0050716186,-0.0084290542,-1.0044897,0.019664973,-0.97865033,0.022560805,-0.0044123586,-0.0086258538
36152500000,-0.0051617362,-0.0082370555,-1.0059444,0.021202713,-0.97960794,0.023105457,-0.0038981703,-0.0086789895
36220000000,-0.0049996395,-0.0080145309,-1.0060555,0.019064724,-0.97925615,0.022178739,-0.0041704653,-0.0089310277
36287500000,-0.0046384633,-0.0080613075,-1.0017821,0.019393653,-0.97968853,0.022564977,-0.0037664797,-0.0082023563
36355000000,-0.0046406765,-0.0081728771,-1.0032123,0.021721482,-0.98126876,0.022695541,-0.0039502135,-0.0091808029
36422500000,-0.0048733968,-0.0077241203,-1.0062072,0.02075991,-0.97961628,0.023291409,-0.0038637042,-0.00862554
36490000000,-0.0048364522,-0.0079760812,-1.0048532,0.01940342,-0.980685,0.023629285,-0.0038170563,-0.0088826511
36557500000,-0.0050309398,-0.0082336711,-1.0037426,0.020269841,-0.98048723,0.023160607,-0.0038019884,-0.0092391111
36625000000,-0.004780395,-0.0082449261,-1.0009962,0.019538134,-0.97906303,0.022578597,-0.0038015514,-0.009001662
36692500000,-0.0046751183,-0.0081942249,-1.0021236,0.020858884,-0.98041046,0.023664802,-0.0039937766,-0.0094132498
36760000000,-0.0047575273,-0.007877579,-1.0062312,0.021490693,-0.97957242,0.022885501,-0.0043510483,-0.0094888248
36827500000,-0.0047834609,-0.008404566,-1.0046216,0.018292904,-0.97974223,0.023566991,-0.0044568796,-0.0091113672
36895000000,-0.0047572972,-0.0082719084,-1.0024651,0.020141661,-0.98169315,0.023074061,-0.0045033582,-0.0092841145
36962500000,-0.0051759491,-0.0078611709,-1.003903,0.020553768,-0.9796356,0.022643134,-0.0046634167,-0.0097372541
37030000000,-0.0046600956,-0.0080836052,-1.003693,0.019159645,-0.97906524,0.021961659,-0.0045797033,-0.0092759412
37097500000,-0.0052579944,-0.0080926642,-1.0052326,0.020324022,-0.97994161,0.022353023,-0.0042702467,-0.0094002727
37165000000,-0.0052197976,-0.0081696678,-1.0031453,0.018620223,-0.97860557,0.022483855,-0.004763307,-0.00930339
37232500000,-0.0053037582,-0.0081063407,-1.0032504,0.019904852,-0.98047024,0.022481799,-0.0051574865,-0.0093916748
37300000000,-0.0054719946,-0.0079451222,-1.0055562,0.020861089,-0.98115432,0.021693066,-0.0053043514,-0.0094461795
37367500000,-0.0054717916,-0.00808655,-1.0074705,0.019997716,-0.97921312,0.021413773,-0.005561694,-0.008920515
37435000000,-0.0052315192,-0.0076552415,-1.0056829,0.019614428,-0.98049551,0.02271717,-0.0059717628,-0.009114881
37502500000,-0.0053484337,-0.0075857798,-1.0051376,0.019483447,-0.98014379,0.021461666,-0.0050998186,-0.00876645
37570000000,-0.0055138771,-0.0070471764,-1.0046759,0.020046992,-0.97966528,0.022589883,-0.0057292203,-0.0086014494
37637500000,-0.0051302537,-0.0075355801,-1.0057552,0.021604009,-0.98074335,0.021897204,-0.0056164302,-0.0085806865
37705000000,-0.0053373054,-0.0069542187,-1.0080564,0.021131545,-0.98079872,0.021530271,-0.0057643373,-0.0084281964
37772500000,-0.0058747558,-0.0069375914,-1.0079277,0.021038517,-0.98039865,0.021956801,-0.0059598899,-0.0082845408
37840000000,-0.0057891347,-0.0066521126,-1.0088106,0.021572083,-0.98113579,0.021745477,-0.0060828291,-0.0074381991
37907500000,-0.0056580817,-0.0071992972,-1.0064499,0.020421647,-0.98095852,0.022098387,-0.0056831581,-0.0078493096
37975000000,-0.0051382082,-0.0063144714,-1.0044999,0.021311343,-0.98218739,0.023191631,-0.0060511278,-0.0074061258
38042500000,-0.0051947548,-0.0066508148,-1.0050591,0.022420496,-0.98271585,0.022362769,-0.0057380409,-0.006842752
38110000000,-0.0053131338,-0.006084512,-1.007015,0.02171579,-0.98134738,0.022894382,-0.00554494,-0.0070282044
38177500000,-0.0049599456,-0.0061070081,-1.0066503,0.023335695,-0.98184341,0.023386806,-0.0058660032,-0.0063145235
