!CSV A.01.01
!Keysight Technologies,N5247B,US56070639,A.17.30.08
!Date: Wednesday, July 22, 2026 12:05:25
!Source: Standard

BEGIN CH1_DATA
Freq(Hz),S21(REAL),S21(IMAG),S11(REAL),S11(IMAG),S22(REAL),S22(IMAG),S12(REAL),S12(IMAG)
26500000000,-0.00084375823,-0.0044942889,-1.0027081,0.021359622,-0.98112321,0.035197645,-0.00082173408,-0.0047185775
26567500000,-0.00061272201,-0.0046911971,-1.0004137,0.019456267,-0.98103815,0.034699142,-0.00092541112,-0.0046042213
26635000000,-0.00098348444,-0.0045348564,-0.99959183,0.02096945,-0.97813195,0.034546226,-0.00098366512,-0.0045055342
26702500000,-0.0013573543,-0.0044370973,-1.0012175,0.021169007,-0.97989935,0.036562949,-0.00073955749,-0.0048559448
26770000000,-0.0011206975,-0.0044424059,-1.0004255,0.019591793,-0.98061645,0.033211283,-0.0012567558,-0.0048058615
26837500000,-0.0010067563,-0.0045175459,-0.99905306,0.021032929,-0.97752899,0.034643501,-0.001164773,-0.0045546507
26905000000,-0.00099074573,-0.0045243278,-1.0021057,0.020516083,-0.98039484,0.03473945,-0.0011880203,-0.0047528376
26972500000,-0.0010926136,-0.0042874445,-0.99961585,0.020302474,-0.97946209,0.033156186,-0.00090208871,-0.0047109504
27040000000,-0.0010600806,-0.0045310101,-1.0004028,0.021744328,-0.97724754,0.03348612,-0.00096181256,-0.0048166132
27107500000,-0.0010343731,-0.0045063249,-1.0013984,0.020540625,-0.97941673,0.03411901,-0.0011286169,-0.0045891614
27175000000,-0.00081716583,-0.0043922942,-0.99869794,0.020235285,-0.97866803,0.031312257,-0.00094254536,-0.0045192344
27242500000,-0.00089507841,-0.0046205148,-0.9987247,0.022152513,-0.97782189,0.033670038,-0.00059789768,-0.004623116
27310000000,-0.00070929772,-0.0045963819,-0.99976104,0.020570248,-0.97848684,0.033873245,-0.00069510174,-0.0049723103
27377500000,-0.00073607406,-0.0045634466,-0.99860132,0.02136156,-0.97655326,0.031776071,-0.00076909515,-0.0048110117
27445000000,-0.00054949499,-0.0048713973,-0.99933517,0.021734774,-0.97603822,0.032709718,-0.0010824868,-0.0049227574
27512500000,-0.00050804531,-0.0046294895,-0.99978149,0.020124733,-0.9787246,0.032015979,-0.0010737017,-0.004591465
27580000000,-0.00066372356,-0.0046141548,-0.99682581,0.021873444,-0.9755072,0.032607645,-0.00082136167,-0.0046583884
27647500000,-0.00081637705,-0.0049199979,-1.0001309,0.021797836,-0.97644508,0.033982515,-0.0010766678,-0.0049535595
27715000000,-0.00094133418,-0.0047166231,-0.9992125,0.021019906,-0.97735083,0.032441035,-0.00091320311,-0.0046937531
27782500000,-0.00080643513,-0.0046043131,-0.99852228,0.02162984,-0.97523177,0.032500327,-0.00066073227,-0.0048311083
27850000000,-0.00064053573,-0.0048351698,-0.99889189,0.022157595,-0.97695827,0.034206808,-0.00064571068,-0.0048156823
27917500000,-0.00091894635,-0.004749774,-0.9982841,0.021245509,-0.97603017,0.031888902,-0.00098230876,-0.0048983861
27985000000,-0.00088561443,-0.0044757128,-0.99762356,0.022710323,-0.97379315,0.032181978,-0.00078545162,-0.0049690236
28052500000,-0.00083762291,-0.0046823928,-0.9994328,0.021251291,-0.9759528,0.031593829,-0.0010072809,-0.0046817386
28120000000,-0.0010409222,-0.004913501,-0.99823189,0.021711767,-0.97633755,0.030930012,-0.00079502515,-0.0046740896
28187500000,-0.00090141979,-0.004532571,-0.99772829,0.022339016,-0.97482359,0.032668576,-0.00068376947,-0.0046360991
28255000000,-0.0010615357,-0.0048513114,-0.99857795,0.022234976,-0.97644371,0.032472372,-0.00086795108,-0.0048217014
28322500000,-0.00075818138,-0.0048941476,-0.99811232,0.021610588,-0.97478247,0.031492293,-0.00077895197,-0.004578081
28390000000,-0.00092231733,-0.0048839864,-0.99874699,0.022664919,-0.97461826,0.032428369,-0.00085075083,-0.0047878064
28457500000,-0.00096771948,-0.0046868245,-0.9986645,0.021879494,-0.97597784,0.03230989,-0.00064315472,-0.0044992529
28525000000,-0.0003715544,-0.0049301879,-0.99820274,0.02269581,-0.97594488,0.032633424,-0.00064228533,-0.0046676444
28592500000,-0.00066045602,-0.0047374349,-0.99726629,0.022563696,-0.97374988,0.033353001,-0.0003987595,-0.0047590919
28660000000,-0.00070585427,-0.0050906534,-0.99869817,0.022789836,-0.9759385,0.033071697,-0.00041676057,-0.0048770197
28727500000,-0.00044225628,-0.0046165753,-0.99859661,0.02281186,-0.97514981,0.032988813,-0.00018095417,-0.0046094833
28795000000,-0.00074908091,-0.0045951013,-0.99860555,0.022019029,-0.97438949,0.034536496,-0.00031124114,-0.0049360385
28862500000,-0.00083928683,-0.005109888,-0.99901646,0.022879928,-0.97554791,0.034246027,-0.00042343396,-0.0048166816
28930000000,-0.00057916273,-0.0046563493,-0.99880493,0.022267371,-0.97496462,0.032453775,-0.00047352759,-0.0050160978
28997500000,-0.00026061141,-0.0049156519,-0.99845898,0.022821657,-0.97482288,0.033362865,-0.0002651778,-0.0049141911
29065000000,-0.00048139587,-0.0050821779,-0.99888819,0.023008056,-0.97696954,0.034279041,-4.1846419e-005,-0.0051637907
29132500000,-0.000606569,-0.0053128148,-0.9993031,0.022227407,-0.97471404,0.033289433,-0.00029854104,-0.0050652986
29200000000,-0.00052144448,-0.0055507589,-0.99825674,0.022821456,-0.97385085,0.034054667,-0.0003716033,-0.0052623637
29267500000,-0.00079644378,-0.0052360673,-0.99954742,0.022897523,-0.97577763,0.033269849,-0.00049217814,-0.0050162813
29335000000,-0.00055821438,-0.0053380937,-0.99837267,0.022373751,-0.97442919,0.031948656,-0.0002645647,-0.0050859097
29402500000,-0.00077179552,-0.0058178003,-0.99755263,0.023102045,-0.97531563,0.032501154,-0.00039971669,-0.0052115712
29470000000,-0.00059820327,-0.0054848725,-0.99948317,0.02339457,-0.97655672,0.032560721,-0.00040751998,-0.0055836341
29537500000,-0.00093563215,-0.0052770115,-0.99770647,0.02200149,-0.97419143,0.03075026,-0.00069129525,-0.0055236388
29605000000,-0.00064285891,-0.0055794008,-0.99730009,0.023635536,-0.97499931,0.032554507,-0.00063357083,-0.0053814012
29672500000,-0.00075173914,-0.0055355104,-1.0003406,0.022834301,-0.97610188,0.031277329,-0.00034789671,-0.0057540052
29740000000,-0.0010158622,-0.0056617418,-0.9983753,0.022275358,-0.97475904,0.030305654,-0.00059005711,-0.0052498104
29807500000,-0.00098972116,-0.0056550065,-0.99796104,0.023510277,-0.97554713,0.030762136,-0.00075665186,-0.0055016167
29875000000,-0.00093589281,-0.0056948392,-0.99969339,0.023586631,-0.97750694,0.02824086,-0.0013881568,-0.0055000708
29942500000,-0.00095365499,-0.0055765784,-0.99747032,0.022147037,-0.97673607,0.028309898,-0.00086276548,-0.0056327544
30010000000,-0.0011417705,-0.0057458864,-0.99816108,0.023524612,-0.97827089,0.031083465,-0.00077800755,-0.0054187076
30077500000,-0.0010618333,-0.0056598829,-0.99937844,0.022801638,-0.97861981,0.027887493,-0.0007200921,-0.0053617703
30145000000,-0.0011909232,-0.0052055325,-0.99774611,0.022575051,-0.97624779,0.028802201,-0.00078544789,-0.0054962048
30212500000,-0.00080656959,-0.0056517329,-0.99840724,0.024120599,-0.97995436,0.028433919,-0.0011738986,-0.0054790033
30280000000,-0.0010399285,-0.0055201855,-0.99895835,0.022790194,-0.97921419,0.028253466,-0.0010317927,-0.0053169574
30347500000,-0.0010650613,-0.0057544941,-0.99689507,0.02407667,-0.97756344,0.028435469,-0.00059204048,-0.0054418631
30415000000,-0.00090212922,-0.0053109606,-0.99863708,0.024004161,-0.9801414,0.030148998,-0.00034649554,-0.005451493
30482500000,-0.00098239002,-0.0056538661,-0.99833959,0.023004919,-0.9790448,0.027918383,-0.00080986018,-0.0056887455
30550000000,-0.0010815022,-0.0056235641,-0.99750054,0.024019241,-0.9779039,0.030553013,-0.00045477576,-0.0053173127
30617500000,-0.0011106784,-0.00559881,-0.99892992,0.024830744,-0.97978002,0.030067325,-0.00045535073,-0.0054894974
30685000000,-0.0010447584,-0.005621192,-0.99811602,0.023709863,-0.97722238,0.028980672,6.3971034e-005,-0.0054273251
30752500000,-0.00073019811,-0.0060885926,-0.99611783,0.025791049,-0.97648811,0.031030655,-0.00082223676,-0.0059296195
30820000000,-0.0013063804,-0.0063473773,-0.99751532,0.024115503,-0.97924078,0.029437363,-0.0003422033,-0.0061330153
30887500000,-0.0013566755,-0.0057503497,-0.9961319,0.024730474,-0.97549325,0.029752105,-0.00034389319,-0.0058597345
30955000000,-0.0011680236,-0.0060702078,-0.99746227,0.025136843,-0.97687685,0.031921268,-0.00053319515,-0.0063727736
31022500000,-0.0012965403,-0.0060701845,-0.99773544,0.025123298,-0.97659695,0.031375587,-0.00088722608,-0.0061957361
31090000000,-0.0013695565,-0.0062168511,-0.99626088,0.024923712,-0.97450626,0.03150034,-0.00072319049,-0.0062312484
31157500000,-0.001190837,-0.0059286337,-0.99701929,0.026344389,-0.97400641,0.032000571,-0.00069627841,-0.0066265902
31225000000,-0.0015603807,-0.0063468204,-0.99684119,0.025409311,-0.9748525,0.030676961,-0.0012160162,-0.0063310759
31292500000,-0.001491189,-0.0062438198,-0.99529183,0.02529645,-0.97237134,0.031705499,-0.00095331448,-0.0068387054
31360000000,-0.001863731,-0.0061694644,-0.99547881,0.026133388,-0.97412616,0.030898422,-0.0014510821,-0.0064698886
31427500000,-0.0020560024,-0.0064792633,-0.99547613,0.025487848,-0.97245008,0.031061143,-0.0015223859,-0.0063325027
31495000000,-0.0020318127,-0.0060486868,-0.99504876,0.026334494,-0.97175705,0.031228185,-0.0018788743,-0.006417721
31562500000,-0.002539441,-0.0063021802,-0.99633789,0.026567608,-0.97353715,0.030910432,-0.0014213808,-0.0059159882
31630000000,-0.0016774689,-0.0058344831,-0.99588323,0.025577456,-0.972175,0.029861152,-0.0016817327,-0.00624655
31697500000,-0.0020130905,-0.0062586367,-0.99595213,0.025996,-0.97194308,0.030299217,-0.0012700981,-0.0065391017
31765000000,-0.001950953,-0.0060634012,-0.99576205,0.025783062,-0.97424662,0.02939409,-0.0017580148,-0.0062950803
31832500000,-0.002326634,-0.006094994,-0.99550593,0.026488751,-0.97343898,0.029302835,-0.0020238245,-0.0063813245
31900000000,-0.0019443787,-0.0058045657,-0.99551648,0.025771268,-0.97310483,0.030003779,-0.0017459902,-0.0063996967
31967500000,-0.001668439,-0.0059482609,-0.99588603,0.026413903,-0.97524792,0.030494362,-0.0012945487,-0.0060287956
32035000000,-0.0022235876,-0.0061694146,-0.99547398,0.026294917,-0.97477454,0.030422539,-0.0014368163,-0.0062233582
32102500000,-0.0022925814,-0.0057421215,-0.99454993,0.026466295,-0.97413725,0.031531632,-0.0013910301,-0.0061065471
32170000000,-0.0018298302,-0.0059384885,-0.99449384,0.026499689,-0.97488511,0.030914575,-0.001406735,-0.0056319907
32237500000,-0.0016337542,-0.0056215893,-0.99492598,0.025887698,-0.97543263,0.031004518,-0.0016684842,-0.006194788
32305000000,-0.0015220328,-0.0058217496,-0.99466288,0.025927097,-0.97529304,0.031279147,-0.001461819,-0.0060628438
32372500000,-0.0019915178,-0.0060970853,-0.99378943,0.026385248,-0.97575992,0.031377435,-0.0013191442,-0.0060366224
32440000000,-0.0022168537,-0.0053916709,-0.996369,0.026988402,-0.97543997,0.032079592,-0.0014099578,-0.0059723458
32507500000,-0.002109651,-0.0058491938,-0.99373096,0.025538549,-0.97530615,0.032144736,-0.0011471368,-0.0063346541
32575000000,-0.0018258812,-0.0054392307,-0.99433935,0.026219398,-0.97450179,0.032210052,-0.0013483735,-0.006437744
32642500000,-0.0018383437,-0.0056665102,-0.99466902,0.026823133,-0.9744665,0.031174868,-0.0016635488,-0.006164277
32710000000,-0.002032184,-0.0058214962,-0.99468744,0.025909632,-0.97446316,0.030797869,-0.0012497597,-0.0062193
32777500000,-0.0018594192,-0.0061001149,-0.99359047,0.025837511,-0.9753322,0.031550109,-0.0018370359,-0.0067044357
32845000000,-0.0020217302,-0.005914107,-0.99380231,0.025983065,-0.97382021,0.031030148,-0.0015170069,-0.0066881166
32912500000,-0.0017081308,-0.0058463956,-0.99313068,0.025375485,-0.97385561,0.030988008,-0.0016918888,-0.0069565005
32980000000,-0.0020837486,-0.0061365245,-0.99439931,0.02629602,-0.97430074,0.029701024,-0.0016988378,-0.006823347
33047500000,-0.0021273424,-0.0059341225,-0.99441969,0.025375456,-0.97391391,0.028283685,-0.0022216113,-0.0064438647
33115000000,-0.0020655168,-0.0059296372,-0.99353415,0.025644898,-0.97416019,0.028845627,-0.0023473143,-0.0065762494
33182500000,-0.0023370818,-0.0057341326,-0.99410617,0.026191205,-0.97486389,0.027094215,-0.0023775166,-0.0067845006
33250000000,-0.002485557,-0.0062217265,-0.99449253,0.024524555,-0.97234982,0.027460054,-0.0025058598,-0.0067746886
33317500000,-0.002535901,-0.005806102,-0.99369192,0.025052458,-0.97322494,0.027900845,-0.0026345898,-0.0065216473
33385000000,-0.0026130844,-0.0055857208,-0.99527162,0.025895357,-0.97468305,0.0256612,-0.0028798594,-0.0067059458
33452500000,-0.0024989946,-0.005866596,-0.9944241,0.025335222,-0.97298646,0.026384383,-0.002767069,-0.0063704751
33520000000,-0.0024558406,-0.0054837,-0.99465132,0.025420666,-0.9753437,0.026221901,-0.003060516,-0.0062283119
33587500000,-0.0025178113,-0.005570441,-0.99506885,0.024885893,-0.97547907,0.023602754,-0.0032354896,-0.0064554494
33655000000,-0.0025669914,-0.0056214146,-0.99445099,0.025101542,-0.97374892,0.025292814,-0.0029845359,-0.0062347609
33722500000,-0.0023396679,-0.0056874976,-0.99495208,0.025235862,-0.9753871,0.0260427,-0.0031215572,-0.0063903411
33790000000,-0.0026512323,-0.0054645771,-0.99493378,0.024522424,-0.97438908,0.024665326,-0.0035103026,-0.0059472588
33857500000,-0.0028386069,-0.0052506044,-0.99517882,0.025320411,-0.97428668,0.025911659,-0.0033397209,-0.0055405726
33925000000,-0.0026708303,-0.0051777354,-0.99558163,0.026182145,-0.97597224,0.025604576,-0.0031657191,-0.0057589021
33992500000,-0.002537783,-0.0051922025,-0.99579805,0.025227219,-0.97420764,0.024765104,-0.0030082155,-0.0055861888
34060000000,-0.0026961081,-0.0054730726,-0.99526834,0.025740772,-0.97519457,0.026127726,-0.0028228313,-0.00556419
34127500000,-0.0025634218,-0.0049463995,-0.99566638,0.026388295,-0.97567624,0.026753008,-0.002850855,-0.005584395
34195000000,-0.0026524533,-0.0051374389,-0.99597311,0.025477916,-0.9732511,0.025830209,-0.0028608544,-0.0055121542
34262500000,-0.0024862378,-0.0054941461,-0.99495602,0.026402175,-0.97278345,0.028939724,-0.0028766536,-0.0050719739
34330000000,-0.0030737042,-0.0051662968,-0.9959774,0.026244789,-0.97415751,0.028512716,-0.0028709911,-0.0051711705
34397500000,-0.0025541873,-0.005440861,-0.99588621,0.02688539,-0.97206074,0.027963161,-0.0027595356,-0.005372494
34465000000,-0.0025886185,-0.0054757888,-0.99657619,0.027437747,-0.97335416,0.030584514,-0.0025849198,-0.0051534008
34532500000,-0.0028599366,-0.0055842269,-0.99647349,0.026630417,-0.97308379,0.029285192,-0.0022339383,-0.0054435064
34600000000,-0.0030463557,-0.0053937463,-0.99572235,0.026190326,-0.97128618,0.030590087,-0.0027266324,-0.0056941095
34667500000,-0.0026401158,-0.0054253507,-0.99545074,0.028152466,-0.97170138,0.031213313,-0.0025649797,-0.005407474
34735000000,-0.0026279443,-0.0057147355,-0.99679422,0.026475072,-0.97093511,0.030336827,-0.002495585,-0.0060466416
34802500000,-0.0031388619,-0.0052080872,-0.99671197,0.027783453,-0.96927929,0.031860441,-0.0024133851,-0.0057736933
34870000000,-0.0029779191,-0.0055224607,-0.99749738,0.02732411,-0.96938503,0.032074302,-0.002749423,-0.0059713912
34937500000,-0.0028382826,-0.0057311798,-0.99607897,0.027252525,-0.97035807,0.03156361,-0.003141362,-0.0060445541
35005000000,-0.0028501546,-0.0056387619,-0.99571705,0.02757211,-0.9690367,0.031788182,-0.0029881292,-0.0059605474
35072500000,-0.0029363716,-0.0053644455,-0.99731493,0.026368648,-0.96919334,0.031893194,-0.0028759097,-0.0057523185
35140000000,-0.0035106172,-0.0054827081,-0.99633831,0.026130423,-0.96665078,0.031214014,-0.00320407,-0.0058558518
35207500000,-0.0036680328,-0.0054659564,-0.99602991,0.02746851,-0.96908504,0.030378066,-0.003511809,-0.0056804437
35275000000,-0.0029076182,-0.0053805462,-0.99575675,0.027402408,-0.96912742,0.029552905,-0.0034528098,-0.0055176411
35342500000,-0.0036041276,-0.0052841287,-0.99576712,0.026445203,-0.96793222,0.030383646,-0.0036356456,-0.0054874294
35410000000,-0.0036349362,-0.0050537237,-0.99581528,0.027960792,-0.96995914,0.028853625,-0.0039057685,-0.0053204224
35477500000,-0.003848807,-0.0053021512,-0.99624979,0.026883334,-0.9703269,0.027850062,-0.0037900822,-0.0050592842
35545000000,-0.0038515995,-0.0047241449,-0.99450576,0.027045757,-0.9711917,0.029262483,-0.0035422668,-0.0050221793
35612500000,-0.0037210626,-0.0052088574,-0.99729985,0.027702123,-0.97258621,0.030029565,-0.0030843667,-0.0049613379
35680000000,-0.0037762104,-0.0047578616,-0.99628007,0.026318043,-0.97285378,0.029404461,-0.0031042811,-0.0041202828
35747500000,-0.0040278723,-0.0042707003,-0.99491912,0.026547492,-0.97256041,0.030321568,-0.003378707,-0.004698474
35815000000,-0.0039704959,-0.0045068618,-0.99466467,0.027588099,-0.97452652,0.02933386,-0.003227155,-0.0039946367
35882500000,-0.0038602226,-0.0047042524,-0.99450725,0.027194463,-0.9749276,0.029174186,-0.0028611897,-0.0044773873
35950000000,-0.0037186849,-0.004756656,-0.99502552,0.027715713,-0.9751085,0.030512214,-0.0031509055,-0.0044792262
36017500000,-0.0035128074,-0.0040766881,-0.99509293,0.027596049,-0.97613949,0.030323215,-0.0027579158,-0.0046522748
36085000000,-0.0033720308,-0.0041878875,-0.99429798,0.027321517,-0.97627449,0.030160278,-0.0033005269,-0.0044403826
36152500000,-0.0033048994,-0.0038959361,-0.99520296,0.028027564,-0.97769064,0.030751795,-0.0035442901,-0.0042003933
36220000000,-0.0036397385,-0.0040947516,-0.99581069,0.027671248,-0.97716361,0.02979359,-0.0028845475,-0.0046073375
36287500000,-0.0033669695,-0.003997541,-0.99286073,0.027056187,-0.97839564,0.030234158,-0.0024996346,-0.0042348877
36355000000,-0.0031844983,-0.0038816738,-0.99380529,0.0287368,-0.9799878,0.030634016,-0.0029616344,-0.0049640099
36422500000,-0.0032325725,-0.0038797555,-0.99529088,0.027995288,-0.97913331,0.030075163,-0.0028287633,-0.0044657188
36490000000,-0.0033219813,-0.0043600858,-0.99432957,0.026875861,-0.9802379,0.031976067,-0.0028295643,-0.004660951
36557500000,-0.0029400531,-0.00444313,-0.99325407,0.027555823,-0.98021901,0.030987859,-0.0029460383,-0.0046936683
36625000000,-0.0032054924,-0.0039526299,-0.99239832,0.027782574,-0.97925556,0.030775875,-0.0029476546,-0.0045459052
36692500000,-0.0032213028,-0.0041044969,-0.99300158,0.028254777,-0.98009783,0.031200558,-0.0028328816,-0.0045891115
36760000000,-0.0035425338,-0.0040090727,-0.99529344,0.028649241,-0.97877157,0.031033039,-0.0033633206,-0.0051410799
36827500000,-0.0032259906,-0.0041117542,-0.994353,0.027242631,-0.98008472,0.031426579,-0.0031709748,-0.0044481531
36895000000,-0.003608169,-0.004453917,-0.99236119,0.028219789,-0.98127711,0.03121078,-0.0029667867,-0.0046746721
36962500000,-0.0032820301,-0.0040327953,-0.99329001,0.027832448,-0.97973394,0.030260056,-0.0030994872,-0.0049023326
37030000000,-0.0035440945,-0.0043128901,-0.99308348,0.026756197,-0.97905773,0.030487329,-0.003562479,-0.0048622321
37097500000,-0.0035392195,-0.00392213,-0.9936685,0.028247416,-0.98014343,0.030046135,-0.0035312749,-0.0047771744
37165000000,-0.0036683304,-0.0039583212,-0.99288976,0.026578873,-0.97793818,0.030023724,-0.0036770613,-0.0046685073
37232500000,-0.0033771244,-0.0043462571,-0.99217659,0.027548909,-0.97935486,0.030845493,-0.0036095916,-0.0044778716
37300000000,-0.0036868914,-0.0046339734,-0.99406797,0.028115898,-0.9800421,0.029610276,-0.0038587661,-0.0046019275
37367500000,-0.0037328289,-0.0039584544,-0.99463558,0.02769202,-0.97748172,0.028996319,-0.0041088928,-0.0044574644
37435000000,-0.0036599662,-0.0041694064,-0.99347007,0.026845958,-0.97922903,0.03132505,-0.0041730506,-0.0043614944
37502500000,-0.0034650585,-0.0038243863,-0.99352145,0.026980281,-0.97847074,0.029204458,-0.0041626878,-0.0046872743
37570000000,-0.0034405922,-0.0031834028,-0.99317956,0.028147683,-0.97742069,0.02963338,-0.0040884819,-0.0042076353
37637500000,-0.0034982606,-0.0036269841,-0.99403024,0.027774431,-0.97746235,0.029958278,-0.0037033609,-0.0038191406
37705000000,-0.0035877754,-0.0033898249,-0.99507755,0.027544498,-0.9766916,0.02896294,-0.0038618832,-0.0041560014
37772500000,-0.0040558502,-0.0032661688,-0.99469221,0.027719751,-0.97680748,0.029367805,-0.003927771,-0.0041696504
37840000000,-0.003536378,-0.0033306386,-0.99516833,0.02719073,-0.97697914,0.029746123,-0.0043354686,-0.0038407454
37907500000,-0.0033324433,-0.0031240231,-0.99403596,0.026511045,-0.97630858,0.029306008,-0.0040738164,-0.003321273
37975000000,-0.0042189793,-0.0022987435,-0.99358332,0.027577162,-0.97665942,0.030426323,-0.0040257205,-0.0028513791
