!CSV A.01.01
!Keysight Technologies,N5247B,US56070639,A.17.30.08
!Date: Wednesday, July 22, 2026 09:27:17
!Source: Standard

BEGIN CH1_DATA
Freq(Hz),S21(REAL),S21(IMAG),S11(REAL),S11(IMAG),S22(REAL),S22(IMAG),S12(REAL),S12(IMAG)
26500000000,0.00054232799,-0.0051370403,-1.0027825,0.017689645,-0.98367167,0.023305982,0.00037623476,-0.0055402038
26567500000,0.00048364745,-0.0050087301,-1.0021772,0.017169267,-0.98382908,0.023630798,0.00051734084,-0.0052448483
26635000000,0.00018948247,-0.0049415119,-1.0022376,0.017214745,-0.98322469,0.023092926,0.00042972784,-0.0059152152
26702500000,0.00068300357,-0.0053126146,-1.0026196,0.017512769,-0.98260236,0.024273172,0.00051558751,-0.0056219501
26770000000,0.00036540895,-0.0052758805,-1.0026064,0.017161749,-0.98313427,0.022793107,0.00057375588,-0.0055361721
26837500000,0.00040999369,-0.0052401037,-1.0027535,0.017502666,-0.98208022,0.023612693,0.00012018916,-0.0053251348
26905000000,0.00054562063,-0.0054600774,-1.0030743,0.01733008,-0.98234165,0.023755789,0.00038852531,-0.0058017452
26972500000,3.2066135e-005,-0.005515242,-1.0024593,0.017814517,-0.98303437,0.023974061,0.00054153102,-0.0056928573
27040000000,0.00040234951,-0.0053320872,-1.0029132,0.018197652,-0.98159146,0.023670532,0.00034372628,-0.0058247312
27107500000,0.00048584235,-0.0052920859,-1.0028231,0.018064439,-0.9822588,0.024039745,0.00014440995,-0.0059930254
27175000000,0.00039610174,-0.0056349267,-1.0020907,0.0175201,-0.9817574,0.023093551,0.00048702979,-0.0056623714
27242500000,0.00050965161,-0.0057682185,-1.0023137,0.018236279,-0.982144,0.02421236,0.00028473255,-0.0057287556
27310000000,0.00066461868,-0.0053837528,-1.0023302,0.017822891,-0.98093504,0.0247522,0.00063796621,-0.0059852377
27377500000,0.00066359731,-0.0057565481,-1.0021272,0.018332243,-0.9810127,0.023612633,0.00010959664,-0.005959325
27445000000,0.00049443962,-0.0058253328,-1.0026731,0.01814115,-0.98072606,0.023594558,0.00024722493,-0.0057786973
27512500000,0.00083315,-0.0058094272,-1.0028039,0.018203735,-0.98184544,0.024131358,0.00044730096,-0.0062357793
27580000000,0.00077749812,-0.0059417104,-1.0012186,0.018467724,-0.98046267,0.024225473,0.00044230116,-0.0060485709
27647500000,0.00039790024,-0.0059738713,-1.002094,0.018230647,-0.98065114,0.024597108,0.0003775754,-0.0063762665
27715000000,0.00039911037,-0.0059386343,-1.0025905,0.017775297,-0.98108733,0.023722589,0.0004504181,-0.0060310652
27782500000,0.00049132062,-0.0058742017,-1.0026011,0.018056095,-0.98036575,0.02452445,0.00043668412,-0.0063176528
27850000000,0.00037613732,-0.0064464305,-1.0027552,0.018196374,-0.98037463,0.0250552,0.00020197511,-0.0061551132
27917500000,0.00010382361,-0.0064968136,-1.0024374,0.018286079,-0.98040062,0.024164319,0.00033056946,-0.0065298895
27985000000,0.00025687157,-0.0064329514,-1.002681,0.019125313,-0.97955692,0.024202943,0.00020165578,-0.0065210261
28052500000,0.00036485889,-0.006244828,-1.0032446,0.017918348,-0.98012453,0.02380982,-0.00011022715,-0.006320768
28120000000,0.00020345976,-0.0063593201,-1.0025502,0.018660933,-0.98037314,0.023658603,-0.00010004686,-0.006186503
28187500000,0.0002031636,-0.0061766766,-1.00222,0.018500194,-0.97950816,0.024509892,0.00026143703,-0.0064845132
28255000000,-0.00031210599,-0.0065807761,-1.0023744,0.018857926,-0.98001295,0.024145573,-6.3454732e-005,-0.0064640995
28322500000,0.00010821782,-0.0063089891,-1.0021104,0.019117445,-0.97982299,0.023936063,-9.1728522e-005,-0.0066051874
28390000000,-8.1974984e-005,-0.0060284506,-1.0032206,0.019104157,-0.97911668,0.024880677,5.3555152e-005,-0.006341618
28457500000,-0.00016316609,-0.0063234572,-1.0023532,0.018830895,-0.97949237,0.025107324,0.00052323518,-0.0061171516
28525000000,-1.5780097e-005,-0.0064700982,-1.0025388,0.018936902,-0.97964239,0.025676608,4.2449683e-006,-0.0066057816
28592500000,-3.2275682e-005,-0.0063645877,-1.0019276,0.018958658,-0.97865748,0.02536732,0.00013036118,-0.0066007348
28660000000,-0.00034754467,-0.0069438452,-1.0021056,0.019597828,-0.97931474,0.025468856,0.00035885209,-0.0066457493
28727500000,-7.1633782e-005,-0.0066227373,-1.0025033,0.019238822,-0.97898751,0.02536216,4.2781467e-005,-0.0062686731
28795000000,-0.00015223294,-0.0064462279,-1.0023853,0.018321052,-0.97876507,0.025927737,0.00059199356,-0.0068190247
28862500000,-2.2538705e-005,-0.0062763747,-1.0021689,0.019839108,-0.97818279,0.02641961,7.8532379e-005,-0.0065318542
28930000000,0.00024362956,-0.0062927008,-1.001889,0.01928845,-0.97784609,0.025594532,0.00045547402,-0.0068382779
28997500000,4.0157523e-005,-0.0068203812,-1.0020653,0.019336581,-0.97750926,0.025669917,-0.00011699501,-0.0069883969
29065000000,7.1442744e-005,-0.0069346484,-1.0011796,0.019163765,-0.97793329,0.026935667,-2.420973e-006,-0.006668624
29132500000,-6.219442e-005,-0.0070545608,-1.0017498,0.019124568,-0.97642088,0.026994199,-0.00017060386,-0.0069877421
29200000000,7.1388902e-005,-0.0072934031,-1.001632,0.019390017,-0.97621679,0.026333094,-0.00036054896,-0.0071722632
29267500000,-0.00068329554,-0.0072472952,-1.0018675,0.01895202,-0.9762547,0.026107799,-8.7660505e-005,-0.0070835566
29335000000,-0.00022542663,-0.0070597902,-1.0014784,0.018843696,-0.97575134,0.026193663,-7.9845195e-005,-0.0069645466
29402500000,-0.00044689677,-0.0073305708,-1.0013219,0.019466102,-0.97631276,0.025969863,0.00016711361,-0.0074115517
29470000000,0.00014282274,-0.0071187872,-1.0019294,0.01975362,-0.97544485,0.026152462,-0.00011378608,-0.0072582397
29537500000,-0.00083993736,-0.0074037062,-1.0011207,0.019027829,-0.97439182,0.024575293,-0.00043577899,-0.0074110338
29605000000,-0.00081106275,-0.0074113933,-1.0011159,0.019758135,-0.97482771,0.025624365,-0.00041317847,-0.0072793085
29672500000,-0.00064036017,-0.0073189093,-1.002281,0.018750995,-0.97450668,0.025546163,-0.00029028323,-0.0073143053
29740000000,-0.00077898405,-0.0070763528,-1.0011604,0.019471407,-0.9740907,0.024874747,-0.00043440214,-0.0068477602
29807500000,-0.00079868571,-0.0073935026,-1.0011394,0.019699544,-0.9738434,0.02458021,-0.00056132325,-0.0072637112
29875000000,-0.00048362999,-0.0076890327,-1.0012921,0.019392699,-0.97439277,0.024046183,-0.0013310607,-0.0071970434
29942500000,-0.00090516196,-0.0073335264,-1.0012466,0.019320071,-0.97474664,0.02387231,-0.0006299513,-0.0068418267
30010000000,-0.0011177273,-0.0072586932,-1.0010983,0.019898027,-0.97515517,0.025054663,-0.0009837416,-0.0067590037
30077500000,-0.0012047987,-0.0073678228,-1.0012695,0.020084739,-0.97453684,0.024014294,-0.00082940399,-0.0070010237
30145000000,-0.0012022186,-0.0072096298,-1.001511,0.019761771,-0.97379082,0.024233043,-0.00072251097,-0.0072581074
30212500000,-0.00090777362,-0.0073155989,-1.0013148,0.019958198,-0.97514904,0.024250805,-0.00084237102,-0.0069390885
30280000000,-0.0011470779,-0.0069755041,-1.0015666,0.019692898,-0.97530246,0.025006264,-0.00037056976,-0.0068192114
30347500000,-0.0012983074,-0.0070170267,-1.0006485,0.020335853,-0.9738335,0.02444905,-0.00072889403,-0.0069347029
30415000000,-0.0014882491,-0.0070326184,-1.0016201,0.02053003,-0.97479808,0.02609098,-0.00048950594,-0.0065804063
30482500000,-0.00092416542,-0.0070042093,-1.001055,0.019761831,-0.9743157,0.02543202,-0.00083338481,-0.0068695964
30550000000,-0.0013738004,-0.0069667296,-1.0009973,0.020503223,-0.97425771,0.02598092,-0.00071706926,-0.0069501302
30617500000,-0.00091199658,-0.0073234662,-1.0017723,0.020527795,-0.97405231,0.026208118,-0.00052834203,-0.0065979511
30685000000,-0.00093056308,-0.0069750883,-1.0017121,0.020469069,-0.97239393,0.026026338,-0.00020745059,-0.0069487579
30752500000,-0.001058337,-0.0074330205,-1.0008017,0.020882875,-0.97191268,0.02705121,-8.5439067e-005,-0.0070868405
30820000000,-0.0011252831,-0.0074479305,-0.99990165,0.020478755,-0.97313672,0.026105136,-0.00051379693,-0.0072385473
30887500000,-0.0013148307,-0.0072625037,-1.0003984,0.02074188,-0.97157073,0.026241183,-0.00059741409,-0.0073304549
30955000000,-0.0013816184,-0.0071984683,-1.0011944,0.020633668,-0.97157973,0.027167559,-0.00032173609,-0.0073467526
31022500000,-0.0013363492,-0.0073017152,-1.0016086,0.021350861,-0.97083867,0.027755708,-0.00065118214,-0.0075860424
31090000000,-0.0011513937,-0.0073606689,-1.0007073,0.02092731,-0.96994764,0.027075529,-0.00044986745,-0.0076100752
31157500000,-0.0011993187,-0.0074948682,-1.0014477,0.021875143,-0.96892089,0.026745856,-0.00071265036,-0.0082080038
31225000000,-0.0014589074,-0.0082880501,-1.0014871,0.020873755,-0.96905601,0.026490957,-0.00041479233,-0.0078360373
31292500000,-0.0012790395,-0.0073103686,-1.0004077,0.020822257,-0.96805131,0.026152372,-0.0006333862,-0.0079116048
31360000000,-0.0018052681,-0.0077805812,-1.0012928,0.021473095,-0.9682219,0.025468901,-0.00077922305,-0.0082882615
31427500000,-0.0019926957,-0.0072789541,-1.0006239,0.021137327,-0.96783257,0.025251273,-0.0012999438,-0.0081799133
31495000000,-0.0019314687,-0.0078009097,-1.0006694,0.021767616,-0.96851695,0.025278777,-0.0014592267,-0.0078304829
31562500000,-0.0023103501,-0.0076398677,-1.0012496,0.02161485,-0.96981692,0.024568066,-0.0016486226,-0.0081634577
31630000000,-0.0016235032,-0.0071873879,-1.000173,0.021792024,-0.96802711,0.024537653,-0.0011618012,-0.0079538394
31697500000,-0.0019426832,-0.0071302522,-1.0014145,0.021661311,-0.96814877,0.024118513,-0.0013907971,-0.0079428218
31765000000,-0.0020417278,-0.0074391179,-1.000599,0.02179265,-0.96903348,0.023941934,-0.001451392,-0.0075342488
31832500000,-0.0016491241,-0.007391585,-1.000479,0.02212429,-0.96956563,0.02394098,-0.0016606026,-0.0076470096
31900000000,-0.0020495201,-0.0072755609,-1.0003679,0.021753352,-0.96961391,0.023915671,-0.00121303,-0.007757802
31967500000,-0.0013958414,-0.0073047834,-1.0004374,0.021787941,-0.96984529,0.02394864,-0.0014035669,-0.0072882832
32035000000,-0.0022106559,-0.00776421,-1.0008802,0.021622241,-0.96952146,0.025207669,-0.0016190778,-0.0072287424
32102500000,-0.0020368227,-0.0068916394,-1.0005808,0.022464529,-0.97019851,0.025442556,-0.0015582088,-0.0071375729
32170000000,-0.0016652215,-0.0072748698,-1.0003508,0.022318363,-0.97013426,0.02558887,-0.00104317,-0.0073122233
32237500000,-0.002024699,-0.0072336118,-1.0004417,0.021963716,-0.96913397,0.02590397,-0.0013932819,-0.0075672991
32305000000,-0.0019324336,-0.0072148079,-1.0004121,0.021771193,-0.96959943,0.026183456,-0.001257949,-0.0070973304
32372500000,-0.0018644431,-0.0075053661,-0.99961495,0.021627814,-0.96916091,0.027105242,-0.0010100948,-0.0075156195
32440000000,-0.0019752542,-0.0071259369,-1.0008537,0.022413135,-0.96886086,0.02689518,-0.00099777337,-0.0075226785
32507500000,-0.0018377199,-0.007483928,-0.99978566,0.021544468,-0.96832949,0.026618533,-0.001204899,-0.0078078131
32575000000,-0.0021279426,-0.0071795401,-0.99986726,0.021411538,-0.96772534,0.02721104,-0.0010175081,-0.0080349129
32642500000,-0.0017992088,-0.0069211181,-1.0002838,0.022071183,-0.96658659,0.026821077,-0.0010463456,-0.0080219908
32710000000,-0.0020156305,-0.007568392,-1.0002387,0.021002918,-0.96712422,0.026365489,-0.0012099491,-0.0081779975
32777500000,-0.0016085221,-0.007522102,-0.99954331,0.021278217,-0.96610016,0.026205778,-0.001261379,-0.0080013974
32845000000,-0.0020528166,-0.0072045047,-0.99955308,0.02192229,-0.96527594,0.026150346,-0.0016082118,-0.0083375257
32912500000,-0.0023587053,-0.0076012397,-0.99988663,0.021544367,-0.96537781,0.025499612,-0.0017953087,-0.0084001031
32980000000,-0.0020526818,-0.0074454164,-1.0003748,0.021112382,-0.96486318,0.024869442,-0.0015848668,-0.0085760597
33047500000,-0.0022468381,-0.0075380197,-1.0000751,0.02088955,-0.96489203,0.02364406,-0.0020692674,-0.0079815648
33115000000,-0.0025919084,-0.0072744298,-0.99968857,0.021146145,-0.96539855,0.023821611,-0.0018142331,-0.0084782746
33182500000,-0.0022894146,-0.0072187642,-1.0004224,0.020943671,-0.96601534,0.022815764,-0.0024976213,-0.0082045812
33250000000,-0.0023723859,-0.0074322843,-1.0006206,0.020093933,-0.96416485,0.021863714,-0.0029486229,-0.0086166011
33317500000,-0.0024828524,-0.0073109884,-0.99991316,0.021158099,-0.96458125,0.02095136,-0.0028752228,-0.0081486227
33385000000,-0.0028516031,-0.0074577555,-1.0008335,0.021283984,-0.96473408,0.019972444,-0.0029811505,-0.008161474
33452500000,-0.0027074968,-0.00746396,-1.0008469,0.021626741,-0.96457314,0.020135283,-0.0030110683,-0.008061396
33520000000,-0.002605231,-0.0071440265,-1.0006728,0.021574497,-0.96596658,0.019517988,-0.002958135,-0.0079988334
33587500000,-0.0031933878,-0.006893347,-1.0008707,0.021685094,-0.96678209,0.018259138,-0.0034084816,-0.0081410995
33655000000,-0.0030981773,-0.0072481711,-1.000753,0.021677405,-0.96686512,0.018274114,-0.0030737258,-0.0075730192
33722500000,-0.0029229673,-0.006546719,-1.0013983,0.021554261,-0.96724671,0.01873523,-0.003307506,-0.0075136544
33790000000,-0.0029496211,-0.0064796149,-1.0012498,0.021829277,-0.96750456,0.018436968,-0.0031429608,-0.0075732139
33857500000,-0.003130103,-0.006654805,-1.0010494,0.022363305,-0.96786499,0.018526018,-0.0030805049,-0.007182261
33925000000,-0.002958514,-0.0065101148,-1.0013165,0.022603542,-0.96883768,0.018225551,-0.0032473474,-0.0072492212
33992500000,-0.0032835901,-0.0063814707,-1.0010478,0.021830469,-0.96862149,0.018768132,-0.0033012962,-0.0071970113
34060000000,-0.0028599759,-0.0064156707,-1.0007644,0.02222538,-0.96911824,0.019178003,-0.0033473547,-0.0072389925
34127500000,-0.0035268911,-0.0065893736,-1.0009553,0.02253627,-0.9698388,0.019323707,-0.0032029795,-0.0069023846
34195000000,-0.0030787564,-0.006356026,-1.0012817,0.022582561,-0.96895409,0.019857615,-0.0031782428,-0.0070733558
34262500000,-0.0027439925,-0.0068001999,-1.0008134,0.023311377,-0.96883464,0.021210879,-0.0026438311,-0.0068742391
34330000000,-0.0029886463,-0.0061398759,-1.0009391,0.022688419,-0.96907145,0.021214634,-0.0032477593,-0.0065903794
34397500000,-0.0028016884,-0.0064293519,-1.001204,0.023118287,-0.96875656,0.022068024,-0.0028725432,-0.0070240735
34465000000,-0.0031100418,-0.0064339731,-1.0013778,0.023434788,-0.96886241,0.022371054,-0.0027697037,-0.0067934282
34532500000,-0.0027071275,-0.0067320373,-1.0008948,0.023159906,-0.96769357,0.02273345,-0.0024878455,-0.0068033384
34600000000,-0.0028101963,-0.0067098532,-1.0006361,0.023072734,-0.9667899,0.023060441,-0.0029049739,-0.0070536975
34667500000,-0.0031839004,-0.0068272538,-1.0009507,0.023780823,-0.96734607,0.023309946,-0.0028851852,-0.0072023207
34735000000,-0.0030287565,-0.00710788,-1.0007654,0.022625417,-0.96704888,0.023363352,-0.0022870975,-0.007662097
34802500000,-0.0028602644,-0.0062846774,-1.0014939,0.023835987,-0.96613997,0.024246782,-0.0027059645,-0.0070623858
34870000000,-0.0028014374,-0.0073247701,-1.0009737,0.023666561,-0.96525067,0.023359776,-0.0022797589,-0.0073745735
34937500000,-0.0037058266,-0.0070778895,-1.0012513,0.023066044,-0.96534801,0.023341954,-0.0026825485,-0.0072637731
35005000000,-0.0036700808,-0.0073240451,-1.0016943,0.022927288,-0.96538955,0.023192823,-0.0030603728,-0.0069882674
35072500000,-0.0039383601,-0.0071710055,-1.0026438,0.022639424,-0.96391785,0.022582322,-0.0030501424,-0.0074059549
35140000000,-0.0038366825,-0.0070976322,-1.0015768,0.022768557,-0.96263951,0.02194722,-0.0032282516,-0.0073480802
35207500000,-0.0039656186,-0.0064883237,-1.0015069,0.023165442,-0.96485114,0.021605052,-0.0038757997,-0.0074026021
35275000000,-0.0040387465,-0.0070554209,-1.0012805,0.022983283,-0.96474665,0.020048665,-0.0034668613,-0.0067112311
35342500000,-0.0041311006,-0.0067187226,-1.0013893,0.023184262,-0.96393752,0.021178991,-0.0038962555,-0.0071854028
35410000000,-0.0043145455,-0.0064887274,-1.0020517,0.023841783,-0.96467072,0.019737139,-0.0031171786,-0.0067872768
35477500000,-0.0042080143,-0.0067556286,-1.0027205,0.023530304,-0.96556169,0.019658357,-0.0039146156,-0.0068691559
35545000000,-0.0045583141,-0.0064860783,-1.0013107,0.023961514,-0.96600902,0.019691288,-0.003912698,-0.0064345114
35612500000,-0.0042773671,-0.0059615811,-1.0020685,0.02342245,-0.96551323,0.021085173,-0.0040852311,-0.0062015671
35680000000,-0.0046435506,-0.0058280267,-1.0016882,0.023482442,-0.96625769,0.020500988,-0.0034555949,-0.0062338407
35747500000,-0.0043829884,-0.0056710211,-1.000698,0.023818195,-0.96677285,0.021089882,-0.003391508,-0.0068666576
35815000000,-0.0047062845,-0.0055938801,-1.0013418,0.024424791,-0.96743757,0.020783931,-0.0038216631,-0.0065508741
35882500000,-0.0045612371,-0.0057094558,-1.0017607,0.024611861,-0.96759546,0.021114774,-0.0031889677,-0.0059430306
35950000000,-0.0042391047,-0.0059040287,-1.0016745,0.024642676,-0.96637326,0.022013545,-0.0040139244,-0.0057558059
36017500000,-0.0044067348,-0.0055301711,-1.0010195,0.025052562,-0.96764988,0.021590874,-0.0034879204,-0.0060779392
36085000000,-0.0044965944,-0.0050601359,-1.0009081,0.024974704,-0.96705824,0.021989316,-0.0035139835,-0.0055335327
36152500000,-0.0041680597,-0.0056293057,-1.0022236,0.025123298,-0.96780705,0.02133055,-0.0032811756,-0.0058628786
36220000000,-0.0040379595,-0.0054535335,-1.0018281,0.024377197,-0.9671663,0.021639705,-0.0037204791,-0.0055777803
36287500000,-0.0040065208,-0.0052737095,-1.000131,0.024071008,-0.96684408,0.0220595,-0.0030867213,-0.006085413
36355000000,-0.0040551196,-0.0051389788,-0.99955541,0.025660604,-0.96778154,0.023061842,-0.0032892656,-0.0061737616
36422500000,-0.004021252,-0.0047626868,-1.0013247,0.02529946,-0.96651363,0.022506297,-0.0034270547,-0.0060464367
36490000000,-0.0042205243,-0.0051259282,-1.0012089,0.024389043,-0.96545267,0.02397719,-0.0036634738,-0.0059742313
36557500000,-0.0041687922,-0.005254887,-0.99988782,0.024133861,-0.96504134,0.023287922,-0.0035388598,-0.0063547264
36625000000,-0.0040858118,-0.0052858624,-0.99942523,0.024618506,-0.96462393,0.022464141,-0.0042165872,-0.0055545769
36692500000,-0.0042534433,-0.0053449273,-1.0002798,0.024893075,-0.96420574,0.022836417,-0.0037605276,-0.0060258149
36760000000,-0.0045070369,-0.0051268158,-1.0015242,0.025096804,-0.96278036,0.022704303,-0.0041655931,-0.0061992239
36827500000,-0.0040455526,-0.0054394677,-1.0014616,0.023858264,-0.962897,0.02224268,-0.0036675064,-0.0060381261
36895000000,-0.0044278004,-0.0052293791,-0.99995852,0.025465429,-0.96281517,0.022183329,-0.0036417856,-0.0058300579
36962500000,-0.0045368387,-0.0048723915,-1.0004587,0.024135381,-0.96137792,0.020654261,-0.004368966,-0.0060083112
37030000000,-0.0044637849,-0.0053611691,-1.0005757,0.02401793,-0.9604817,0.019801468,-0.0044633769,-0.0055519729
37097500000,-0.0046600532,-0.0048526628,-1.0008806,0.024969697,-0.96114957,0.019517839,-0.0042632255,-0.0060897507
37165000000,-0.0047932258,-0.0047568395,-1.0008242,0.023956209,-0.95866108,0.018532127,-0.0045432895,-0.0055965013
37232500000,-0.0053230082,-0.004750709,-1.0003465,0.0249331,-0.95927536,0.017882884,-0.004905805,-0.0055332175
37300000000,-0.0046824133,-0.0044954955,-1.0013843,0.024438351,-0.96081245,0.016931027,-0.0049530338,-0.0058413353
37367500000,-0.004784653,-0.004790789,-1.0016117,0.025078565,-0.95923442,0.01526612,-0.0053423205,-0.0055170781
37435000000,-0.0047101532,-0.004319936,-1.0008985,0.024780223,-0.96017689,0.015717728,-0.005062894,-0.0055483035
37502500000,-0.0049732574,-0.0041681463,-1.0013696,0.024599761,-0.96000862,0.013793617,-0.0053509651,-0.0051364708
37570000000,-0.0045940299,-0.0036826977,-1.0016187,0.02527298,-0.95995998,0.013624117,-0.0051547703,-0.0048752683
37637500000,-0.0046704104,-0.0038864682,-1.0021316,0.025148213,-0.9599424,0.012019143,-0.0050556106,-0.0045035463
37705000000,-0.0047382852,-0.0034909188,-1.0021044,0.025119692,-0.96082312,0.011018693,-0.0051752026,-0.0046834145
37772500000,-0.00462353,-0.0033219471,-1.0020237,0.025668651,-0.96155852,0.0099031776,-0.0054472415,-0.0041458709
37840000000,-0.004328643,-0.0032504606,-1.0027139,0.025204293,-0.96254569,0.010228261,-0.0049471939,-0.0034529618
37907500000,-0.0046246951,-0.0035156789,-1.0022964,0.025144633,-0.96386975,0.010284847,-0.0045653544,-0.0039032197
37975000000,-0.0044623706,-0.0029807461,-1.0012308,0.025398552,-0.96572518,0.0087870061,-0.0047431546,-0.0031929754
38042500000,-0.0037619325,-0.0033446066,-1.0007148,0.025691211,-0.96552658,0.0090006888,-0.0046320073,-0.0031192938
