!CSV A.01.01
!Keysight Technologies,N5247B,US56070639,A.17.30.08
!Date: Wednesday, July 22, 2026 09:24:02
!Source: Standard

BEGIN CH1_DATA
Freq(Hz),S21(REAL),S21(IMAG),S11(REAL),S11(IMAG),S22(REAL),S22(IMAG),S12(REAL),S12(IMAG)
26500000000,-0.00040317164,-0.0058110938,-1.0073105,0.016243994,-0.98375964,0.025093436,-0.00044437964,-0.0062445588
26567500000,-0.00035426067,-0.0059315162,-1.0071263,0.015381098,-0.98383904,0.025338411,-0.00013159798,-0.0061118379
26635000000,-0.00045507331,-0.0060051223,-1.0072392,0.015842944,-0.98280472,0.024892181,-0.00080371299,-0.0060224119
26702500000,-0.00028866937,-0.005778126,-1.0073571,0.015830725,-0.98305809,0.025461257,-0.00049101899,-0.0062744818
26770000000,-0.00058918772,-0.0058234674,-1.0074008,0.015867315,-0.98296285,0.02410157,-0.00043345167,-0.006413281
26837500000,-0.00043199386,-0.0059171766,-1.007265,0.016573355,-0.98206592,0.024500862,-0.00065711513,-0.0060983635
26905000000,-0.00051679905,-0.0058093956,-1.0079485,0.016259745,-0.98197395,0.024856731,-0.00070636766,-0.005814054
26972500000,-0.00047077867,-0.0057477122,-1.0077949,0.016412735,-0.9819538,0.024225473,-0.00052042445,-0.0058566607
27040000000,-0.00062680885,-0.0060616178,-1.0080299,0.016695816,-0.98188639,0.023568187,-0.00035405997,-0.0062210644
27107500000,-0.00037841848,-0.0057868166,-1.0075055,0.016512573,-0.9816885,0.023960918,-0.00034657912,-0.0061079524
27175000000,-0.00046442641,-0.005668384,-1.0070879,0.015780985,-0.98159039,0.02297172,-0.00044740574,-0.0057134512
27242500000,-0.00056130276,-0.0056642722,-1.0069039,0.016749918,-0.98144537,0.023922384,-0.00028433977,-0.0059117856
27310000000,-0.00038402702,-0.005682244,-1.0072191,0.0160923,-0.98088235,0.024260439,-0.00019580906,-0.0062504057
27377500000,-0.00019762036,-0.0060225008,-1.0068984,0.016552538,-0.98034406,0.023628607,-0.00078449887,-0.0063785254
27445000000,-0.00025012437,-0.0059086932,-1.0074482,0.016320944,-0.98067367,0.02304399,-0.00056551211,-0.0060889372
27512500000,-0.00022958149,-0.0060568629,-1.0072733,0.01648891,-0.98163879,0.023575246,-0.00044084736,-0.0062277289
27580000000,-0.00014053471,-0.0059573464,-1.0066259,0.016592205,-0.9804551,0.023371339,-0.00027484307,-0.0060829404
27647500000,3.4958357e-005,-0.006357858,-1.0077324,0.016376972,-0.98014534,0.023731202,-0.00060895027,-0.0065757842
27715000000,-0.00025230972,-0.0061672688,-1.0080636,0.016218394,-0.98071533,0.023244351,-0.00042222638,-0.0062176166
27782500000,-0.00030491897,-0.0063701048,-1.0082235,0.016217738,-0.98013115,0.02297774,-0.00020892732,-0.00645578
27850000000,-0.00062284491,-0.0066097714,-1.0078049,0.016392738,-0.98042244,0.023532033,-0.00041532528,-0.0064476747
27917500000,-0.00033478881,-0.0062960899,-1.0079327,0.016401678,-0.97979122,0.022919863,-0.0005425046,-0.0065421192
27985000000,-0.00069826841,-0.0060025919,-1.0081103,0.017296404,-0.97967988,0.022246331,-0.00040850719,-0.0068651615
28052500000,-0.00069162832,-0.0063805669,-1.008348,0.01641953,-0.97961545,0.021599203,-0.00048365002,-0.0063024615
28120000000,-0.00053901784,-0.0063180113,-1.008028,0.01708883,-0.98042059,0.021815687,-0.00041644578,-0.006197555
28187500000,-0.00053998193,-0.0062327744,-1.0080385,0.017487511,-0.97964472,0.02246657,-0.00053487218,-0.0063595236
28255000000,-0.0006040947,-0.0063179983,-1.0083543,0.017025292,-0.97997487,0.022262633,-0.00039743586,-0.0066514341
28322500000,-0.00062651874,-0.0060996679,-1.0078371,0.017629445,-0.97988248,0.021799386,-0.00020334194,-0.0062108808
28390000000,-0.00059046806,-0.0062169647,-1.0083789,0.017462578,-0.9792735,0.022914071,-0.00034555903,-0.006246007
28457500000,-0.00090471748,-0.0060432642,-1.0080086,0.017657638,-0.98008263,0.022491097,-0.00030810037,-0.0060431096
28525000000,-0.00076920772,-0.0060585062,-1.0075722,0.017759979,-0.98052847,0.022956729,-0.00016216189,-0.0061551458
28592500000,-0.00025277701,-0.0061942111,-1.007127,0.017416984,-0.97928011,0.022680014,-0.00037080632,-0.006466534
28660000000,-0.00049416767,-0.0063789375,-1.0076933,0.017847836,-0.97994483,0.022828609,-0.00025928183,-0.0065001417
28727500000,-0.00036568192,-0.0060960958,-1.007925,0.017688721,-0.98026371,0.022905797,6.3572952e-005,-0.006065846
28795000000,-0.00054477178,-0.0063919937,-1.0079527,0.017066538,-0.97963732,0.023646787,-0.00023447373,-0.00626306
28862500000,-0.00050581642,-0.006273007,-1.0076395,0.017462224,-0.97854078,0.023354709,-0.00011666329,-0.0065828077
28930000000,-0.00020262995,-0.0060390686,-1.0075669,0.017448694,-0.97916317,0.023178071,2.8925482e-005,-0.0065894565
28997500000,-0.00021563214,-0.0064950851,-1.0072764,0.016909413,-0.97924709,0.023010194,-0.00030570122,-0.0068334951
29065000000,0.00016701323,-0.0067592473,-1.007471,0.017233685,-0.979146,0.024115883,-1.896458e-005,-0.0064532813
29132500000,-0.00018481468,-0.0067185359,-1.0080283,0.017335832,-0.97788829,0.023619443,-7.7350996e-006,-0.0066816369
29200000000,-0.00020322949,-0.0069845133,-1.0075122,0.016961306,-0.97770834,0.023205251,-9.1809547e-005,-0.0068352055
29267500000,-0.00068032136,-0.0068627899,-1.0081797,0.017054513,-0.97789699,0.023229495,-0.00014467433,-0.0071490677
29335000000,-0.00050335191,-0.0070628868,-1.0078027,0.016995847,-0.97737926,0.023060098,6.27595e-005,-0.0067521599
29402500000,-0.00067395257,-0.0070882188,-1.0080103,0.017443478,-0.97771895,0.022619113,-0.00013917661,-0.0071418467
29470000000,-0.00034668494,-0.00685078,-1.0082582,0.017897174,-0.97764301,0.022946864,-5.3567579e-005,-0.0070576789
29537500000,-0.00061426836,-0.0072547272,-1.0077424,0.01661171,-0.97677982,0.021404251,-0.00040837005,-0.0072750868
29605000000,-0.00079982216,-0.0072968826,-1.0077537,0.017713338,-0.97717017,0.022434503,-0.0005819113,-0.0072603701
29672500000,-0.0011184416,-0.0071285358,-1.0090747,0.017195225,-0.97709846,0.022089332,-0.00053144805,-0.0071502812
29740000000,-0.0011064757,-0.0070693064,-1.0081297,0.017705679,-0.97701043,0.02155003,-0.0005651731,-0.0068552783
29807500000,-0.00072332821,-0.0072902595,-1.0083183,0.017855883,-0.9767009,0.021295309,-0.00041361898,-0.0071133031
29875000000,-0.00091009168,-0.007162611,-1.0084505,0.017862767,-0.97820234,0.020770729,-0.001100064,-0.0071358522
29942500000,-0.00091789721,-0.0070800218,-1.0081896,0.017608814,-0.97828758,0.020726878,-0.00054769835,-0.0069014127
30010000000,-0.0010947343,-0.0073790285,-1.0081609,0.018051177,-0.97840059,0.021962941,-0.00053203548,-0.0067070415
30077500000,-0.00097474223,-0.0070824632,-1.0086023,0.018410087,-0.978329,0.021324009,-0.00053447019,-0.0065414868
30145000000,-0.0010287084,-0.0066427239,-1.0084317,0.018188477,-0.97735643,0.021540076,-0.00042622956,-0.0069150482
30212500000,-0.0010726252,-0.0072099324,-1.0084567,0.018806636,-0.97856009,0.021121204,-0.00071112276,-0.0066875359
30280000000,-0.00083600217,-0.0066114389,-1.0083942,0.018235147,-0.97844315,0.02222082,-0.00020681205,-0.0069048195
30347500000,-0.00094706984,-0.0069821225,-1.0073895,0.018797189,-0.9776448,0.021631092,-0.00027159113,-0.0066293487
30415000000,-0.00094916025,-0.0067024939,-1.0085727,0.018732086,-0.97868359,0.023209974,-8.6753163e-005,-0.0064235828
30482500000,-0.00092220836,-0.0072593782,-1.0086157,0.018083602,-0.97845745,0.022751942,-0.00021436228,-0.0067318534
30550000000,-0.00065621338,-0.0066608554,-1.0080347,0.018428534,-0.97786534,0.023713171,-0.00036126352,-0.006747447
30617500000,-0.00078488188,-0.0071322834,-1.0086689,0.018894732,-0.9776876,0.023777127,-0.00025978591,-0.0068137171
30685000000,-0.0010396308,-0.0068675904,-1.0088742,0.018494129,-0.97724462,0.024045214,0.00032641192,-0.0069487216
30752500000,-0.00078967412,-0.0071700006,-1.0074751,0.018990248,-0.97689378,0.024230242,4.7198497e-005,-0.0070415004
30820000000,-0.00077381451,-0.0073717046,-1.0077337,0.018245488,-0.97752607,0.02322495,0.00046957517,-0.0074989772
30887500000,-0.00086306618,-0.007635511,-1.0080047,0.019051194,-0.97644562,0.023811579,0.00017637247,-0.0073741432
30955000000,-0.00090567581,-0.0075779734,-1.0089306,0.0185837,-0.97669065,0.024753705,0.00027199171,-0.0074600335
31022500000,-0.0010454913,-0.0074542593,-1.0093462,0.018855095,-0.97625989,0.02503249,6.9721369e-005,-0.0078854803
31090000000,-0.00084746373,-0.0073988577,-1.009023,0.019223481,-0.97583055,0.02451399,-0.00053488743,-0.0078097051
31157500000,-0.0010211845,-0.0082105799,-1.0085899,0.019876331,-0.97446871,0.02387622,-3.6142068e-005,-0.0079552606
31225000000,-0.001049301,-0.0077307373,-1.009129,0.019009739,-0.97408605,0.024666876,-0.00026322529,-0.0083367303
31292500000,-0.0013841786,-0.0081130657,-1.008026,0.019189954,-0.97371644,0.024104804,7.1560265e-005,-0.0082399603
31360000000,-0.0014379451,-0.007710584,-1.0089576,0.019869059,-0.97412509,0.023765355,-0.00072520913,-0.0085854372
31427500000,-0.0015932585,-0.0077599469,-1.0083221,0.019654624,-0.97404045,0.024287358,-0.00084026874,-0.0083186915
31495000000,-0.001523081,-0.0076855598,-1.0086381,0.019650549,-0.97505045,0.024082959,-0.00047377474,-0.0080037564
31562500000,-0.0017319373,-0.0078011095,-1.0088754,0.020020381,-0.97471899,0.023091406,-0.001078821,-0.0081545105
31630000000,-0.0014513005,-0.0078518074,-1.008266,0.019308835,-0.97357476,0.023422718,-0.00099254982,-0.0082592657
31697500000,-0.0014225089,-0.0077673527,-1.0093948,0.020184606,-0.97463429,0.023195237,-0.00067929341,-0.0080028363
31765000000,-0.001656858,-0.0078831343,-1.0091565,0.019790322,-0.97480911,0.023425043,-0.00097674062,-0.0078033749
31832500000,-0.0014188723,-0.0074109314,-1.0082979,0.020461679,-0.97517931,0.023461431,-0.0013008865,-0.00801495
31900000000,-0.0019217569,-0.0075214272,-1.0084629,0.020372286,-0.97438169,0.023805574,-0.0011004254,-0.0080705276
31967500000,-0.0013387743,-0.0075376844,-1.0087851,0.019939199,-0.975384,0.023741588,-0.0010331913,-0.0075981515
32035000000,-0.0020341564,-0.0074448334,-1.0083293,0.019966274,-0.97511578,0.024415761,-0.0010081329,-0.0076197507
32102500000,-0.0014009087,-0.007642867,-1.0080653,0.02088622,-0.97470415,0.024721228,-0.001076975,-0.0074601802
32170000000,-0.0013610465,-0.0074793831,-1.0083673,0.020200551,-0.97497666,0.024606347,-0.0011824071,-0.0077442643
32237500000,-0.0019530368,-0.0072625428,-1.0083116,0.01989603,-0.97412902,0.025072008,-0.00098297186,-0.0077148327
32305000000,-0.0014067339,-0.0078970231,-1.0081506,0.019421011,-0.97438598,0.025704563,-0.00068687857,-0.0078938017
32372500000,-0.0018016931,-0.007636691,-1.0072936,0.019794285,-0.97359014,0.026666313,-0.00085339928,-0.0078009069
32440000000,-0.0015272952,-0.007490112,-1.0089413,0.020144492,-0.97298115,0.026345551,-0.00058258325,-0.0078924382
32507500000,-0.0015237005,-0.0079229278,-1.0077293,0.019142939,-0.97295249,0.026264243,-0.00055505568,-0.0080726678
32575000000,-0.0017526273,-0.0076605976,-1.0079508,0.01947999,-0.97183168,0.025893658,-0.0009366395,-0.0079510212
32642500000,-0.0016478056,-0.00752421,-1.008095,0.019943506,-0.97083586,0.026393682,-0.00089933537,-0.0080905864
32710000000,-0.0020143527,-0.0078649288,-1.008267,0.01917994,-0.97153574,0.025597692,-0.00048548752,-0.0085010463
32777500000,-0.0016915658,-0.0078559667,-1.0077776,0.019198552,-0.97084785,0.024815932,-0.0010778852,-0.0084031662
32845000000,-0.00180955,-0.0076965471,-1.0083046,0.020110637,-0.96922392,0.025601,-0.0013643515,-0.0086726258
32912500000,-0.0019083456,-0.0078392196,-1.0080764,0.019374013,-0.96927464,0.025339365,-0.0017328621,-0.0086683985
32980000000,-0.0020199844,-0.007741279,-1.0088028,0.019579113,-0.96885741,0.023639113,-0.0012846726,-0.0089207757
33047500000,-0.0021499938,-0.0080052232,-1.0083339,0.019108415,-0.96883535,0.023165703,-0.0017121475,-0.0086414739
33115000000,-0.0022244339,-0.0076430677,-1.0086446,0.019789957,-0.96938998,0.022911757,-0.0017574214,-0.0088082496
33182500000,-0.0021885179,-0.0075825923,-1.0086631,0.019765317,-0.96916151,0.021028697,-0.0020179248,-0.0084979357
33250000000,-0.0023257635,-0.0072934534,-1.0087824,0.018431216,-0.96865714,0.021117434,-0.0024369811,-0.0086918846
33317500000,-0.0025118815,-0.0075231497,-1.0087676,0.019765168,-0.96833104,0.020392656,-0.0021809682,-0.0081021953
33385000000,-0.002842318,-0.007665026,-1.0094997,0.020547897,-0.96881276,0.019632876,-0.0026445023,-0.0082225036
33452500000,-0.0030724157,-0.0076782196,-1.0096622,0.020462453,-0.96843302,0.019106805,-0.0030046154,-0.0078866305
33520000000,-0.0025943054,-0.0073238979,-1.0096883,0.020756423,-0.96974814,0.019396335,-0.0026306317,-0.0081575625
33587500000,-0.0031177714,-0.0069054817,-1.0092397,0.020994425,-0.97105128,0.017099142,-0.0030502896,-0.0081894677
33655000000,-0.0031709704,-0.0073243394,-1.0098472,0.02067098,-0.97120953,0.017864764,-0.0030530698,-0.0075619142
33722500000,-0.0030558512,-0.0068783695,-1.0094781,0.020535856,-0.97164202,0.017379403,-0.0034224761,-0.0078825429
33790000000,-0.0029531049,-0.0070107142,-1.0096318,0.020506293,-0.97167408,0.017205596,-0.003351015,-0.0074222758
33857500000,-0.0028956856,-0.0068469071,-1.0095949,0.021194756,-0.97207427,0.017712951,-0.0031847481,-0.0071517108
33925000000,-0.0028068563,-0.0067183641,-1.0096772,0.02169463,-0.97269028,0.017211318,-0.0031661284,-0.0072776335
33992500000,-0.0028269771,-0.006482441,-1.0095621,0.02123934,-0.9727838,0.017203718,-0.0029916973,-0.0074192677
34060000000,-0.0031065305,-0.0063339127,-1.0093138,0.021349877,-0.97424304,0.017380476,-0.0033998913,-0.006786529
34127500000,-0.0028531933,-0.0062495936,-1.0092728,0.021693386,-0.97421211,0.017747425,-0.003204125,-0.0068905381
34195000000,-0.0029004838,-0.0062553706,-1.0093277,0.021902114,-0.97386605,0.01776287,-0.0029459954,-0.0068714721
34262500000,-0.002720389,-0.0066635599,-1.0088565,0.021913767,-0.97353482,0.019252568,-0.0023366576,-0.0066167144
34330000000,-0.0028196978,-0.0061512766,-1.0092533,0.021321416,-0.97428983,0.020038486,-0.0025966133,-0.0065404261
34397500000,-0.0026590801,-0.0066457628,-1.0091572,0.022107512,-0.97403181,0.020017445,-0.0024282096,-0.0065445858
34465000000,-0.0030263606,-0.006464872,-1.009859,0.022531271,-0.97480386,0.020409048,-0.0027524917,-0.0064825118
34532500000,-0.0026745151,-0.0064599263,-1.0091839,0.021473363,-0.97335202,0.020842671,-0.0023067766,-0.0066877655
34600000000,-0.0025665974,-0.006499764,-1.0089176,0.021991342,-0.97256655,0.021038324,-0.0027574582,-0.0070386594
34667500000,-0.0027037959,-0.0068598734,-1.0101271,0.022165656,-0.97345561,0.020715505,-0.0023165122,-0.0063291118
34735000000,-0.0026879334,-0.0064035854,-1.0097694,0.020818591,-0.9733361,0.020142138,-0.0023460644,-0.007129129
34802500000,-0.0026748602,-0.0070775854,-1.0101848,0.022133887,-0.97248697,0.020833075,-0.002332777,-0.0070307818
34870000000,-0.002612656,-0.0067933751,-1.0106819,0.022109807,-0.97230637,0.020678341,-0.0023913062,-0.007485508
34937500000,-0.0028537146,-0.0067921923,-1.0102513,0.021845758,-0.97287512,0.020538628,-0.0021690512,-0.0071575539
35005000000,-0.0031232971,-0.0065765497,-1.0103965,0.02209343,-0.97281909,0.020535825,-0.0022312959,-0.0069688573
35072500000,-0.0030744851,-0.0069641951,-1.0115688,0.021801353,-0.97229517,0.019475222,-0.0024695289,-0.0069812359
35140000000,-0.0028557896,-0.0068787942,-1.0115558,0.021510646,-0.97102773,0.019080639,-0.0025633883,-0.0078445366
35207500000,-0.0030163445,-0.0063326689,-1.0115989,0.022081804,-0.97411293,0.019354299,-0.0028690936,-0.0071802731
35275000000,-0.0034951614,-0.0069670989,-1.0107967,0.022409197,-0.97389281,0.018220838,-0.0030837066,-0.0065309075
35342500000,-0.0033300077,-0.0063579832,-1.0109726,0.022418872,-0.97271532,0.018864572,-0.0030471054,-0.0068342634
35410000000,-0.0031357547,-0.0063405228,-1.0119714,0.022985667,-0.97370905,0.018377393,-0.0032338616,-0.0064970655
35477500000,-0.0034451722,-0.0061442321,-1.0123516,0.022574335,-0.97463036,0.017768681,-0.0031116342,-0.006691996
35545000000,-0.0035824012,-0.0059654168,-1.0109222,0.023738414,-0.97421241,0.018042654,-0.0029586288,-0.0065406961
35612500000,-0.0040599527,-0.0062373765,-1.0125244,0.023988366,-0.97492117,0.01932025,-0.0029493789,-0.0059964024
35680000000,-0.0038552461,-0.0060717934,-1.0107794,0.023649573,-0.97543365,0.020038962,-0.0029531489,-0.0062594996
35747500000,-0.0035826387,-0.0060081566,-1.0102308,0.023578197,-0.97520053,0.019507796,-0.0027090898,-0.0063845413
35815000000,-0.0034292135,-0.0055043097,-1.0103292,0.024033904,-0.97649372,0.019822985,-0.003365526,-0.0059173177
35882500000,-0.0034217844,-0.005622447,-1.0113584,0.024448091,-0.97644854,0.019834723,-0.0023072432,-0.0058320644
35950000000,-0.0034582044,-0.005741626,-1.010842,0.024878263,-0.97599822,0.020780176,-0.0029845932,-0.005941289
36017500000,-0.0034374085,-0.00531859,-1.010658,0.025178045,-0.97665393,0.020323411,-0.0026128562,-0.0058545209
36085000000,-0.0031572499,-0.0056659859,-1.0107136,0.024541229,-0.97629225,0.020486385,-0.0024060681,-0.0057304688
36152500000,-0.0030330536,-0.0056968504,-1.0118965,0.024857104,-0.97689569,0.020849317,-0.0027454856,-0.0055972734
36220000000,-0.003267739,-0.0052720904,-1.011703,0.024594516,-0.97631603,0.020688444,-0.0028697927,-0.0057195053
36287500000,-0.0030401261,-0.0050986069,-1.009655,0.02402246,-0.97688276,0.021149009,-0.0022585879,-0.0055100089
36355000000,-0.003046276,-0.0050748298,-1.0094545,0.02461648,-0.97708184,0.022341087,-0.0022695777,-0.0061220909
36422500000,-0.0030087978,-0.0053196372,-1.0107813,0.02529785,-0.97556007,0.022205681,-0.0021076305,-0.0058643771
36490000000,-0.0032106605,-0.0056063263,-1.0110216,0.023734905,-0.97539145,0.022597969,-0.0018856737,-0.0059207403
36557500000,-0.0032249852,-0.0053983708,-1.0106918,0.023883164,-0.97505558,0.022294641,-0.002068786,-0.0065100132
36625000000,-0.0030400828,-0.00545533,-1.0093505,0.023633331,-0.97473884,0.021585286,-0.0023285213,-0.0061215311
36692500000,-0.0023144044,-0.0053201271,-1.0097181,0.024364561,-0.97500587,0.022171944,-0.0017928525,-0.0062094349
36760000000,-0.0026299241,-0.0054046712,-1.0120171,0.024607211,-0.97427565,0.021731019,-0.0022364049,-0.0063901222
36827500000,-0.0026377011,-0.006050963,-1.0115707,0.023529351,-0.9747684,0.021860689,-0.0022342138,-0.0060082804
36895000000,-0.0027785189,-0.0055167135,-1.0101538,0.024204522,-0.97486436,0.0214113,-0.0018363488,-0.0057328502
36962500000,-0.0031742938,-0.0051072794,-1.0103904,0.024059981,-0.97440213,0.020884573,-0.0025307559,-0.0068067028
37030000000,-0.0029253648,-0.0059151156,-1.0107484,0.023938268,-0.97363389,0.020413071,-0.0021721807,-0.0061930479
37097500000,-0.0028544094,-0.0056752693,-1.0112085,0.025045574,-0.97412914,0.020821333,-0.0023392204,-0.0067838081
37165000000,-0.0029012691,-0.0055758678,-1.0105642,0.023758024,-0.97349757,0.020706743,-0.0026927879,-0.006561703
37232500000,-0.0025057956,-0.0058435667,-1.0113358,0.024738997,-0.97434872,0.020450264,-0.0024248394,-0.0061478633
37300000000,-0.0025253373,-0.0057180403,-1.0118091,0.024603128,-0.97491407,0.020062611,-0.0026291688,-0.0065743062
37367500000,-0.0029896905,-0.0054167253,-1.0122677,0.025200158,-0.97490704,0.01941663,-0.0024963,-0.006058794
37435000000,-0.0024476664,-0.0056202742,-1.0111258,0.024533041,-0.97571558,0.019967996,-0.0027348737,-0.0064452235
37502500000,-0.0023043435,-0.0054267212,-1.0109689,0.025603682,-0.97533095,0.019869983,-0.0027807676,-0.006679283
37570000000,-0.0030098823,-0.0053348783,-1.0117537,0.026333775,-0.97569299,0.020645915,-0.002753149,-0.0063712117
37637500000,-0.0028020712,-0.0054292623,-1.0118183,0.026003815,-0.97570443,0.019966602,-0.0028233316,-0.0065142778
37705000000,-0.0027605575,-0.0057292744,-1.01208,0.026181608,-0.97582459,0.020166039,-0.0026694608,-0.0068246555
37772500000,-0.0028037836,-0.0047223689,-1.0120038,0.027016878,-0.97600329,0.019944593,-0.0027817592,-0.0065970328
37840000000,-0.0028761346,-0.005181219,-1.01294,0.026568644,-0.97613847,0.02080841,-0.0035096826,-0.0061231847
37907500000,-0.0025980936,-0.0054726028,-1.0118697,0.026359212,-0.97772175,0.021647763,-0.0026668594,-0.0059452145
37975000000,-0.002642849,-0.0050403783,-1.0116904,0.027120292,-0.97819394,0.021843672,-0.003087814,-0.0059916386
38042500000,-0.0027744947,-0.0049619223,-1.0107493,0.02752766,-0.97879875,0.022190183,-0.0027275712,-0.0055688079
