!CSV A.01.01
!Keysight Technologies,N5247B,US56070639,A.17.30.08
!Date: Wednesday, July 22, 2026 10:11:54
!Source: Standard

BEGIN CH1_DATA
Freq(Hz),S21(REAL),S21(IMAG),S11(REAL),S11(IMAG),S22(REAL),S22(IMAG),S12(REAL),S12(IMAG)
26500000000,-0.00018565613,-0.0057513863,-0.97304112,0.024064153,-1.0027777,0.027272463,-0.0012199068,-0.0062597739
26567500000,-0.00023560179,-0.0059504258,-0.97101921,0.023619145,-1.0029558,0.027585953,-0.0011525236,-0.006119262
26635000000,-0.0005425394,-0.0063355318,-0.96951348,0.02405718,-1.00188,0.026466161,-0.0012449746,-0.006166657
26702500000,-0.00056342426,-0.005975211,-0.96934426,0.024622321,-1.0023515,0.027883336,-0.0015630712,-0.006038799
26770000000,-0.00064883713,-0.00611842,-0.96876347,0.024243444,-1.0030153,0.025697038,-0.0016109692,-0.0063310554
26837500000,-0.00099769584,-0.0058211004,-0.96749347,0.024627164,-1.0005628,0.027130917,-0.00174587,-0.0064865774
26905000000,-0.0011253952,-0.0060241492,-0.96741641,0.024398714,-1.001049,0.02704367,-0.0018908876,-0.0064504901
26972500000,-0.0014194732,-0.0060618818,-0.96542674,0.024401337,-1.0020733,0.025431752,-0.0021428133,-0.0063444441
27040000000,-0.0012441108,-0.0061716759,-0.96610522,0.025509739,-1.0008422,0.025902532,-0.002171671,-0.0061440622
27107500000,-0.0013755132,-0.0059943083,-0.96567374,0.02556619,-1.0017819,0.027067035,-0.0024128382,-0.0060573099
27175000000,-0.0012134629,-0.0058905878,-0.96394563,0.025718912,-1.0004171,0.024781093,-0.0023404579,-0.0062378845
27242500000,-0.0015634298,-0.0058617583,-0.96271414,0.027365535,-1.0004025,0.02568382,-0.0023712285,-0.0060578664
27310000000,-0.0013419547,-0.0059396601,-0.96258414,0.027235448,-1.0006155,0.026287675,-0.0025851966,-0.006070856
27377500000,-0.0013101163,-0.0059263879,-0.96139103,0.027796865,-0.99981439,0.024704784,-0.002984521,-0.0060610324
27445000000,-0.0014498974,-0.0059508011,-0.96031988,0.027672589,-0.99919343,0.025071889,-0.002541038,-0.0059476322
27512500000,-0.0016904767,-0.0061148051,-0.96014637,0.026857466,-1.001399,0.024611324,-0.0025957464,-0.0056100227
27580000000,-0.0016283718,-0.0058146645,-0.95731741,0.027794331,-0.99901754,0.024246365,-0.0027155085,-0.0057750596
27647500000,-0.001947429,-0.0058978396,-0.95720237,0.027502283,-1.0004094,0.025277823,-0.0028349261,-0.0059691048
27715000000,-0.0019607195,-0.0061199679,-0.95595837,0.027404159,-1.0012035,0.024707615,-0.0027951126,-0.0054465071
27782500000,-0.0019290876,-0.005866996,-0.95544171,0.026125818,-0.99932587,0.023429424,-0.0028808841,-0.0055427663
27850000000,-0.0021631015,-0.0060567884,-0.95455796,0.025219247,-0.9997803,0.025035918,-0.0029644775,-0.0053115701
27917500000,-0.0022266181,-0.0055311164,-0.95367807,0.024672687,-1.0004884,0.023375541,-0.0029495573,-0.0056363409
27985000000,-0.0021900656,-0.0054453714,-0.95406181,0.024172425,-1.0000136,0.023695707,-0.003133134,-0.0053014527
28052500000,-0.0021742084,-0.005381804,-0.95510256,0.022627026,-1.0000219,0.023471892,-0.0031934094,-0.005226016
28120000000,-0.0020260471,-0.0052886922,-0.95440269,0.022871315,-1.0002097,0.022981733,-0.002810068,-0.0046725208
28187500000,-0.0017710746,-0.0051602065,-0.95507532,0.022265792,-0.99942946,0.023687981,-0.0025907499,-0.0052268556
28255000000,-0.0020449418,-0.0049472842,-0.95593506,0.021639377,-1.0003663,0.02335757,-0.0028289962,-0.0048789419
28322500000,-0.0018755684,-0.0049478379,-0.95663893,0.021301657,-0.99958098,0.022334158,-0.0026451715,-0.0046000248
28390000000,-0.0017751538,-0.0046115248,-0.95754904,0.021979593,-0.99878639,0.023402154,-0.0024864841,-0.0044777668
28457500000,-0.0016668333,-0.0049176016,-0.95836633,0.021754652,-0.99997503,0.023302734,-0.0020658453,-0.0047603003
28525000000,-0.0012796337,-0.0046216166,-0.95847386,0.023714662,-1.0003786,0.022950739,-0.0021717395,-0.0048572971
28592500000,-0.001335905,-0.0051771994,-0.95834363,0.024374932,-0.99928498,0.023325562,-0.0019433487,-0.0048744185
28660000000,-0.0016181326,-0.005235103,-0.95911217,0.024992645,-1.0007247,0.023028314,-0.0020113287,-0.0052699177
28727500000,-0.0008757324,-0.0049968376,-0.95901471,0.025661061,-0.99981529,0.022976903,-0.0016571395,-0.0048335749
28795000000,-0.0011439826,-0.0053983694,-0.95977294,0.026163012,-0.99991965,0.023570523,-0.0019032706,-0.0054222983
28862500000,-0.00090464007,-0.005319715,-0.95936275,0.028351694,-1.0000681,0.022979796,-0.0020566373,-0.005367741
28930000000,-0.00089183007,-0.0054992242,-0.95876062,0.028835833,-1.0005258,0.022324085,-0.001913763,-0.0055466453
28997500000,-0.00074910634,-0.0053594154,-0.95736313,0.03012082,-1.0000933,0.022345677,-0.0019112946,-0.0054894467
29065000000,-0.00093214813,-0.0057871654,-0.95632339,0.030564353,-1.0011714,0.022621453,-0.0018390331,-0.0056683123
29132500000,-0.00071935053,-0.0062390426,-0.95533758,0.030737966,-1.0000124,0.021847099,-0.0017994484,-0.0059342729
29200000000,-0.00093483715,-0.006047559,-0.95450729,0.030755043,-0.99984097,0.022181213,-0.0020530911,-0.0063021388
29267500000,-0.0012792358,-0.005973611,-0.95436841,0.031803101,-1.0015794,0.022584004,-0.0022171382,-0.0062562721
29335000000,-0.0011316747,-0.006318632,-0.95350987,0.032263637,-1.0010896,0.021086186,-0.0020680351,-0.006128286
29402500000,-0.00090452773,-0.0067848442,-0.95159906,0.033139009,-1.0019113,0.021286763,-0.0022207494,-0.0062131225
29470000000,-0.00096069218,-0.0065265391,-0.95145988,0.035130426,-1.0025439,0.021428362,-0.0024276641,-0.0063151638
29537500000,-0.0013378116,-0.0068076951,-0.95008618,0.033240497,-1.0021691,0.020101786,-0.0024025789,-0.0067327116
29605000000,-0.0014962491,-0.0067786784,-0.94911736,0.033445746,-1.0020581,0.021817148,-0.0024086304,-0.0066354508
29672500000,-0.0014729293,-0.0065499982,-0.95018709,0.033227175,-1.0025429,0.020789981,-0.002412972,-0.0066039781
29740000000,-0.0013768359,-0.0069177127,-0.94866252,0.033050925,-1.0018107,0.020201445,-0.0024726142,-0.0068176324
29807500000,-0.0013925352,-0.0066276379,-0.94838691,0.034454107,-1.0024167,0.021023035,-0.0028473756,-0.0068367464
29875000000,-0.0016581011,-0.0070843715,-0.94735014,0.03485015,-1.003824,0.02089411,-0.0030286703,-0.0067591621
29942500000,-0.0018399628,-0.0068477211,-0.94643801,0.033841416,-1.0028586,0.020088926,-0.0028102468,-0.0065162345
30010000000,-0.0019645188,-0.0067354357,-0.94610274,0.034972787,-1.0030384,0.021371096,-0.0026614773,-0.0063403943
30077500000,-0.0018924663,-0.0072210343,-0.94614029,0.034178793,-1.0036523,0.019751847,-0.0029884586,-0.0065620225
30145000000,-0.0018147363,-0.0068215011,-0.945867,0.034272254,-1.0022035,0.020084143,-0.0031726914,-0.0067944094
30212500000,-0.0021355541,-0.0072345217,-0.94571209,0.035385758,-1.0039786,0.019944847,-0.0030090609,-0.0067175669
30280000000,-0.001982853,-0.0069782832,-0.94489509,0.035780847,-1.0031551,0.020166576,-0.003094642,-0.0070087123
30347500000,-0.0018198105,-0.0071275663,-0.94398332,0.037134588,-1.0019739,0.01946345,-0.0030786477,-0.007037899
30415000000,-0.0023643274,-0.0072722258,-0.94400382,0.036735721,-1.0037378,0.021658614,-0.0029704848,-0.0069052139
30482500000,-0.002363879,-0.0073874146,-0.94329453,0.0367928,-1.0035851,0.019223794,-0.0033864537,-0.0070623565
30550000000,-0.0024503467,-0.0073159891,-0.94215113,0.037500679,-1.0023255,0.020583391,-0.0033376394,-0.0072836718
30617500000,-0.0025714403,-0.0073224735,-0.94252682,0.03920237,-1.0027405,0.019746467,-0.0033916319,-0.0074723726
30685000000,-0.0023905947,-0.0073543503,-0.9407928,0.039404631,-1.0018823,0.018524468,-0.0029659695,-0.0076614777
30752500000,-0.001884975,-0.0077895708,-0.93800139,0.042096794,-1.0014522,0.019671008,-0.0034418928,-0.0074904496
30820000000,-0.002813197,-0.007787121,-0.93697125,0.041362107,-1.0038757,0.018901914,-0.0037309357,-0.0079137925
30887500000,-0.0029967383,-0.0078928526,-0.93486762,0.040939033,-1.0023154,0.019042522,-0.0040135221,-0.0075173713
30955000000,-0.0030201965,-0.0080233132,-0.9344638,0.04197409,-1.0030284,0.019765645,-0.0040428075,-0.0078881746
31022500000,-0.0031566538,-0.0078105084,-0.93312091,0.042320073,-1.0035374,0.020058036,-0.0045958073,-0.0079100002
31090000000,-0.0035391278,-0.0081208861,-0.93208253,0.042079538,-1.0028875,0.019803166,-0.0045661433,-0.007965643
31157500000,-0.0036912735,-0.0077574691,-0.92994028,0.042204291,-1.0029171,0.019716322,-0.0045903367,-0.0088661388
31225000000,-0.0039730156,-0.0082334504,-0.92715216,0.041324869,-1.0025166,0.019155875,-0.0052880133,-0.0079206275
31292500000,-0.0040998366,-0.0077620754,-0.92543983,0.040800422,-1.0027261,0.019452825,-0.0054011024,-0.0084797759
31360000000,-0.004318567,-0.0080285184,-0.92418045,0.040250093,-1.0038545,0.018996537,-0.0062893024,-0.0081053609
31427500000,-0.0043562041,-0.0079655331,-0.92306376,0.039116599,-1.0031396,0.020538598,-0.0063236165,-0.0074660871
31495000000,-0.0049744248,-0.0079966309,-0.92326611,0.038956672,-1.0035514,0.020654708,-0.0066235289,-0.0077925217
31562500000,-0.005123409,-0.0077134622,-0.92214173,0.037761092,-1.0038954,0.019568592,-0.0069560576,-0.0072936984
31630000000,-0.0048501133,-0.0073847482,-0.92095691,0.038598627,-1.0019503,0.01990357,-0.0069344752,-0.0070403419
31697500000,-0.0056480793,-0.0077383993,-0.91994339,0.037722975,-1.0023323,0.019959509,-0.0071944585,-0.0070687663
31765000000,-0.0052686189,-0.007128166,-0.91837478,0.036474198,-1.0038427,0.019860327,-0.0071948757,-0.006744585
31832500000,-0.0052835643,-0.0071951048,-0.91753101,0.036872745,-1.0038131,0.020328015,-0.0073451968,-0.0064463001
31900000000,-0.0056641256,-0.0065460764,-0.91689354,0.035671115,-1.0038263,0.020722914,-0.0073686484,-0.005989355
31967500000,-0.0053716241,-0.00657264,-0.91700834,0.035804912,-1.0042323,0.020752994,-0.0072699287,-0.0060335384
32035000000,-0.005768273,-0.0068408567,-0.91445363,0.035064578,-1.0045917,0.021253943,-0.0077896984,-0.0056650671
32102500000,-0.0060364418,-0.0059978478,-0.91386545,0.034636453,-1.0041373,0.020745665,-0.00751703,-0.0054926062
32170000000,-0.0061737676,-0.006409205,-0.91379309,0.034149349,-1.0040176,0.020005107,-0.0074659637,-0.0052662077
32237500000,-0.0058915969,-0.005694543,-0.91309667,0.032576799,-1.0031495,0.020185739,-0.0077512898,-0.0047431975
32305000000,-0.0060193138,-0.0061750868,-0.90967059,0.032860011,-1.004159,0.020251304,-0.0077495729,-0.004452297
32372500000,-0.0062197438,-0.0055640349,-0.90906882,0.032057941,-1.0045285,0.01980719,-0.0076461621,-0.0046674758
32440000000,-0.0059662857,-0.0054015652,-0.90993655,0.031126957,-1.0052679,0.019769467,-0.0073620216,-0.0045125345
32507500000,-0.0063163331,-0.0053654658,-0.90680212,0.02890873,-1.0050327,0.019302294,-0.0077585732,-0.0039381906
32575000000,-0.0064490498,-0.0051978254,-0.90677303,0.027441397,-1.0056243,0.018697292,-0.007921773,-0.0037472094
32642500000,-0.006224324,-0.0042961375,-0.90898943,0.025425375,-1.005717,0.018345237,-0.0073153791,-0.0033889152
32710000000,-0.0064569116,-0.0041373223,-0.90700024,0.023316324,-1.0060148,0.018303066,-0.0077521428,-0.0030695703
32777500000,-0.0061064353,-0.0041719293,-0.90602571,0.022183597,-1.0069928,0.018283576,-0.007325917,-0.0031314536
32845000000,-0.0060060639,-0.0035815961,-0.90751505,0.019963145,-1.0071898,0.018221259,-0.0074847853,-0.0024499113
32912500000,-0.0059344666,-0.0034532794,-0.90792894,0.017948687,-1.0079204,0.018789232,-0.0070208772,-0.002530169
32980000000,-0.005681776,-0.0033009304,-0.90773547,0.015519053,-1.0082259,0.018234998,-0.0064619062,-0.0022811755
33047500000,-0.0050959042,-0.003038635,-0.90894002,0.012894735,-1.009032,0.017300099,-0.0066731139,-0.0018225418
33115000000,-0.0053263418,-0.0027305852,-0.91141164,0.012246858,-1.0091934,0.018442567,-0.0059678773,-0.001471467
33182500000,-0.0050807442,-0.0028274003,-0.91319907,0.012090504,-1.0103891,0.018077523,-0.0060292925,-0.0018885299
33250000000,-0.0041798051,-0.0027110879,-0.91449082,0.011105984,-1.0096418,0.018539608,-0.0055513559,-0.0014041236
33317500000,-0.0042259074,-0.0027511208,-0.91647661,0.011524141,-1.0098751,0.018863797,-0.0051819235,-0.0013172543
33385000000,-0.0042247223,-0.0029121714,-0.91878796,0.01031217,-1.0106591,0.018971652,-0.0048925434,-0.0018420457
33452500000,-0.003553615,-0.0026400036,-0.91945922,0.0098942816,-1.0098314,0.019129127,-0.0048599825,-0.0017468202
33520000000,-0.0038284063,-0.0032682791,-0.92255551,0.010196567,-1.0109501,0.019829214,-0.0046154838,-0.0022618757
33587500000,-0.0034457063,-0.0029496015,-0.92392576,0.010757178,-1.0125477,0.018807977,-0.0043767947,-0.0020580902
33655000000,-0.0029257438,-0.0031906459,-0.9240154,0.011322595,-1.0108123,0.019903895,-0.0044770604,-0.0023289518
33722500000,-0.0028928174,-0.0031661396,-0.92584687,0.012913644,-1.0112712,0.02102384,-0.0044346349,-0.002609578
33790000000,-0.0029182876,-0.003107518,-0.92544436,0.014087737,-1.0107652,0.021097273,-0.0044342731,-0.0026361551
33857500000,-0.0028230769,-0.0035117739,-0.92608833,0.013742417,-1.0108548,0.021329045,-0.0043605398,-0.0025760562
33925000000,-0.0033751596,-0.0038425997,-0.92674267,0.015809476,-1.0115891,0.021491736,-0.0043027569,-0.0030961677
33992500000,-0.0029346102,-0.0035898234,-0.92786348,0.015898973,-1.0101752,0.021274269,-0.0044960696,-0.0032174385
34060000000,-0.0029645897,-0.0038495813,-0.92685819,0.017653942,-1.0104018,0.022929162,-0.004746994,-0.0027861772
34127500000,-0.003299779,-0.0036647604,-0.92683643,0.01850941,-1.0106379,0.022711923,-0.0043380973,-0.0030364301
34195000000,-0.0031866333,-0.0039866725,-0.92700577,0.019600987,-1.0093398,0.022293568,-0.0047715143,-0.0032921068
34262500000,-0.0032979744,-0.0040441076,-0.92538309,0.02066344,-1.0084946,0.023773402,-0.0046248059,-0.0039916965
34330000000,-0.0036514695,-0.0040099211,-0.92545807,0.02050297,-1.0091224,0.023503885,-0.0046515367,-0.0030402793
34397500000,-0.0035726689,-0.0044945925,-0.92438811,0.022969127,-1.0078154,0.022768021,-0.0046195863,-0.0032254739
34465000000,-0.0034045582,-0.0043184757,-0.92394888,0.023173958,-1.0084833,0.023869395,-0.004795711,-0.0034365293
34532500000,-0.00369723,-0.0045223525,-0.92196167,0.022696167,-1.0083445,0.022702575,-0.0048550093,-0.0031703145
34600000000,-0.0033098231,-0.0046557984,-0.91916525,0.023725837,-1.0080853,0.023613974,-0.0050369152,-0.0035400169
34667500000,-0.0037012883,-0.004366531,-0.91899288,0.02365157,-1.0085533,0.02315557,-0.004704962,-0.0035146885
34735000000,-0.0040555806,-0.0047110114,-0.91825092,0.022244573,-1.0094833,0.022422791,-0.0048906174,-0.0036135269
34802500000,-0.0035710714,-0.0044631897,-0.91679919,0.022755951,-1.008303,0.022847742,-0.0051394254,-0.0036249787
34870000000,-0.0040694699,-0.0044156611,-0.91543001,0.022015899,-1.0085111,0.023374289,-0.0051014293,-0.003629324
34937500000,-0.0041889939,-0.0046017948,-0.91344774,0.020109236,-1.0096798,0.023346454,-0.0053148889,-0.003235308
35005000000,-0.0043930523,-0.0044571375,-0.911919,0.019289091,-1.0088853,0.024427027,-0.0052483133,-0.0036844208
35072500000,-0.004711722,-0.0044719079,-0.91042131,0.016281262,-1.0099157,0.023896649,-0.0051581082,-0.0030435661
35140000000,-0.0046518212,-0.0038511404,-0.90996963,0.014416829,-1.0090697,0.024708122,-0.0055103712,-0.0028665825
35207500000,-0.004601323,-0.003749552,-0.91135395,0.014318362,-1.0105793,0.02515465,-0.005999038,-0.0024375338
35275000000,-0.004596394,-0.0046141515,-0.91153741,0.012595132,-1.0107713,0.024688706,-0.0055559352,-0.0025831142
35342500000,-0.00468296,-0.0039133704,-0.91264921,0.0099214166,-1.0095755,0.025716826,-0.0058337753,-0.0027112386
35410000000,-0.004994995,-0.0038517509,-0.9112761,0.010778934,-1.0116999,0.024977148,-0.0058495365,-0.0026584095
35477500000,-0.0050664046,-0.0032768825,-0.91287029,0.0085392594,-1.0106852,0.026579738,-0.0054751872,-0.0022652615
35545000000,-0.0049337479,-0.0039375401,-0.91353625,0.0081402957,-1.0093335,0.026724905,-0.0054117385,-0.0019152252
35612500000,-0.004596062,-0.0038104537,-0.91549641,0.0066894591,-1.0095114,0.026620507,-0.0054569128,-0.0021070484
35680000000,-0.0050105415,-0.0033256428,-0.91563505,0.0065689683,-1.0092868,0.02678299,-0.0053047761,-0.00159504
35747500000,-0.0048477435,-0.003019416,-0.91572118,0.007140696,-1.0100828,0.02710247,-0.0052869502,-0.00183949
35815000000,-0.0048790807,-0.0030068755,-0.91647029,0.0074046254,-1.0113783,0.026399076,-0.0055673886,-0.0019554598
35882500000,-0.0043471535,-0.0030166088,-0.91691011,0.0073392242,-1.0107131,0.027237549,-0.0055179573,-0.002098396
35950000000,-0.0045316545,-0.0030298666,-0.91769636,0.0080692172,-1.0106347,0.028226614,-0.0056658685,-0.002422893
36017500000,-0.0049204011,-0.0031931049,-0.91754055,0.0093363272,-1.0118886,0.027672503,-0.0051731053,-0.0022802947
36085000000,-0.0049891225,-0.0034598184,-0.91768777,0.0088045597,-1.0112264,0.027270287,-0.0048718154,-0.0022747088
36152500000,-0.0046622017,-0.0033494863,-0.91837198,0.011519372,-1.0118009,0.027887508,-0.005288519,-0.002066283
36220000000,-0.0042857192,-0.0031489064,-0.91809213,0.01204735,-1.0114603,0.027044594,-0.0054475674,-0.0025307389
36287500000,-0.004675616,-0.0034807099,-0.91609406,0.012344655,-1.0116358,0.026400203,-0.0053801802,-0.0025104878
36355000000,-0.0048241019,-0.0035223395,-0.91544139,0.014434993,-1.013216,0.026470929,-0.0053708726,-0.0024332257
36422500000,-0.0048719444,-0.0028759162,-0.91526258,0.013032228,-1.0123944,0.025924683,-0.005674555,-0.0021045215
36490000000,-0.0053677582,-0.0036111334,-0.91313154,0.013359144,-1.0131342,0.027026206,-0.0058782911,-0.002468524
36557500000,-0.0052287802,-0.0036249761,-0.90918428,0.015360773,-1.0135107,0.026841015,-0.0064901719,-0.0023611309
36625000000,-0.0053906627,-0.0036375746,-0.90834504,0.015870266,-1.0128492,0.026230365,-0.0066912784,-0.0016998909
36692500000,-0.0060287779,-0.0035633342,-0.9071666,0.015112519,-1.013764,0.027161241,-0.0068754703,-0.0021302348
36760000000,-0.0065003154,-0.0035011033,-0.90579593,0.014142781,-1.0133915,0.026925355,-0.0073590223,-0.0020833923
36827500000,-0.0064545642,-0.0033097535,-0.90398788,0.013538182,-1.0138251,0.02713865,-0.0076743746,-0.0011181142
36895000000,-0.0069427867,-0.0030951488,-0.90090597,0.011665493,-1.0154864,0.026782781,-0.0075081298,-0.0013133942
36962500000,-0.0068657887,-0.0026253718,-0.89890575,0.010448247,-1.0151193,0.026737958,-0.00832392,-0.00073080859
37030000000,-0.0072339252,-0.0026262135,-0.89594096,0.007725507,-1.0146207,0.02665174,-0.0082240533,-0.00023497385
37097500000,-0.0078030331,-0.0018800383,-0.89614296,0.0049136579,-1.0147022,0.027841806,-0.0083081163,0.00018458255
37165000000,-0.0078720758,-0.0015168099,-0.89164019,0.001362741,-1.0135394,0.027630776,-0.0089073163,0.0010975334
37232500000,-0.0081009762,-0.0013116668,-0.88975781,-0.00056496263,-1.0151899,0.028537214,-0.008736575,0.0014600654
37300000000,-0.0083305864,-0.00052090967,-0.89079052,-0.0050434768,-1.0154026,0.029560775,-0.0083193537,0.002505867
37367500000,-0.0084963385,0.00016509229,-0.88890302,-0.0093139112,-1.015079,0.029666394,-0.008818551,0.0029061078
37435000000,-0.0080185318,0.00064642879,-0.89053285,-0.012561135,-1.0155323,0.030684069,-0.007869659,0.0037241105
37502500000,-0.0078473967,0.0013805539,-0.89270741,-0.018494099,-1.0154042,0.0299972,-0.0073432778,0.0041090348
37570000000,-0.0079601817,0.0020535148,-0.89282763,-0.023784801,-1.0144995,0.03120254,-0.006973498,0.0053001456
37637500000,-0.0075826594,0.003509243,-0.89728773,-0.028854236,-1.0153716,0.031098247,-0.0063629779,0.0055356552
37705000000,-0.0068407711,0.0037291516,-0.90166432,-0.033539101,-1.0151117,0.032200992,-0.0053413222,0.0066040466
37772500000,-0.0068129599,0.0049125543,-0.90344095,-0.040260017,-1.0142555,0.032591164,-0.004595086,0.0069626062
37840000000,-0.0059817969,0.0052066017,-0.90642846,-0.043238968,-1.0141113,0.033317864,-0.0038683647,0.0069516236
37907500000,-0.0055231266,0.0057995548,-0.91064191,-0.043815985,-1.0129558,0.033761665,-0.0025939615,0.0070612691
37975000000,-0.0045482838,0.0061008111,-0.91735148,-0.044792056,-1.0135422,0.034977615,-0.001819283,0.0074608135
38042500000,-0.0032895824,0.0064699892,-0.92327523,-0.044720858,-1.0134861,0.03419137,-0.00075991428,0.0068429708
