!CSV A.01.01
!Keysight Technologies,N5247B,US56070639,A.17.30.08
!Date: Wednesday, July 22, 2026 10:52:20
!Source: Standard

BEGIN CH1_DATA
Freq(Hz),S21(REAL),S21(IMAG),S11(REAL),S11(IMAG),S22(REAL),S22(IMAG),S12(REAL),S12(IMAG)
26500000000,-0.0010825908,-0.0056709647,-1.0086178,0.018122435,-0.99686873,0.025194943,-0.0014345946,-0.0059649544
26567500000,-0.0011244696,-0.0056876703,-1.0068521,0.016410857,-0.99690437,0.025684714,-0.0012124421,-0.0056631607
26635000000,-0.0012846908,-0.0058261212,-1.0060948,0.017546028,-0.99520415,0.024737388,-0.0013318358,-0.0060078502
26702500000,-0.0012779222,-0.0058300691,-1.0070357,0.018229991,-0.9961105,0.026031166,-0.0011851676,-0.0061814231
26770000000,-0.0011588654,-0.0057962434,-1.0063103,0.016861685,-0.99605525,0.02398596,-0.0012985428,-0.006267888
26837500000,-0.0012018308,-0.0057121492,-1.0059136,0.017789125,-0.99369562,0.025375932,-0.0014366935,-0.0060220868
26905000000,-0.00082323782,-0.0059269071,-1.0083817,0.017599776,-0.99508369,0.025648504,-0.0011722748,-0.0061120247
26972500000,-0.0011217024,-0.0059465771,-1.00606,0.017222404,-0.99513453,0.024493694,-0.001234374,-0.0060375133
27040000000,-0.0011094091,-0.0056892182,-1.0070784,0.018367872,-0.99250597,0.024654284,-0.0016881162,-0.0063429675
27107500000,-0.001242873,-0.0057313046,-1.0075307,0.017600328,-0.99465525,0.025388598,-0.0013164254,-0.0063877604
27175000000,-0.00095132017,-0.0058581261,-1.0048023,0.017088532,-0.99321663,0.023213834,-0.0013965808,-0.0061710677
27242500000,-0.0010877084,-0.0058879419,-1.0050714,0.0188573,-0.99309188,0.024853081,-0.001207985,-0.0060696746
27310000000,-0.00098619889,-0.0062305788,-1.0062387,0.01732707,-0.99370712,0.025551662,-0.0011455722,-0.0063335793
27377500000,-0.00096108974,-0.0061243474,-1.0048074,0.018322036,-0.99196893,0.024004236,-0.0013899637,-0.0064979224
27445000000,-0.00068455935,-0.0063183056,-1.0056485,0.018419236,-0.99164301,0.025057971,-0.0013550734,-0.00637533
27512500000,-0.0010309732,-0.0061719916,-1.0061299,0.017446935,-0.9938218,0.023860365,-0.0013146787,-0.0062049357
27580000000,-0.0010278386,-0.0064388141,-1.0035397,0.018351853,-0.99085283,0.023911357,-0.0011323986,-0.0063413349
27647500000,-0.00069914933,-0.0061842958,-1.0055813,0.018209666,-0.99170059,0.024841875,-0.0012026222,-0.0068534124
27715000000,-0.001429214,-0.0063859322,-1.0054194,0.018180013,-0.99246043,0.024283737,-0.0014274231,-0.0062281187
27782500000,-0.00096179429,-0.0063443333,-1.0050657,0.018528461,-0.99010336,0.024009913,-0.0013736999,-0.006696166
27850000000,-0.0013013285,-0.0067480779,-1.0055349,0.018778473,-0.99135619,0.025798738,-0.0013190126,-0.0066249138
27917500000,-0.0012682023,-0.006816654,-1.0049788,0.018249512,-0.99153209,0.023405731,-0.001309882,-0.0069614444
27985000000,-0.0012509995,-0.0061902311,-1.0042319,0.019532621,-0.99005079,0.023809224,-0.001631984,-0.0066374093
28052500000,-0.0010928905,-0.0066081015,-1.0060213,0.017965168,-0.99040949,0.024010807,-0.0014878372,-0.0065268148
28120000000,-0.0016186459,-0.0065474124,-1.0048944,0.018725663,-0.99055779,0.023463279,-0.00160534,-0.0063836295
28187500000,-0.0012227013,-0.0066798143,-1.0038854,0.019634098,-0.98908252,0.024481162,-0.0015441375,-0.0065989182
28255000000,-0.0018380984,-0.0063635977,-1.0046563,0.019281626,-0.99061173,0.02399537,-0.0017107807,-0.0067179329
28322500000,-0.0015610068,-0.0063739666,-1.0045543,0.019295156,-0.99014676,0.023562372,-0.0014193425,-0.0064222473
28390000000,-0.0015749172,-0.0061189858,-1.0052795,0.020038033,-0.98856884,0.024372671,-0.0016440117,-0.006494808
28457500000,-0.0015322847,-0.0060089142,-1.0046308,0.019772857,-0.98943901,0.024498075,-0.001068705,-0.0064114723
28525000000,-0.0015518477,-0.0062359609,-1.0046978,0.019868851,-0.99004054,0.024606496,-0.0012463154,-0.0065397569
28592500000,-0.0010952337,-0.0062546805,-1.003356,0.019858062,-0.98928726,0.02426368,-0.0011809245,-0.0065870192
28660000000,-0.0011738369,-0.0065942435,-1.0045165,0.019622326,-0.99001253,0.023926109,-0.0013418025,-0.0070557701
28727500000,-0.0012887885,-0.0064125005,-1.0042524,0.020280696,-0.98942828,0.024159178,-0.0011154702,-0.0065453025
28795000000,-0.0010424049,-0.0067823129,-1.0046462,0.019092321,-0.98908734,0.024981916,-0.0013332717,-0.0066687246
28862500000,-0.00064253155,-0.0063857324,-1.0053295,0.019784808,-0.98944098,0.024677277,-0.0011426792,-0.0064603277
28930000000,-0.00088383467,-0.0064945873,-1.0047038,0.019355208,-0.98927951,0.023779124,-0.001227533,-0.0067978036
28997500000,-0.0010175637,-0.0065658744,-1.0050445,0.020276457,-0.988949,0.024058752,-0.0012819888,-0.0067294263
29065000000,-0.0011482526,-0.0069362917,-1.0047604,0.020080023,-0.99015552,0.024919648,-0.0011199646,-0.0068891072
29132500000,-0.0013002187,-0.0070744883,-1.0050557,0.019367725,-0.98957986,0.024092615,-0.0011876812,-0.006992938
29200000000,-0.0013172287,-0.0071784598,-1.0049863,0.01935786,-0.9883709,0.024244249,-0.0011872321,-0.007222618
29267500000,-0.001277967,-0.0070318682,-1.0059229,0.019357093,-0.98939562,0.024419576,-0.00134964,-0.0073249554
29335000000,-0.0010494969,-0.0072804261,-1.0046083,0.019299343,-0.98884666,0.023482174,-0.001355272,-0.0071102483
29402500000,-0.0012030498,-0.0073521985,-1.0038704,0.020295769,-0.98971707,0.024174765,-0.0012307523,-0.0073256134
29470000000,-0.0010645234,-0.0073406678,-1.0057007,0.020469829,-0.99076623,0.023499675,-0.0012044964,-0.0074789845
29537500000,-0.0016796788,-0.0076736188,-1.00494,0.019039437,-0.98939848,0.022494525,-0.00141096,-0.0075557632
29605000000,-0.0013081708,-0.0077622025,-1.004415,0.020181537,-0.98967344,0.024040133,-0.0015355058,-0.0073367329
29672500000,-0.0014632805,-0.0076004383,-1.0067775,0.01949954,-0.99092156,0.023130983,-0.0013672865,-0.0073516713
29740000000,-0.0014887718,-0.0071134847,-1.0054858,0.02008906,-0.98915434,0.022909194,-0.0015758839,-0.0073750746
29807500000,-0.0017638425,-0.0073045692,-1.0050297,0.020309478,-0.98989713,0.023408294,-0.0019753217,-0.0076896804
29875000000,-0.001579406,-0.0071383798,-1.0059226,0.019962519,-0.99159998,0.022070587,-0.0020340381,-0.0072909389
29942500000,-0.0013695064,-0.0074753584,-1.0041946,0.019492537,-0.99006444,0.02210214,-0.0016037255,-0.007254154
30010000000,-0.0018951076,-0.007434899,-1.0047908,0.020998061,-0.99100029,0.023984104,-0.0015632533,-0.0070712129
30077500000,-0.0021387246,-0.0073193749,-1.006175,0.020729154,-0.99086255,0.022039503,-0.0016722989,-0.0071065733
30145000000,-0.0021170094,-0.007490505,-1.0049361,0.019846454,-0.98890263,0.022553816,-0.0016561315,-0.0071683107
30212500000,-0.0017770706,-0.0075275176,-1.0055742,0.020892292,-0.99145949,0.022329003,-0.0015960312,-0.0070843939
30280000000,-0.0018782758,-0.0071597439,-1.0054477,0.019916415,-0.99084246,0.022408813,-0.00163248,-0.0072748214
30347500000,-0.0015666659,-0.0074228682,-1.0039374,0.020624131,-0.98964429,0.022209615,-0.0015572133,-0.007380995
30415000000,-0.0020415089,-0.0073627285,-1.0054498,0.021235734,-0.99152142,0.024009973,-0.0015029055,-0.0070384769
30482500000,-0.0017978733,-0.0078567425,-1.0058175,0.020159915,-0.99061078,0.022390231,-0.0015769366,-0.0074123149
30550000000,-0.0020090819,-0.007513355,-1.0045519,0.021397173,-0.98969257,0.024047524,-0.0011481768,-0.007411967
30617500000,-0.0016747642,-0.007742269,-1.0053658,0.021290138,-0.99112844,0.023429424,-0.0010628885,-0.007588008
30685000000,-0.001404245,-0.0074001453,-1.0049855,0.020700112,-0.98941076,0.022512838,-0.00085098913,-0.0078946678
30752500000,-0.0015051431,-0.0080599431,-1.0038799,0.022061557,-0.98881966,0.023706973,-0.0011572571,-0.0076413155
30820000000,-0.0015943125,-0.0082370993,-1.0042105,0.020339161,-0.99091476,0.023524463,-0.0011565625,-0.0081106182
30887500000,-0.0020424104,-0.0079273079,-1.0035613,0.021559298,-0.98895204,0.023094416,-0.0011284507,-0.0078734513
30955000000,-0.0020839551,-0.0080627855,-1.0050446,0.021960109,-0.98970914,0.025041372,-0.0010457977,-0.0083722528
31022500000,-0.0020361948,-0.0077725071,-1.0054947,0.021644473,-0.99005878,0.024114162,-0.001536008,-0.0085916482
31090000000,-0.0019294578,-0.0085669393,-1.0042497,0.021828085,-0.98914015,0.023185283,-0.0011744001,-0.0083298367
31157500000,-0.0020540105,-0.0082701202,-1.0050001,0.022835284,-0.98824543,0.02447325,-0.0014497095,-0.0085219191
31225000000,-0.0026704653,-0.0078509692,-1.0053033,0.021728545,-0.98843485,0.02384913,-0.001980847,-0.008890314
31292500000,-0.0023196486,-0.008031033,-1.003965,0.02159664,-0.98771298,0.02398333,-0.0016313486,-0.0086870566
31360000000,-0.0026622284,-0.0089612715,-1.0037909,0.022893757,-0.98885095,0.023031682,-0.0020170512,-0.009043131
31427500000,-0.0026182854,-0.0083153071,-1.0037665,0.022125475,-0.98809522,0.024670452,-0.0022599827,-0.0084134415
31495000000,-0.0026204376,-0.0083625158,-1.0038412,0.022691697,-0.988747,0.023649395,-0.0025284069,-0.0090023456
31562500000,-0.0026509035,-0.0080133313,-1.0049058,0.02360788,-0.9890129,0.023067936,-0.0028142319,-0.008613077
31630000000,-0.0031476049,-0.0080869505,-1.0049694,0.021987289,-0.98714709,0.023620009,-0.0023404665,-0.0087480666
31697500000,-0.0028858543,-0.0085468888,-1.0053474,0.0225797,-0.9876135,0.023607463,-0.0024413585,-0.0083184112
31765000000,-0.0032591401,-0.0077197687,-1.0038779,0.022810787,-0.98869187,0.023517072,-0.0027788118,-0.0080147972
31832500000,-0.002601889,-0.0078883953,-1.003144,0.022737861,-0.98898566,0.02338326,-0.0023848373,-0.008601455
31900000000,-0.0029461877,-0.0079292264,-1.0030694,0.02342879,-0.98830509,0.023363046,-0.0029712785,-0.0083464496
31967500000,-0.0031352155,-0.0079126619,-1.0040803,0.023131639,-0.98993492,0.023815081,-0.0027630366,-0.008639235
32035000000,-0.0032062854,-0.0078163091,-1.0035076,0.023022175,-0.98910594,0.02451238,-0.0026348485,-0.0081880335
32102500000,-0.0028720549,-0.0079643894,-1.0034276,0.023493692,-0.98884279,0.024581037,-0.0023296988,-0.0076878415
32170000000,-0.0025567019,-0.007998189,-1.0032523,0.02302292,-0.98834103,0.024066836,-0.0022879685,-0.0080745891
32237500000,-0.0029107635,-0.0076611349,-1.003738,0.022761762,-0.98924577,0.024179727,-0.0023957833,-0.0083025852
32305000000,-0.0026375451,-0.0078761382,-1.003491,0.022478759,-0.98826051,0.024858505,-0.0021098845,-0.0081793759
32372500000,-0.0024953417,-0.0080088489,-1.0028731,0.022675157,-0.9886409,0.025153369,-0.002542702,-0.0085260905
32440000000,-0.0028748547,-0.0078903232,-1.0033704,0.02313897,-0.98829603,0.024761945,-0.0023436991,-0.008652553
32507500000,-0.0029442876,-0.0082859518,-1.0015345,0.022564692,-0.98828608,0.024659155,-0.0020463159,-0.0087850736
32575000000,-0.0028363094,-0.0081381779,-1.0022734,0.023067534,-0.98763394,0.024767309,-0.0026061353,-0.0091182394
32642500000,-0.0025805514,-0.0077160778,-1.0033399,0.023555204,-0.98712945,0.024122253,-0.0023630646,-0.0089293923
32710000000,-0.0029366175,-0.0082780905,-1.0033081,0.021783739,-0.98725802,0.024379104,-0.0023817122,-0.0094088204
32777500000,-0.0028294842,-0.0084776822,-1.0021056,0.022013128,-0.98814243,0.024669588,-0.0024032039,-0.0090496866
32845000000,-0.0029455479,-0.0080595762,-1.0022473,0.022042364,-0.98679078,0.024127185,-0.0027176812,-0.0091112191
32912500000,-0.0030974867,-0.00804858,-1.0024031,0.022294462,-0.98645651,0.024001002,-0.002924352,-0.0089110043
32980000000,-0.0033854123,-0.0081800986,-1.0032651,0.022491753,-0.9873594,0.023632795,-0.0026187184,-0.0096010501
33047500000,-0.0028315072,-0.0084264996,-1.003306,0.021662474,-0.98664695,0.022322893,-0.0033603851,-0.0094336737
33115000000,-0.0032983497,-0.0081969658,-1.0018123,0.021851152,-0.98727453,0.022465512,-0.003338547,-0.0094128232
33182500000,-0.0034110383,-0.0080725262,-1.0026795,0.022583991,-0.98744249,0.021778315,-0.0035866986,-0.0095065096
33250000000,-0.0034097682,-0.0081450306,-1.0021563,0.021820366,-0.986552,0.02250798,-0.0038840065,-0.009050753
33317500000,-0.0035875079,-0.0081488863,-1.001626,0.022138447,-0.9871453,0.022603124,-0.0048573166,-0.0088015022
33385000000,-0.0037518775,-0.0081347432,-1.0033745,0.023053765,-0.98747647,0.021479815,-0.0044850563,-0.0093943756
33452500000,-0.0036157419,-0.0082081035,-1.0025454,0.022473603,-0.98645216,0.021368802,-0.0048041195,-0.0086168936
33520000000,-0.004044319,-0.0078652818,-1.0021303,0.022875845,-0.98854613,0.0214625,-0.0043930477,-0.008787089
33587500000,-0.0041616322,-0.0074636056,-1.0027261,0.022851855,-0.98919296,0.020221919,-0.0049314159,-0.0088735754
33655000000,-0.0038792379,-0.0080753686,-1.0025556,0.022488385,-0.98760206,0.0211761,-0.0047955727,-0.0083697587
33722500000,-0.004070919,-0.007802349,-1.0027175,0.02303341,-0.98910558,0.021726847,-0.0047126058,-0.0081348447
33790000000,-0.004331605,-0.0076063476,-1.002727,0.023341179,-0.98939466,0.021172762,-0.0052730925,-0.0082754008
33857500000,-0.0040083881,-0.0076236152,-1.0024488,0.022936732,-0.98885304,0.02159068,-0.0050880606,-0.0077275056
33925000000,-0.004039614,-0.0074282256,-1.003002,0.023706198,-0.98970193,0.021996796,-0.004546274,-0.0075885374
33992500000,-0.0038842629,-0.0069979168,-1.003031,0.022904336,-0.98860788,0.021251827,-0.0050830748,-0.0079636583
34060000000,-0.0042835884,-0.0076403106,-1.0029876,0.023992121,-0.98975015,0.022476315,-0.0049814605,-0.0077430964
34127500000,-0.0044966405,-0.0068993592,-1.0030532,0.023387603,-0.99021482,0.022475407,-0.0048771128,-0.0072284457
34195000000,-0.0039156405,-0.0070577464,-1.003351,0.023467332,-0.98873019,0.022366077,-0.004981922,-0.0078768078
34262500000,-0.0041957125,-0.0075797574,-1.0016117,0.024077564,-0.98904324,0.024267703,-0.0048624375,-0.0073551298
34330000000,-0.0040122294,-0.0073513612,-1.0032837,0.023971647,-0.98948312,0.023654699,-0.0040644542,-0.0074259182
34397500000,-0.0042200442,-0.0072964928,-1.0035952,0.024528831,-0.98807913,0.023510575,-0.0041972222,-0.0074290889
34465000000,-0.0040775696,-0.0069494359,-1.003875,0.024461955,-0.98905689,0.024415106,-0.0042445329,-0.0075032301
34532500000,-0.0043488564,-0.0076270504,-1.0033242,0.023990735,-0.98893934,0.023168579,-0.003718311,-0.0074424734
34600000000,-0.0040173326,-0.0074883094,-1.0037923,0.02397874,-0.98772186,0.024655759,-0.0043182075,-0.0080689937
34667500000,-0.0041225227,-0.007523369,-1.0028155,0.024670362,-0.98851699,0.024474531,-0.0043894364,-0.0072491369
34735000000,-0.0048673227,-0.0071707456,-1.0037558,0.023300737,-0.98945463,0.023469955,-0.0044522653,-0.0076027075
34802500000,-0.0047774129,-0.0072827963,-1.0040255,0.024975598,-0.98788768,0.024658382,-0.0049730306,-0.0079625985
34870000000,-0.0046998095,-0.0071692108,-1.0040607,0.023852676,-0.98799384,0.024395227,-0.0043866024,-0.0078480234
34937500000,-0.0047469824,-0.0073967082,-1.004118,0.023993492,-0.98848301,0.023911417,-0.0050655119,-0.0078548761
35005000000,-0.0050822664,-0.0075265905,-1.0038197,0.024573531,-0.98905402,0.024817569,-0.004850633,-0.0079048406
35072500000,-0.0052518053,-0.007334081,-1.0059286,0.023708194,-0.98848248,0.023922324,-0.0057432218,-0.0078328112
35140000000,-0.0056100427,-0.0075262794,-1.0043423,0.023456082,-0.9863677,0.023177445,-0.0056951866,-0.0074062236
35207500000,-0.0051588081,-0.0071902666,-1.0053749,0.024040064,-0.9900223,0.024336578,-0.0057209963,-0.0073929285
35275000000,-0.0054767244,-0.0073208129,-1.0051463,0.024419088,-0.98877895,0.022232465,-0.0053814352,-0.0070356182
35342500000,-0.0059871823,-0.0070069428,-1.0042886,0.023750883,-0.98696905,0.023831878,-0.0053356197,-0.0071199993
35410000000,-0.0061543006,-0.0068015037,-1.0039281,0.025565833,-0.98892617,0.023585692,-0.0060768076,-0.0065311929
35477500000,-0.0059960694,-0.0068959068,-1.0051018,0.024802923,-0.98942995,0.022936702,-0.0059301076,-0.0063627018
35545000000,-0.0064582927,-0.0062570516,-1.0036883,0.024501324,-0.98892403,0.022258699,-0.0054991147,-0.0062408568
35612500000,-0.0059012035,-0.0063839899,-1.0067501,0.025446355,-0.98909885,0.024125844,-0.0060333037,-0.0059545143
35680000000,-0.0061120638,-0.00568484,-1.0051377,0.024300754,-0.98915952,0.023560554,-0.0052020028,-0.0056711808
35747500000,-0.0060009174,-0.0059119118,-1.002861,0.024953187,-0.98932409,0.023713619,-0.0054922123,-0.0059136194
35815000000,-0.0061013396,-0.0056325221,-1.0039594,0.025941908,-0.99057525,0.023541927,-0.005283202,-0.0057639629
35882500000,-0.0059607378,-0.005683512,-1.0038456,0.024855884,-0.98958248,0.023760241,-0.0050732056,-0.0058089141
35950000000,-0.0059419386,-0.0058208629,-1.0032715,0.025724798,-0.98996484,0.024103135,-0.0052975854,-0.0054233959
36017500000,-0.0055345325,-0.0052602878,-1.0035628,0.02572085,-0.99082398,0.023419663,-0.0048831343,-0.0060023041
36085000000,-0.0055981432,-0.0051485379,-1.0043213,0.025157005,-0.98991454,0.023669958,-0.0050595477,-0.0056080408
36152500000,-0.0054310462,-0.0049848426,-1.0047492,0.025708973,-0.98991758,0.024526715,-0.0051112324,-0.0054584099
36220000000,-0.0054330938,-0.005036396,-1.0040277,0.024657011,-0.99024534,0.023034751,-0.0051607061,-0.0056057377
36287500000,-0.0050836531,-0.004692412,-1.0013171,0.024776116,-0.99043906,0.023728356,-0.004720869,-0.0054019089
36355000000,-0.0051502008,-0.0046526184,-1.0024605,0.02668421,-0.99098736,0.024173811,-0.0045865877,-0.006083562
36422500000,-0.0053018886,-0.0048900247,-1.0052211,0.026243418,-0.98959744,0.02356863,-0.0050313189,-0.0054451898
36490000000,-0.0051641292,-0.0051924228,-1.0037358,0.024426229,-0.99094528,0.024249144,-0.0046025212,-0.0059006731
36557500000,-0.0051824208,-0.0054263151,-1.0027001,0.025165737,-0.99026567,0.023405284,-0.0045216316,-0.0060622911
36625000000,-0.0049834298,-0.0048015444,-1.0008677,0.025406033,-0.98866791,0.022866458,-0.004927977,-0.0053343838
36692500000,-0.0050810883,-0.0046479055,-1.0024842,0.025721461,-0.98981977,0.024256378,-0.004943578,-0.0058295764
36760000000,-0.005354031,-0.004565069,-1.0056231,0.02584967,-0.98939699,0.023427784,-0.0052737659,-0.0055523547
36827500000,-0.0049583693,-0.0048884656,-1.0045033,0.024392128,-0.98939025,0.023597404,-0.0053017708,-0.0056813997
36895000000,-0.0047760974,-0.0049562748,-1.0020169,0.025261015,-0.99089336,0.023273319,-0.0050980998,-0.0058024628
36962500000,-0.0050598281,-0.0047035636,-1.0033828,0.02503179,-0.99034846,0.022698432,-0.005006629,-0.005746929
37030000000,-0.004990608,-0.0043492788,-1.0032039,0.024730802,-0.98917937,0.022741944,-0.0048894137,-0.0055073048
37097500000,-0.0053232624,-0.0045021977,-1.0039637,0.025241315,-0.9899742,0.02282241,-0.0053811185,-0.0054968842
37165000000,-0.0053441306,-0.0042929663,-1.0020502,0.024122596,-0.98831379,0.022355407,-0.0054628933,-0.0052621691
37232500000,-0.0051980261,-0.0046461457,-1.0019126,0.025789589,-0.98946607,0.02241236,-0.0051424373,-0.0046803071
37300000000,-0.0051836842,-0.0042618108,-1.0051093,0.026503205,-0.99077272,0.02270025,-0.0048780101,-0.0048150322
37367500000,-0.004960476,-0.0044662296,-1.005847,0.025395691,-0.98995149,0.022305548,-0.0056777266,-0.004836991
37435000000,-0.0052233357,-0.0044125644,-1.0045031,0.024715573,-0.99082124,0.02326306,-0.0058041597,-0.0043145297
37502500000,-0.004927285,-0.0039933799,-1.0037223,0.024766952,-0.99106753,0.022103906,-0.0056135729,-0.0049172803
37570000000,-0.0050941329,-0.0038000788,-1.0036211,0.025775621,-0.99029464,0.022633918,-0.0055232435,-0.0043740817
37637500000,-0.0047260537,-0.0035150764,-1.0048411,0.026224889,-0.99168676,0.022450298,-0.0051833461,-0.0036635147
37705000000,-0.0042265346,-0.0031868848,-1.0063187,0.026110023,-0.99231809,0.022126704,-0.0051883007,-0.0042261807
37772500000,-0.0047831903,-0.0033119991,-1.0070975,0.027041137,-0.99220085,0.02250129,-0.0055376682,-0.0037340308
37840000000,-0.0047717658,-0.0034283285,-1.0071929,0.025740823,-0.99234527,0.023122754,-0.0050833975,-0.0034145045
37907500000,-0.004099573,-0.0038122442,-1.0046967,0.025002424,-0.99260521,0.023348387,-0.0048039658,-0.0037939984
37975000000,-0.0047957045,-0.0031084283,-1.0035906,0.026077032,-0.99408251,0.024578661,-0.004504371,-0.0035582075
38042500000,-0.0038597314,-0.0032169004,-1.0031564,0.027111977,-0.99424934,0.023177534,-0.004649254,-0.0029549426
38110000000,-0.0036203074,-0.0025639057,-1.0049729,0.026328862,-0.99336207,0.02446577,-0.0045158411,-0.0033373053
