!CSV A.01.01
!Keysight Technologies,N5247B,US56070639,A.17.30.08
!Date: Wednesday, July 22, 2026 10:54:48
!Source: Standard

BEGIN CH1_DATA
Freq(Hz),S21(REAL),S21(IMAG),S11(REAL),S11(IMAG),S22(REAL),S22(IMAG),S12(REAL),S12(IMAG)
26500000000,-0.00027064467,-0.0097516691,-1.0020052,0.013853282,-0.99152142,0.023710072,-0.00088162627,-0.010385508
26567500000,-0.00056864414,-0.0096206516,-1.0004826,0.011998326,-0.99132884,0.024107128,-0.00095745688,-0.010116471
26635000000,-0.00057860371,-0.0096274298,-0.99977016,0.012877554,-0.98948801,0.023108572,-0.00078133587,-0.010542801
26702500000,-0.00043156883,-0.0098923361,-1.0011119,0.013336867,-0.99066496,0.024732649,-0.00040197745,-0.01031631
26770000000,-0.00023497897,-0.010395917,-1.000725,0.012181759,-0.99155909,0.022591777,-0.0004900418,-0.010666152
26837500000,-0.00040594256,-0.0097544054,-0.99969178,0.013641313,-0.98936135,0.023931831,-0.001116063,-0.0099330759
26905000000,-0.00063394825,-0.010028787,-1.0018369,0.013232559,-0.99063021,0.02363874,-0.00077425595,-0.010300691
26972500000,-0.00063783675,-0.0098299794,-1.0002444,0.012972474,-0.99124253,0.022473544,-8.8279136e-005,-0.010530716
27040000000,-0.00033144816,-0.010248818,-1.0008783,0.014558069,-0.98933178,0.023208916,-0.00050464505,-0.010284285
27107500000,-0.0001066085,-0.0097873472,-1.0015229,0.013316661,-0.99168533,0.023588151,-0.00083639752,-0.010376551
27175000000,-8.0983154e-006,-0.010004297,-0.99902344,0.013146877,-0.98991841,0.021512672,-0.00066846772,-0.010287379
27242500000,-1.7941929e-006,-0.010002403,-0.99876976,0.014684349,-0.98979157,0.023241013,-0.00013672514,-0.010426513
27310000000,7.5902673e-005,-0.01007229,-1.0000074,0.013275027,-0.99031919,0.023531184,-0.00040809647,-0.010926283
27377500000,0.00072124065,-0.010095354,-0.99898332,0.013778597,-0.98932242,0.021606386,-0.00037687272,-0.010948028
27445000000,0.00021790667,-0.010242553,-1.0000995,0.014607608,-0.9891082,0.022818208,-0.00037676794,-0.010519682
27512500000,0.0001519029,-0.010459803,-1.0001009,0.01329276,-0.99058986,0.021806121,-0.00056195073,-0.010688661
27580000000,0.0003122054,-0.010176796,-0.99752593,0.014567643,-0.98793972,0.022103757,0.00012631482,-0.010728202
27647500000,5.0051836e-005,-0.010852618,-0.99943453,0.014539689,-0.98856485,0.023582011,-4.909141e-005,-0.011271137
27715000000,0.000305088,-0.010723267,-0.99935466,0.01393041,-0.99009639,0.022064924,-0.00037539727,-0.010869022
27782500000,0.00031205593,-0.011124022,-0.99929595,0.014377326,-0.98824358,0.021872669,0.00016607298,-0.011219808
27850000000,-3.1543896e-005,-0.011630913,-0.99968231,0.01438117,-0.98935235,0.023150504,-3.4245662e-005,-0.011200966
27917500000,0.00012466335,-0.011574366,-0.99848479,0.013820857,-0.98894644,0.020986408,0.00039974856,-0.01169876
27985000000,0.00012134993,-0.010832835,-0.9985826,0.015289783,-0.98796755,0.021872282,-9.7202603e-005,-0.011639002
28052500000,-0.00038400851,-0.011122122,-0.99958754,0.014223605,-0.98925716,0.021593273,-0.00055292156,-0.01106653
28120000000,-0.00022210507,-0.011176034,-0.99891204,0.014146119,-0.98917365,0.020884871,-0.00053645205,-0.011049708
28187500000,-5.2597374e-005,-0.011277031,-0.99817836,0.014972076,-0.98836255,0.022051677,-0.00049325463,-0.011316335
28255000000,-0.00058844918,-0.011324059,-0.99938631,0.01556778,-0.98878896,0.021890193,-0.00039738137,-0.011166752
28322500000,-0.00028618565,-0.010988857,-0.99846452,0.015250951,-0.98824728,0.020833343,-0.00025071087,-0.011283014
28390000000,-0.0002463354,-0.010937266,-0.99960017,0.015578095,-0.9873507,0.022695985,-0.00038554519,-0.01103107
28457500000,-0.00065605389,-0.011043591,-0.99919152,0.015292078,-0.98870224,0.02219528,-0.00014264625,-0.010848586
28525000000,-0.00038228231,-0.011094201,-0.99881935,0.015785247,-0.98888379,0.022357523,-0.00030017039,-0.011185091
28592500000,0.00022244453,-0.0109269,-0.99757922,0.016185284,-0.98728132,0.022321612,4.9026217e-005,-0.011146915
28660000000,0.00023599248,-0.011046924,-0.9986124,0.016451448,-0.98852885,0.022379577,-0.00015838491,-0.011498418
28727500000,0.00027196563,-0.011032329,-0.99847424,0.016346537,-0.98781252,0.022332497,0.00019781175,-0.010788685
28795000000,0.00032802694,-0.010878085,-0.99873734,0.015135631,-0.98759568,0.022544593,0.00033550872,-0.011391433
28862500000,0.00013943994,-0.01086628,-0.9991132,0.015818685,-0.98756331,0.022595525,0.00028843805,-0.011783097
28930000000,0.00041661714,-0.011288058,-0.99839431,0.016152322,-0.98765552,0.02155757,0.0003711055,-0.011795511
28997500000,0.00080832193,-0.011364947,-0.99789268,0.016498841,-0.98750407,0.022310682,0.00011525134,-0.011576825
29065000000,0.00036373234,-0.011840228,-0.99839127,0.016123049,-0.98891193,0.022770226,0.00056583411,-0.011484386
29132500000,0.00071685808,-0.012122655,-0.99883235,0.015571058,-0.98772275,0.02150172,0.00035714218,-0.011693353
29200000000,0.00034407293,-0.012089935,-0.99795687,0.015432417,-0.98679191,0.021813333,0.00029863464,-0.012139853
29267500000,0.00044591352,-0.01201548,-0.99937719,0.015634879,-0.9889158,0.02202975,0.00019324396,-0.012380089
29335000000,0.00018843124,-0.01225979,-0.99794573,0.0155496,-0.98787558,0.020923406,0.00024358323,-0.011994258
29402500000,0.00031872885,-0.012670495,-0.99732125,0.016085103,-0.98848993,0.021098897,5.8495672e-005,-0.01229772
29470000000,0.00043137395,-0.012720347,-0.99888813,0.01651831,-0.98927385,0.020837829,0.00061079196,-0.012763353
29537500000,-4.373258e-005,-0.012430013,-0.99776798,0.014832497,-0.98794717,0.019676372,-0.00021285494,-0.012929665
29605000000,0.00010326551,-0.012724675,-0.99715555,0.015827775,-0.98866224,0.02116245,-0.00024407124,-0.01237739
29672500000,-6.5669883e-005,-0.01276714,-0.99980855,0.015419096,-0.98981047,0.019669741,-0.00030568149,-0.012656182
29740000000,-0.00035246741,-0.012789967,-0.99821675,0.015824318,-0.98782116,0.019587249,-0.00030553015,-0.01224285
29807500000,-0.00018555718,-0.012593834,-0.99809206,0.016561031,-0.98917377,0.0202806,-0.00025543198,-0.012865883
29875000000,-0.00020040851,-0.013389697,-0.99950421,0.015951931,-0.99099302,0.018874884,-0.0012146072,-0.012796714
29942500000,-0.00027164863,-0.01276804,-0.99729073,0.015402824,-0.98919678,0.01897531,-0.00031564332,-0.012316506
30010000000,-0.00070316764,-0.01321494,-0.99810773,0.016699046,-0.99034619,0.020503074,-0.0005473881,-0.011912376
30077500000,-0.00082563097,-0.012865028,-0.99943787,0.016212314,-0.99036819,0.018281281,-0.00042945705,-0.012393343
30145000000,-0.00058207661,-0.012517258,-0.99886858,0.01577197,-0.98859364,0.019305453,-0.00040491787,-0.012421426
30212500000,-0.00083576189,-0.01284868,-0.99906659,0.017053694,-0.99134386,0.018817216,-0.00054009678,-0.012309861
30280000000,-0.00056451652,-0.012585851,-0.99869549,0.015993744,-0.99042499,0.019321501,0.00010059681,-0.012239316
30347500000,-0.00036785752,-0.012898077,-0.99701291,0.016957194,-0.98939675,0.018791825,-0.00030155899,-0.012043933
30415000000,-0.001053765,-0.012390694,-0.99800617,0.017705709,-0.99132144,0.02040261,-0.00030422327,-0.012211733
30482500000,-0.00071751676,-0.012814244,-0.99854481,0.016689941,-0.99009246,0.019050494,-0.0005516191,-0.012220759
30550000000,-0.00078746397,-0.012645354,-0.9978134,0.017101556,-0.98915982,0.020851821,4.5872293e-005,-0.012658447
30617500000,-0.00077381893,-0.012813297,-0.99848193,0.018003374,-0.9903813,0.019611463,7.8249956e-005,-0.012408247
30685000000,-0.00034671393,-0.013088561,-0.99807221,0.017046347,-0.98852307,0.018782198,0.00070336415,-0.012697754
30752500000,-0.00014998484,-0.013039238,-0.99642092,0.01876989,-0.98773724,0.020105094,0.00061023468,-0.012810459
30820000000,-0.0007996466,-0.012780143,-0.99675846,0.017086446,-0.98987716,0.019215822,0.00026633125,-0.013444942
30887500000,-0.00038513821,-0.013149973,-0.99609751,0.017936826,-0.98745334,0.019807339,0.00011153053,-0.013226165
30955000000,-0.00090387673,-0.013666571,-0.99758178,0.018071666,-0.98786938,0.020793527,0.0011857059,-0.013838588
31022500000,-0.00047711423,-0.013479182,-0.99743056,0.018065542,-0.98764747,0.020509362,-0.0001727473,-0.014265839
31090000000,-0.00092265056,-0.013398303,-0.99618602,0.018204868,-0.98598301,0.020243376,0.00036956929,-0.013907944
31157500000,-0.0010341839,-0.0134601,-0.9967826,0.018838555,-0.98620975,0.020918339,-0.00012139603,-0.014302616
31225000000,-0.0011384971,-0.014442003,-0.99713427,0.018181562,-0.98649132,0.020120382,-0.00018718699,-0.014615977
31292500000,-0.0010709099,-0.013831066,-0.99566889,0.017598271,-0.9855811,0.020399213,-1.8544961e-005,-0.015001629
31360000000,-0.0015678331,-0.014417157,-0.99573934,0.019169971,-0.98623747,0.019578904,-0.000615214,-0.014360488
31427500000,-0.0016866195,-0.013920891,-0.9952454,0.018121608,-0.98555034,0.020355098,-0.0010609529,-0.014823096
31495000000,-0.0019088252,-0.014094086,-0.99518001,0.018931687,-0.98534846,0.020439506,-0.00094836112,-0.014602741
31562500000,-0.0018704238,-0.0136737,-0.99694115,0.018742114,-0.98632252,0.020523846,-0.001167268,-0.014742854
31630000000,-0.0018415912,-0.013376769,-0.99657118,0.018185616,-0.98515517,0.020137936,-0.001271924,-0.014478017
31697500000,-0.0022348072,-0.013419304,-0.99709147,0.018557847,-0.98550034,0.020068526,-0.0017705611,-0.013775446
31765000000,-0.001935713,-0.013285479,-0.99533153,0.018391818,-0.98666668,0.019606888,-0.0012039873,-0.014057316
31832500000,-0.0019270959,-0.013054553,-0.99515617,0.018892586,-0.98651427,0.019728899,-0.0017594406,-0.013628211
31900000000,-0.0021322216,-0.013296137,-0.99545622,0.019830756,-0.98668468,0.020690076,-0.0015309321,-0.01358547
31967500000,-0.0020645151,-0.013061761,-0.99631786,0.01874949,-0.98735774,0.02047424,-0.0015469915,-0.013017347
32035000000,-0.0017702268,-0.013324924,-0.99569571,0.018454373,-0.98765266,0.020717889,-0.0020859889,-0.013638732
32102500000,-0.0020373492,-0.012984342,-0.99502683,0.019425601,-0.98663247,0.02146063,-0.0017923615,-0.013326867
32170000000,-0.0011096676,-0.013195076,-0.99508077,0.019144177,-0.98744369,0.020570755,-0.0010810872,-0.013132554
32237500000,-0.0019610366,-0.012825795,-0.99500817,0.018585414,-0.98766041,0.020760417,-0.0013102307,-0.013450166
32305000000,-0.0014177868,-0.013314731,-0.99554539,0.01872021,-0.9876191,0.020811915,-0.00097895786,-0.013088034
32372500000,-0.0017473116,-0.013283816,-0.99406374,0.018733174,-0.98825991,0.020868391,-0.00095122866,-0.013774853
32440000000,-0.0017011674,-0.012617732,-0.9950527,0.019641891,-0.98822975,0.021213561,-0.0010137334,-0.013701847
32507500000,-0.0012822335,-0.013404933,-0.99320197,0.019026741,-0.98765862,0.020680014,-0.00064772851,-0.01362855
32575000000,-0.0016779136,-0.013370363,-0.99395734,0.019218236,-0.98790514,0.020452499,-0.001104794,-0.014220154
32642500000,-0.0013539654,-0.012815372,-0.99537885,0.019319773,-0.98783326,0.019920498,-0.0011718182,-0.014375041
32710000000,-0.0015717023,-0.013497056,-0.99503475,0.018088073,-0.98781741,0.01955229,-0.0011247429,-0.014602839
32777500000,-0.0015512186,-0.013373398,-0.99344546,0.018586189,-0.98817134,0.020046949,-0.0011947129,-0.014671925
32845000000,-0.0016763979,-0.013146231,-0.99378955,0.018947244,-0.98749804,0.019337773,-0.0017182548,-0.014371768
32912500000,-0.001748031,-0.013563465,-0.99367839,0.018269897,-0.98866034,0.018629313,-0.0018842691,-0.014899585
32980000000,-0.001652468,-0.013342697,-0.99477518,0.01829201,-0.98896503,0.018375844,-0.0015827329,-0.015363942
33047500000,-0.0019335616,-0.013579425,-0.99502957,0.017409533,-0.98909283,0.017256916,-0.0018800199,-0.01477122
33115000000,-0.0022253729,-0.013438759,-0.9943378,0.017413303,-0.98931456,0.017582707,-0.0024440854,-0.014930218
33182500000,-0.0021002316,-0.013139302,-0.99427515,0.017972678,-0.99090064,0.01695326,-0.0024594525,-0.014972288
33250000000,-0.0017996458,-0.013333206,-0.99425775,0.016854584,-0.98949564,0.016658127,-0.0031825539,-0.015165232
33317500000,-0.0020324565,-0.013248207,-0.99411714,0.017393619,-0.98975575,0.017308265,-0.003520702,-0.014642835
33385000000,-0.0026711612,-0.013529529,-0.99603462,0.017600298,-0.99038744,0.016323686,-0.0032542618,-0.015402485
33452500000,-0.0023956215,-0.013175238,-0.99431235,0.017631143,-0.98961979,0.016556352,-0.0036550947,-0.014833932
33520000000,-0.0026503103,-0.013098194,-0.99502218,0.01798737,-0.99210274,0.016236633,-0.0034245118,-0.014742601
33587500000,-0.0026141708,-0.012877657,-0.99563444,0.017777115,-0.99246156,0.015081048,-0.0039438964,-0.014394821
33655000000,-0.002564244,-0.012906249,-0.99476188,0.017745182,-0.99092716,0.016241342,-0.0039157928,-0.01391963
33722500000,-0.0026989477,-0.012739561,-0.99531651,0.017708272,-0.99223888,0.017314732,-0.0040134182,-0.014126121
33790000000,-0.0029178082,-0.012268675,-0.99550271,0.018565625,-0.99129474,0.016720891,-0.0041390331,-0.013762118
33857500000,-0.0030730609,-0.012626667,-0.9955042,0.018165872,-0.99168134,0.018426865,-0.0041319514,-0.013287242
33925000000,-0.0028958393,-0.012277044,-0.99561274,0.018813461,-0.9930864,0.017653883,-0.0042807432,-0.013359375
33992500000,-0.0029440126,-0.011962965,-0.9961195,0.01792264,-0.99090499,0.016677141,-0.0040115067,-0.013478215
34060000000,-0.0028530061,-0.012580132,-0.99529624,0.018635094,-0.9920913,0.018986434,-0.0038245176,-0.012989489
34127500000,-0.0029132292,-0.012516483,-0.99590248,0.018872552,-0.99266618,0.018202633,-0.0034632343,-0.01284341
34195000000,-0.0026055877,-0.012240383,-0.99599642,0.019284368,-0.99012899,0.018351644,-0.0036137071,-0.012810889
34262500000,-0.0026329425,-0.012268132,-0.99461752,0.01975441,-0.98948455,0.020503819,-0.0035546725,-0.012424196
34330000000,-0.0028418023,-0.012240574,-0.99546719,0.019803554,-0.9903037,0.020151943,-0.0034050266,-0.012589164
34397500000,-0.0025453325,-0.011994851,-0.99593389,0.019894034,-0.98905021,0.019946575,-0.0033901308,-0.012393259
34465000000,-0.002296892,-0.012305148,-0.99599552,0.020541966,-0.9897722,0.021470666,-0.0027298979,-0.012812974
34532500000,-0.0022527794,-0.012638826,-0.99557334,0.0198268,-0.98940003,0.020327851,-0.0023756581,-0.01215738
34600000000,-0.0021105553,-0.012346345,-0.99553156,0.019492596,-0.98831302,0.021322906,-0.0023844629,-0.013055323
34667500000,-0.0021362198,-0.012346156,-0.99505997,0.020376891,-0.98871684,0.021383137,-0.0028269519,-0.012632579
34735000000,-0.0023667985,-0.01278752,-0.99515527,0.019435018,-0.98828161,0.020488977,-0.0024662688,-0.013399534
34802500000,-0.0024473967,-0.012936939,-0.99613547,0.021249324,-0.98665261,0.0221304,-0.0027753338,-0.013286063
34870000000,-0.002728489,-0.013359247,-0.99650234,0.019790739,-0.98784751,0.021939129,-0.0025543682,-0.013151519
34937500000,-0.0028712302,-0.013226655,-0.99522698,0.019811243,-0.98820603,0.02167803,-0.0026256284,-0.013616313
35005000000,-0.0032310823,-0.013224459,-0.99561995,0.020441327,-0.98799551,0.022142367,-0.0026391451,-0.013175659
35072500000,-0.0033539378,-0.013419905,-0.99726945,0.018775612,-0.9877733,0.022087723,-0.0034070904,-0.013789168
35140000000,-0.003565582,-0.013453943,-0.99549824,0.018387139,-0.98601949,0.021686673,-0.003380971,-0.013413168
35207500000,-0.003057166,-0.012987674,-0.99622333,0.019839048,-0.98845536,0.021351375,-0.0033196334,-0.013402637
35275000000,-0.0037571439,-0.012705704,-0.99647468,0.019508731,-0.98757905,0.020586085,-0.0040040794,-0.012826006
35342500000,-0.003822339,-0.012779808,-0.99593884,0.018893734,-0.98788393,0.022822656,-0.0039547365,-0.013260365
35410000000,-0.0039906949,-0.012806864,-0.99503511,0.020403266,-0.98981512,0.02106528,-0.0043530473,-0.012714554
35477500000,-0.0040029106,-0.012568325,-0.99653709,0.01920712,-0.98994404,0.021279156,-0.0046866559,-0.012207154
35545000000,-0.0042279195,-0.012849536,-0.99504709,0.019885272,-0.99006563,0.021698505,-0.003804544,-0.012109568
35612500000,-0.0041375868,-0.0118166,-0.99840802,0.020593405,-0.98989308,0.022407562,-0.0042841258,-0.012257623
35680000000,-0.0045429417,-0.011750916,-0.99720752,0.018946856,-0.98971105,0.021791905,-0.0043869833,-0.011360016
35747500000,-0.004304484,-0.01170409,-0.99480271,0.01989463,-0.99040723,0.023264796,-0.0039748484,-0.011690309
35815000000,-0.0041702609,-0.011696487,-0.99612242,0.021913201,-0.99215591,0.022936225,-0.003907294,-0.011719816
35882500000,-0.0044227317,-0.011222429,-0.99604136,0.019936364,-0.99166048,0.023220411,-0.0033567119,-0.010822146
35950000000,-0.004514433,-0.011189778,-0.99595773,0.020641595,-0.99166405,0.024421394,-0.004107222,-0.011325596
36017500000,-0.0045089722,-0.011162106,-0.99578035,0.021141306,-0.99271494,0.023701414,-0.0037776192,-0.011283414
36085000000,-0.0043312917,-0.011357198,-0.99648869,0.020316511,-0.99249971,0.023666471,-0.0034758886,-0.011172494
36152500000,-0.0042953133,-0.011137119,-0.99739575,0.02133131,-0.99323726,0.024068713,-0.0040128375,-0.010895004
36220000000,-0.0038093929,-0.010825548,-0.99635851,0.020749152,-0.9932735,0.023734063,-0.0037076843,-0.011360317
36287500000,-0.0035819779,-0.010802631,-0.99311489,0.020422027,-0.99329895,0.023427814,-0.0028868602,-0.010882142
36355000000,-0.0034908333,-0.010951971,-0.99416792,0.02309607,-0.99513596,0.023812294,-0.0031416835,-0.011487959
36422500000,-0.0034388793,-0.010878137,-0.99674058,0.021814704,-0.99448264,0.023444265,-0.0028774273,-0.011540204
36490000000,-0.0034419822,-0.011235948,-0.99622631,0.020878904,-0.99523878,0.024959803,-0.0025255505,-0.011596029
36557500000,-0.0028552513,-0.010694753,-0.99483526,0.020903587,-0.99508393,0.023538738,-0.00270294,-0.011919145
36625000000,-0.0031952024,-0.011247667,-0.99221534,0.021038234,-0.99470961,0.023885906,-0.0033437416,-0.011675708
36692500000,-0.0033809105,-0.011392559,-0.99350488,0.021829516,-0.99502575,0.02405569,-0.0025912467,-0.012177325
36760000000,-0.0031485546,-0.011170674,-0.99672711,0.021724463,-0.99414659,0.02333796,-0.0029760711,-0.012570164
36827500000,-0.0030589162,-0.01175611,-0.99486589,0.020300329,-0.99519175,0.025051042,-0.0032570036,-0.012383824
36895000000,-0.0031527318,-0.011494385,-0.99260271,0.021510124,-0.99651372,0.024011672,-0.0031578871,-0.012692912
36962500000,-0.0035475455,-0.011410814,-0.99352837,0.021573171,-0.99551201,0.022936448,-0.002880394,-0.01288492
37030000000,-0.0031023729,-0.011855714,-0.99388862,0.020315647,-0.99457139,0.023551613,-0.0034659323,-0.012760187
37097500000,-0.0032849535,-0.011847888,-0.99515569,0.021525472,-0.99558878,0.024296343,-0.0036009541,-0.013266697
37165000000,-0.0036128815,-0.012044339,-0.99309766,0.01985839,-0.99378371,0.023811013,-0.0040129344,-0.013029041
37232500000,-0.003407513,-0.012240479,-0.9928937,0.021354437,-0.99542701,0.024799049,-0.0043916716,-0.012878319
37300000000,-0.0036816685,-0.011909195,-0.99581301,0.021387726,-0.99648935,0.024300188,-0.0041170861,-0.012713434
37367500000,-0.0039104559,-0.011505408,-0.99652785,0.021276653,-0.99465656,0.023993433,-0.0049014203,-0.012801227
37435000000,-0.0035816976,-0.011398605,-0.99557704,0.019911125,-0.9955309,0.025977835,-0.0046834257,-0.012769834
37502500000,-0.0044377679,-0.011251504,-0.99470574,0.019901633,-0.99529409,0.024652034,-0.004811604,-0.012937239
37570000000,-0.0041453936,-0.01123862,-0.99384248,0.021226058,-0.99375027,0.025848433,-0.0050818524,-0.012937456
37637500000,-0.004444947,-0.011230552,-0.99534136,0.021203943,-0.99472326,0.025649168,-0.0052433861,-0.012694572
37705000000,-0.0046449979,-0.010897058,-0.99740332,0.020720214,-0.99356973,0.025830328,-0.0055023544,-0.012504563
37772500000,-0.0052876677,-0.010855309,-0.99797821,0.021035835,-0.99363399,0.026505694,-0.005949256,-0.011878513
37840000000,-0.0046365815,-0.010703686,-0.99801439,0.020740628,-0.99326164,0.026484787,-0.005877987,-0.011486612
37907500000,-0.0040560225,-0.011243167,-0.99532181,0.020880125,-0.99278045,0.02703464,-0.0055459337,-0.011432231
37975000000,-0.0042443657,-0.010485301,-0.99419993,0.021725595,-0.99289858,0.027982414,-0.0060079712,-0.010961064
38042500000,-0.0041674227,-0.01026121,-0.99451447,0.021897763,-0.99274904,0.027270019,-0.0056427638,-0.010471477
38110000000,-0.0042525269,-0.010163605,-0.99616432,0.02146855,-0.99132359,0.027273327,-0.005434732,-0.011014281
