!CSV A.01.01
!Keysight Technologies,N5247B,US56070639,A.17.30.08
!Date: Wednesday, July 22, 2026 11:16:20
!Source: Standard

BEGIN CH1_DATA
Freq(Hz),S21(REAL),S21(IMAG),S11(REAL),S11(IMAG),S22(REAL),S22(IMAG),S12(REAL),S12(IMAG)
26500000000,0.00065624062,-0.009752919,-0.99991816,0.017145693,-0.99169344,0.025442332,0.00013611047,-0.010306476
26567500000,0.00088376878,-0.0096865185,-0.99791586,0.015416026,-0.99114865,0.025001347,0.00043882011,-0.0099196136
26635000000,0.00075747445,-0.0098735634,-0.99680889,0.016197354,-0.98915946,0.024283499,0.00023036171,-0.010261958
26702500000,0.00081815966,-0.0098943515,-0.99861729,0.01702562,-0.99009317,0.027111471,0.00033686962,-0.010329898
26770000000,0.00069346349,-0.0097875083,-0.99750429,0.015366845,-0.99084646,0.023094811,0.00020957534,-0.010414175
26837500000,0.00017851102,-0.0096859876,-0.99697,0.016872779,-0.98856652,0.025033623,-0.00012154388,-0.010520287
26905000000,0.00032315752,-0.0097500803,-0.9991771,0.015833765,-0.99042141,0.025104225,-0.00012013735,-0.010038791
26972500000,0.00054878695,-0.0099843517,-0.99679869,0.015817612,-0.99012518,0.023743898,0.00029858388,-0.010360308
27040000000,0.0007026731,-0.0099729346,-0.99795491,0.017711125,-0.98801154,0.024453871,0.0001021155,-0.010442556
27107500000,0.00062993215,-0.0096486043,-0.99899602,0.016416162,-0.98996115,0.02516675,0.00025230926,-0.010472996
27175000000,0.00080445304,-0.0097170388,-0.99598211,0.01569508,-0.98851079,0.022658348,0.00021675834,-0.010230605
27242500000,0.00077417772,-0.0097515099,-0.99614334,0.018182218,-0.988415,0.024672955,0.00032737618,-0.010130182
27310000000,0.00085881253,-0.0098891258,-0.99734849,0.016350567,-0.98871398,0.024371356,0.00074086734,-0.010497154
27377500000,0.0012726272,-0.0099386917,-0.99593049,0.01683861,-0.98694623,0.023195013,0.00022622151,-0.010707752
27445000000,0.0010060016,-0.0098489514,-0.99675822,0.017478794,-0.98708922,0.023853272,0.0003644703,-0.010323654
27512500000,0.0009431974,-0.010215883,-0.99722469,0.015940964,-0.98919356,0.023362666,0.00020309351,-0.010233071
27580000000,0.0010701679,-0.010140659,-0.99398273,0.017287105,-0.98642749,0.023495018,0.00071497215,-0.010356481
27647500000,0.0012933826,-0.010264727,-0.99716079,0.016835302,-0.98721045,0.02466622,0.00061695767,-0.010566777
27715000000,0.00087696407,-0.010536833,-0.99645597,0.016880423,-0.98814887,0.02316612,0.00037343358,-0.010815643
27782500000,0.0010611624,-0.01014827,-0.99612093,0.016902655,-0.98619461,0.023352861,0.00070775766,-0.010699116
27850000000,0.00064841146,-0.010683414,-0.99627233,0.017826438,-0.98718727,0.024647713,0.00071999058,-0.0103579
27917500000,0.00085695041,-0.010651661,-0.99539453,0.016969144,-0.9869985,0.022257268,0.00043466943,-0.011166144
27985000000,0.00086936774,-0.010428544,-0.99549174,0.018475354,-0.98559344,0.022975266,0.00040916866,-0.011250995
28052500000,0.00075690635,-0.010484226,-0.99694335,0.016562253,-0.98704159,0.022271276,3.8353261e-005,-0.010784518
28120000000,0.00050932821,-0.010723056,-0.99559855,0.016990811,-0.98722172,0.022054434,-9.7632408e-005,-0.010395194
28187500000,0.00063394976,-0.01058897,-0.99498075,0.018015295,-0.98596263,0.022909522,0.00051615178,-0.010771506
28255000000,0.00062033348,-0.011098789,-0.99559647,0.01778385,-0.98697358,0.023151517,0.00011323392,-0.010968775
28322500000,0.0003461272,-0.010480208,-0.99505746,0.017418653,-0.98622596,0.022011936,0.00050061569,-0.010866641
28390000000,0.00064211263,-0.010374511,-0.99642503,0.0183152,-0.9851467,0.023209121,0.00042974908,-0.010456659
28457500000,3.3991877e-005,-0.010282855,-0.99614596,0.017568976,-0.98662925,0.02314499,0.0004360883,-0.010338718
28525000000,0.00067810947,-0.010436801,-0.99550211,0.018287331,-0.98667681,0.023324639,0.00054756226,-0.010607513
28592500000,0.00083893072,-0.010216766,-0.99410772,0.018555194,-0.98467648,0.023377389,0.00039731618,-0.010484558
28660000000,0.00067528477,-0.011017526,-0.99548131,0.018468797,-0.9867332,0.023403734,0.00033906475,-0.010828307
28727500000,0.00070430682,-0.010145525,-0.99556428,0.018721692,-0.98574531,0.023043141,0.00045864302,-0.010447992
28795000000,0.0011487736,-0.010104774,-0.99524337,0.017618686,-0.98515856,0.024011254,0.00070176669,-0.010876554
28862500000,0.0011101551,-0.010456078,-0.99594766,0.019131929,-0.98605144,0.023794234,0.00084353657,-0.010918304
28930000000,0.0009638872,-0.010438053,-0.99585253,0.018411577,-0.98577034,0.022356421,0.00080259982,-0.011104512
28997500000,0.0012157963,-0.010876927,-0.99503547,0.018998496,-0.98538649,0.023575537,0.00085627224,-0.0108923
29065000000,0.0014986759,-0.010837145,-0.99495602,0.018982343,-0.98660821,0.02397088,0.0010577764,-0.010931721
29132500000,0.0012766705,-0.011235636,-0.99521488,0.01790157,-0.98539054,0.022549778,0.0011006487,-0.011207854
29200000000,0.00088097388,-0.011217864,-0.99516469,0.018063694,-0.98472822,0.022996545,0.0010752124,-0.011399044
29267500000,0.0009348623,-0.011396733,-0.99671257,0.018310115,-0.98687017,0.022901766,0.00076447055,-0.011430142
29335000000,0.0011432755,-0.011068348,-0.99492049,0.017792359,-0.98573428,0.021680072,0.00092518399,-0.011189163
29402500000,0.00066411193,-0.011626648,-0.99390185,0.01904723,-0.9860099,0.02192831,0.00056527276,-0.011658355
29470000000,0.0011508085,-0.011583037,-0.99565524,0.01967828,-0.98758912,0.02188319,0.0010924424,-0.0117896
29537500000,0.00077523687,-0.011645354,-0.99446577,0.017115742,-0.98607862,0.020005018,0.00061976793,-0.011949752
29605000000,0.00079996698,-0.011925332,-0.99390191,0.018683434,-0.98637944,0.021684676,0.00050395867,-0.012025889
29672500000,0.0004180721,-0.011782249,-0.99692303,0.017553627,-0.98795402,0.020777106,0.00062273676,-0.011985993
29740000000,0.00042531593,-0.01176265,-0.99523783,0.017878205,-0.98601294,0.020143986,0.00043158745,-0.011559133
29807500000,0.00064642075,-0.011605273,-0.99516916,0.018850744,-0.9870621,0.020666987,0.00020354567,-0.011908838
29875000000,0.00013913028,-0.011978546,-0.99621022,0.018784523,-0.98898923,0.019073665,-0.00052908063,-0.011949381
29942500000,0.00024363009,-0.01160789,-0.99396741,0.01760678,-0.98743945,0.019513305,0.00035782217,-0.011415022
30010000000,0.00017670076,-0.01197898,-0.99509907,0.019029498,-0.98854494,0.021043479,-7.5812452e-005,-0.011208536
30077500000,0.00012142002,-0.011811685,-0.99693316,0.01789844,-0.98850346,0.018940121,0.00013593165,-0.011177515
30145000000,0.00012208102,-0.011409706,-0.99545938,0.017608792,-0.9867205,0.019863188,0.00051527959,-0.011631295
30212500000,0.00043432228,-0.011811662,-0.99622768,0.019063652,-0.9898926,0.019686937,8.5607637e-005,-0.011243029
30280000000,0.00036276318,-0.011275697,-0.99579716,0.017811328,-0.98904032,0.019922018,0.00051957648,-0.011674661
30347500000,0.00063118245,-0.011472734,-0.99425733,0.019202709,-0.98726338,0.019488454,0.00090224436,-0.011122982
30415000000,0.00012159185,-0.011401302,-0.9960109,0.019758195,-0.98956561,0.021100968,0.00049039093,-0.011055547
30482500000,0.0005161264,-0.012001703,-0.99630737,0.018051162,-0.98845351,0.019121408,0.00037241494,-0.011455383
30550000000,0.00020010956,-0.011504344,-0.99512982,0.019031256,-0.98720646,0.021084845,0.0010192152,-0.011791485
30617500000,0.00061173667,-0.011966018,-0.99598461,0.019686833,-0.98855042,0.020301059,0.0011837662,-0.011172335
30685000000,0.00054305396,-0.011500108,-0.99545592,0.019007966,-0.98660588,0.019557074,0.0017360989,-0.011524954
30752500000,0.001028948,-0.012211806,-0.99381346,0.020742029,-0.98685122,0.021298856,0.0013724656,-0.011558339
30820000000,0.0005930569,-0.012336567,-0.99453259,0.018697202,-0.98887253,0.020134628,0.0012145224,-0.012173896
30887500000,0.00078214984,-0.011817799,-0.99360371,0.019849032,-0.98633587,0.020318091,0.001492274,-0.011802617
30955000000,0.00069454126,-0.012430112,-0.9947781,0.019767985,-0.98707211,0.021399349,0.0017870364,-0.012642371
31022500000,0.00050725369,-0.012303481,-0.99497682,0.019873589,-0.98696876,0.020840436,0.0015619057,-0.012667485
31090000000,0.0005124053,-0.012558346,-0.99357289,0.019795001,-0.98544949,0.020606101,0.0012360145,-0.012546053
31157500000,0.000529374,-0.012289356,-0.9940201,0.020627499,-0.9854902,0.021486759,0.0012030755,-0.013458652
31225000000,-2.1249522e-005,-0.013202174,-0.993945,0.019323766,-0.98553729,0.01973325,0.0011006931,-0.01299744
31292500000,-4.5331661e-005,-0.012705604,-0.99269664,0.019428641,-0.98404419,0.020563483,0.0014208583,-0.013703118
31360000000,-0.00056981924,-0.013101074,-0.99316502,0.020713598,-0.98474389,0.020046026,0.00052159908,-0.013767282
31427500000,-4.457566e-005,-0.013136404,-0.99282932,0.020249724,-0.98514026,0.020906806,0.00025616481,-0.013319896
31495000000,0.00032153679,-0.012987413,-0.99280369,0.020364642,-0.98504329,0.021268547,0.00043994654,-0.013550018
31562500000,-0.00087421341,-0.012625935,-0.99390584,0.020496964,-0.9865098,0.020404682,0.00042243348,-0.013554266
31630000000,-0.00044310465,-0.012742272,-0.99318123,0.019719183,-0.98515582,0.020357162,0.00014286302,-0.012916768
31697500000,-0.00055947481,-0.012624544,-0.99425745,0.020322472,-0.98469663,0.020890415,-3.7156977e-005,-0.013226997
31765000000,-0.00088299578,-0.012454691,-0.99271965,0.020490259,-0.98582536,0.020556122,-0.0004473147,-0.013046959
31832500000,-0.00033394201,-0.012974012,-0.99234843,0.02085501,-0.98537683,0.020632416,-0.00037164986,-0.012981193
31900000000,-0.00073188398,-0.012633788,-0.99306577,0.02071324,-0.98581505,0.021199413,-0.00018449151,-0.013045543
31967500000,-0.00052395568,-0.012138918,-0.99315166,0.020501092,-0.98719281,0.021430567,0.00019129878,-0.012409777
32035000000,-2.7046073e-005,-0.012654269,-0.99331653,0.020257145,-0.98658031,0.021209538,-0.00032559503,-0.012513881
32102500000,-0.0006381378,-0.012228473,-0.99224377,0.021009967,-0.98602527,0.022157311,-0.00016526203,-0.012464089
32170000000,1.1352822e-005,-0.012120636,-0.99227846,0.02115044,-0.98627168,0.021268547,0.0002744575,-0.012604821
32237500000,-0.00036208564,-0.011740016,-0.99288869,0.020908237,-0.98665786,0.021414995,0.00047559477,-0.012245825
32305000000,2.3903325e-005,-0.012621857,-0.9927702,0.020474702,-0.98636699,0.022237957,0.00029172143,-0.012487024
32372500000,0.0001108502,-0.012586407,-0.99213135,0.020525783,-0.98675263,0.021744996,0.00057526212,-0.012958363
32440000000,-0.0002313843,-0.012171175,-0.99258089,0.021459669,-0.98694676,0.021472484,0.00058341306,-0.012945306
32507500000,0.00016245054,-0.012480387,-0.99086809,0.020094074,-0.98635858,0.021418806,0.0010486,-0.01272702
32575000000,-0.00020605745,-0.012428358,-0.99188501,0.021090031,-0.98693359,0.021761,0.0011431295,-0.013231628
32642500000,0.00013777032,-0.011873863,-0.99288344,0.021575242,-0.9863987,0.020686477,0.00056823739,-0.013403639
32710000000,-3.8208906e-005,-0.01256746,-0.99243891,0.01988253,-0.98696864,0.020633161,0.00033935998,-0.013814054
32777500000,1.2094388e-005,-0.012745666,-0.99159187,0.020406649,-0.98635954,0.021054462,0.00067080674,-0.013984381
32845000000,5.0522853e-005,-0.012386642,-0.99178272,0.02066049,-0.98610067,0.02046144,0.00065444876,-0.014195684
32912500000,-0.00011960277,-0.012835999,-0.99066615,0.020381778,-0.98661256,0.020651639,0.00018442795,-0.01437548
32980000000,-0.00033488125,-0.012994666,-0.99147022,0.02055642,-0.98758203,0.020018458,-2.0804815e-005,-0.014331167
33047500000,-6.0775317e-005,-0.01271455,-0.99250805,0.019601107,-0.98694646,0.018347472,-0.00060933409,-0.014267851
33115000000,-0.00034187897,-0.013266207,-0.99119192,0.019479401,-0.9878177,0.018960617,-0.00068711309,-0.01436329
33182500000,-0.00055562472,-0.012852026,-0.99164575,0.019794971,-0.98851001,0.018240392,-0.00089429086,-0.014763576
33250000000,-0.00083786063,-0.01260011,-0.99218434,0.019000426,-0.98711044,0.018299088,-0.0012190954,-0.014397258
33317500000,-0.00062866369,-0.012838754,-0.9913848,0.019771457,-0.98801619,0.019078314,-0.0014394699,-0.014188047
33385000000,-0.00075541949,-0.012854405,-0.99348748,0.020056695,-0.98947537,0.017804503,-0.0014155256,-0.015003304
33452500000,-0.00084141409,-0.012949349,-0.99213576,0.019305289,-0.98679233,0.01775524,-0.0018050941,-0.01422285
33520000000,-0.001243806,-0.012877984,-0.99242055,0.020023227,-0.98928046,0.018033475,-0.0017174915,-0.014121762
33587500000,-0.0014037043,-0.012893636,-0.99299872,0.019671649,-0.9901042,0.016243696,-0.0022355923,-0.01426671
33655000000,-0.0010936093,-0.012392267,-0.9926219,0.019621372,-0.98845482,0.017549872,-0.0024780736,-0.013918583
33722500000,-0.0013567067,-0.012177085,-0.99308532,0.019655704,-0.99062288,0.018659353,-0.0024219237,-0.013792407
33790000000,-0.0013173802,-0.012281734,-0.99277312,0.019849569,-0.98929864,0.017257094,-0.002629563,-0.01302586
33857500000,-0.0017303827,-0.012512925,-0.99282646,0.019816965,-0.98969883,0.018685251,-0.0023405373,-0.013301216
33925000000,-0.001653424,-0.011937101,-0.99357545,0.02046138,-0.99087906,0.01831153,-0.002621358,-0.013048262
33992500000,-0.0016625845,-0.011804118,-0.99384105,0.020037591,-0.98969913,0.01818639,-0.0019753654,-0.013303062
34060000000,-0.0017839433,-0.01201915,-0.99308842,0.020605385,-0.98996115,0.019706607,-0.0026994669,-0.012878182
34127500000,-0.0014029667,-0.01190622,-0.99352354,0.021221161,-0.99105984,0.019571625,-0.0023623267,-0.012499485
34195000000,-0.001297656,-0.012104401,-0.99323261,0.021068841,-0.98873079,0.019274712,-0.0024053147,-0.012975389
34262500000,-0.001068315,-0.012032947,-0.9921279,0.021587342,-0.98792934,0.02140367,-0.0019847658,-0.012256019
34330000000,-0.0014827498,-0.011969905,-0.99366105,0.02099812,-0.98915195,0.02132678,-0.0020958283,-0.012109575
34397500000,-0.0012310937,-0.011811092,-0.99354011,0.021621078,-0.98791522,0.020997226,-0.0017240394,-0.012300453
34465000000,-0.0011053872,-0.011761428,-0.99400961,0.022205859,-0.98830044,0.022471696,-0.0016868603,-0.012387132
34532500000,-0.0011214758,-0.012481327,-0.9931435,0.02170746,-0.98826003,0.021261126,-0.0010101779,-0.012444336
34600000000,-0.0011886146,-0.012444879,-0.99325192,0.021110326,-0.98736924,0.02228865,-0.0015213937,-0.012923509
34667500000,-0.0007782774,-0.012581325,-0.99292552,0.023085743,-0.98844826,0.022004545,-0.0016110316,-0.012819917
34735000000,-0.0010461975,-0.012620028,-0.9926089,0.021112323,-0.98845488,0.021545857,-0.001092256,-0.01290068
34802500000,-0.00087691238,-0.012494585,-0.99351251,0.022443265,-0.98739046,0.022853315,-0.0016704262,-0.013377322
34870000000,-0.0013910136,-0.012472914,-0.99345553,0.022033244,-0.98734057,0.022399634,-0.0012237811,-0.013448777
34937500000,-0.0018969141,-0.01300834,-0.99269581,0.021536589,-0.9873265,0.022421032,-0.0016983203,-0.013191903
35005000000,-0.0013515442,-0.012851502,-0.99294162,0.022468459,-0.98726404,0.023929853,-0.0016710316,-0.013210188
35072500000,-0.0017062735,-0.013116905,-0.9950003,0.0207389,-0.98728824,0.022068888,-0.001506401,-0.013350661
35140000000,-0.0022121673,-0.013392231,-0.99234211,0.020504236,-0.98625553,0.022403985,-0.0017174141,-0.013534404
35207500000,-0.0028249575,-0.012880662,-0.99402463,0.021503456,-0.98894942,0.023218445,-0.0027455208,-0.014300263
35275000000,-0.0024383054,-0.013195534,-0.9941234,0.021063847,-0.98814946,0.021325231,-0.0025851403,-0.013196941
35342500000,-0.0028182685,-0.012784086,-0.99281925,0.020543881,-0.98654962,0.022696622,-0.0024754778,-0.013279165
35410000000,-0.0026685772,-0.013320602,-0.99305886,0.022249579,-0.98908842,0.021888033,-0.0033244945,-0.013390752
35477500000,-0.0031682099,-0.012442219,-0.99354905,0.020984143,-0.98911619,0.022158146,-0.0030840789,-0.012622671
35545000000,-0.0030547231,-0.012473637,-0.99252456,0.021803796,-0.98883331,0.022895455,-0.0028124931,-0.012249248
35612500000,-0.0038810442,-0.013085978,-0.99563068,0.021366954,-0.98868787,0.023345441,-0.0034683142,-0.012577312
35680000000,-0.0033196972,-0.012221541,-0.99406397,0.021100312,-0.9885627,0.023519367,-0.0030870573,-0.011644575
35747500000,-0.0035378579,-0.011833537,-0.99224728,0.021494389,-0.98936731,0.023885757,-0.0025993977,-0.012191277
35815000000,-0.0034097261,-0.012180994,-0.99309075,0.022567511,-0.99041045,0.02374956,-0.0026700599,-0.012281647
35882500000,-0.002978412,-0.011683735,-0.99316245,0.021473058,-0.99000245,0.023585439,-0.0025300465,-0.011495239
35950000000,-0.0033301846,-0.011602392,-0.99330926,0.02322188,-0.99114114,0.025018513,-0.0030276435,-0.011768773
36017500000,-0.0032697814,-0.01096705,-0.99323326,0.022702545,-0.9912135,0.024000987,-0.0022218723,-0.011848905
36085000000,-0.0032101665,-0.011768878,-0.99322677,0.021970183,-0.99148667,0.025120884,-0.0027200938,-0.011470549
36152500000,-0.003146844,-0.011514185,-0.99480551,0.023133337,-0.99209547,0.025265813,-0.0025987285,-0.011581855
36220000000,-0.002846146,-0.011243571,-0.99457651,0.022094756,-0.99121469,0.024036735,-0.0026867588,-0.011335718
36287500000,-0.0025037942,-0.010897978,-0.990982,0.021934435,-0.99177003,0.024536565,-0.0020777066,-0.011190538
36355000000,-0.0026596112,-0.01104611,-0.99187434,0.024181113,-0.99349016,0.025017083,-0.0019429845,-0.011809362
36422500000,-0.0023382693,-0.01083328,-0.99478734,0.023104817,-0.99166375,0.024707168,-0.0018822299,-0.011390968
36490000000,-0.0029155989,-0.01159529,-0.99361122,0.02188234,-0.99345106,0.02550777,-0.0014875951,-0.011750598
36557500000,-0.0023133853,-0.011306343,-0.99214309,0.023203045,-0.99316859,0.024706781,-0.0022254302,-0.012517391
36625000000,-0.0022833748,-0.011074021,-0.99000442,0.022534847,-0.99193788,0.024421602,-0.0021467223,-0.012282996
36692500000,-0.0024847612,-0.011556728,-0.99151415,0.023400158,-0.99277914,0.025439829,-0.0018844157,-0.012387735
36760000000,-0.0027163369,-0.012046513,-0.99457788,0.024151564,-0.99209201,0.024689436,-0.0022668072,-0.012711476
36827500000,-0.0023726611,-0.011805948,-0.99263775,0.021914989,-0.99234378,0.025466159,-0.0022879399,-0.012538432
36895000000,-0.0021396414,-0.011657082,-0.99096519,0.023032904,-0.99438977,0.025448591,-0.0020536324,-0.013029695
36962500000,-0.0025832357,-0.011858053,-0.99192572,0.02312395,-0.99270278,0.024679899,-0.0026757885,-0.012989882
37030000000,-0.0022553084,-0.011880859,-0.9912765,0.022100925,-0.99165297,0.02511102,-0.0025210413,-0.01269595
37097500000,-0.002851374,-0.011962045,-0.99234921,0.022554964,-0.99317563,0.025070727,-0.0024383445,-0.013518771
37165000000,-0.0028264993,-0.01190685,-0.99131793,0.021732569,-0.9907878,0.025003463,-0.0031497884,-0.013573091
37232500000,-0.0028734698,-0.01210113,-0.99071145,0.022676766,-0.99280393,0.025593638,-0.0033567194,-0.013113682
37300000000,-0.0034884727,-0.012158303,-0.99263769,0.023322701,-0.99380505,0.025329903,-0.0036064929,-0.013574461
37367500000,-0.0032882092,-0.011957401,-0.99378812,0.021899402,-0.99136317,0.025336057,-0.0038935074,-0.013534949
37435000000,-0.0035155113,-0.012044162,-0.99263591,0.021447666,-0.99250358,0.026695646,-0.0037866388,-0.012771005
37502500000,-0.0035217961,-0.011292389,-0.99195635,0.022170752,-0.99248445,0.025647253,-0.0036927043,-0.013106563
37570000000,-0.0036725083,-0.011265867,-0.99144661,0.022473888,-0.99143362,0.026424577,-0.0047459411,-0.013002429
37637500000,-0.0040327916,-0.011506417,-0.99322402,0.022929177,-0.99227881,0.026249424,-0.0048706424,-0.012612144
37705000000,-0.0035702679,-0.011249262,-0.99486417,0.022950739,-0.9908601,0.026147693,-0.0046787709,-0.012616654
37772500000,-0.0045025833,-0.010541898,-0.99504185,0.02248168,-0.99113506,0.026373133,-0.0052851578,-0.012410537
37840000000,-0.0041668159,-0.010933666,-0.99520022,0.021680944,-0.99146003,0.026560061,-0.0050960588,-0.011724577
37907500000,-0.0040069749,-0.011341449,-0.99320167,0.021511475,-0.99065256,0.026185034,-0.005463047,-0.01223411
37975000000,-0.0040056361,-0.010529049,-0.99181652,0.022911787,-0.99127722,0.028592855,-0.005458327,-0.011045715
38042500000,-0.0037061779,-0.010060697,-0.99279034,0.023366213,-0.99120229,0.026951939,-0.0052005667,-0.010711291
38110000000,-0.0037226833,-0.010246262,-0.99399483,0.022843331,-0.99018919,0.027778625,-0.0048771566,-0.011406577
38177500000,-0.0038808002,-0.010455091,-0.99466455,0.02400288,-0.99066794,0.027450472,-0.0051332042,-0.010707332
