!CSV A.01.01
!Keysight Technologies,N5247B,US56070639,A.17.30.08
!Date: Wednesday, July 22, 2026 10:29:21
!Source: Standard

BEGIN CH1_DATA
Freq(Hz),S21(REAL),S21(IMAG),S11(REAL),S11(IMAG),S22(REAL),S22(IMAG),S12(REAL),S12(IMAG)
26500000000,0.00012921053,-0.0077694692,-1.0055859,0.015010208,-0.97910202,0.025751919,0.00014787074,-0.0082684299
26567500000,-6.7047542e-005,-0.0078510493,-1.004462,0.013672531,-0.97934872,0.02554974,0.00024084584,-0.0080846846
26635000000,0.00018825382,-0.008061355,-1.0035784,0.014470607,-0.97775924,0.025351316,0.00040807878,-0.0082060387
26702500000,-0.0001136288,-0.0078069521,-1.0048374,0.014855236,-0.97866595,0.026643768,0.00045097992,-0.0084803253
26770000000,0.00033014949,-0.0083029466,-1.00422,0.013669804,-0.97932941,0.024694316,0.00037823804,-0.0083417483
26837500000,0.0001553311,-0.0077896514,-1.0039793,0.014637142,-0.97760761,0.025682643,0.00040205522,-0.008315905
26905000000,0.00028920884,-0.0080736987,-1.0059118,0.01455164,-0.97959805,0.025091529,0.00017879612,-0.008197166
26972500000,0.00025896193,-0.0082253441,-1.0045969,0.014048964,-0.97930861,0.024625152,0.00064349314,-0.0085670548
27040000000,0.00036772905,-0.0076991403,-1.0048001,0.015558872,-0.97779155,0.024642069,0.00023344829,-0.0084844287
27107500000,0.00012572808,-0.0079606259,-1.0056493,0.014660895,-0.97943032,0.024898291,0.00040009385,-0.0083222343
27175000000,0.00041146134,-0.0080323657,-1.003485,0.014023572,-0.97881615,0.023466632,0.00036833447,-0.0080696568
27242500000,0.00064863521,-0.0079893908,-1.0033004,0.015498579,-0.97822005,0.025690228,0.00081371446,-0.008115612
27310000000,0.00080555642,-0.008208924,-1.004303,0.014245972,-0.97887611,0.025857814,0.00074086798,-0.0086758351
27377500000,0.0006410135,-0.008283305,-1.003665,0.014628813,-0.97725701,0.024037987,0.00017555617,-0.0086778011
27445000000,0.0010620276,-0.0081832539,-1.0043411,0.015051007,-0.9776054,0.024446666,0.00069204718,-0.0083244126
27512500000,0.00049222307,-0.008470838,-1.0045521,0.014173001,-0.97955197,0.024753213,0.00052987738,-0.0083840247
27580000000,0.00088944077,-0.0084065944,-1.0021927,0.015034258,-0.97695404,0.02473256,0.00082619884,-0.0083754491
27647500000,0.00083746342,-0.0086894389,-1.0044324,0.015036196,-0.97795379,0.026072651,0.00097118504,-0.0087365825
27715000000,0.00096948864,-0.0087654898,-1.0044272,0.014449656,-0.97890687,0.024820566,0.00070220395,-0.008497363
27782500000,0.00090236706,-0.0088548623,-1.0043653,0.014550865,-0.97765493,0.024979204,0.00097959582,-0.0087097557
27850000000,0.00060641253,-0.008979422,-1.0041838,0.01491949,-0.97867525,0.026042625,0.00032092026,-0.0088076731
27917500000,0.00058830855,-0.0092631448,-1.0036974,0.014562637,-0.97802347,0.024011642,0.00090421573,-0.0092679048
27985000000,0.0003205575,-0.008875641,-1.0034167,0.015846491,-0.97707057,0.024345666,0.00090676127,-0.009254029
28052500000,0.00036940258,-0.0090880971,-1.0051756,0.014500171,-0.97852999,0.024274528,0.00033121416,-0.0089873038
28120000000,0.00049891742,-0.0088689504,-1.0040152,0.014489442,-0.97931373,0.023445994,0.00028769346,-0.0086877057
28187500000,0.00050214818,-0.0091880104,-1.0042259,0.015466392,-0.97771746,0.025186852,0.00091422244,-0.0091669299
28255000000,0.00054836995,-0.0093041621,-1.0043111,0.015546292,-0.97808504,0.024657279,0.00069065695,-0.0091430675
28322500000,0.00017545954,-0.0088476576,-1.0036418,0.015802383,-0.97766781,0.023579359,0.00045210798,-0.0090292841
28390000000,0.0001107507,-0.0090534221,-1.004993,0.016027719,-0.97693598,0.024980914,0.00056259311,-0.0093439706
28457500000,0.00017555524,-0.0087312013,-1.0046202,0.015687048,-0.97808099,0.025099814,0.00085143605,-0.0086132251
28525000000,0.00020203134,-0.0086896289,-1.0043511,0.016162068,-0.97855639,0.025627911,0.00058372552,-0.0087711932
28592500000,0.00068170438,-0.0091005675,-1.0033095,0.016116142,-0.97713161,0.025773555,0.00083268108,-0.0090646269
28660000000,0.00021977071,-0.0091807712,-1.0041912,0.016114295,-0.97827566,0.025992781,0.00070828199,-0.0091731437
28727500000,0.00061393465,-0.0090128742,-1.0040805,0.016546749,-0.97788596,0.02570634,0.00084289908,-0.0087929135
28795000000,0.00059585692,-0.009166494,-1.0040561,0.015545368,-0.97740358,0.026502952,0.00098306732,-0.0093607381
28862500000,0.00084526651,-0.0087480992,-1.0046555,0.016182035,-0.97751999,0.026740998,0.0010152184,-0.0092311185
28930000000,0.0011307821,-0.0093412017,-1.0038114,0.015957594,-0.97750241,0.025510669,0.0013951408,-0.0094047273
28997500000,0.00081572845,-0.0094671221,-1.0037217,0.015612319,-0.9767254,0.026212119,0.00077807938,-0.0094542662
29065000000,0.0012066722,-0.00938104,-1.0038965,0.015636876,-0.97847521,0.026979677,0.0014018675,-0.0090616904
29132500000,0.0011362927,-0.0095920647,-1.0038986,0.015467644,-0.977009,0.026181191,0.0015673898,-0.0096867271
29200000000,0.00093215238,-0.0098145157,-1.0041933,0.015648425,-0.97586453,0.026384205,0.0010901373,-0.010029294
29267500000,0.00061955984,-0.010001005,-1.0048959,0.015487939,-0.97753388,0.026448324,0.0010067679,-0.0093651572
29335000000,0.00085586158,-0.009991792,-1.0037574,0.015351132,-0.97652221,0.025044814,0.00096054992,-0.0098557342
29402500000,0.00086354685,-0.010355866,-1.0027179,0.016146213,-0.97637111,0.025421113,0.0010755763,-0.0099919625
29470000000,0.0010820476,-0.010340702,-1.0041926,0.016267121,-0.9770788,0.025498375,0.00079220382,-0.010111689
29537500000,0.00084710238,-0.010653517,-1.0033324,0.014672145,-0.97585189,0.023594424,0.0010179889,-0.010480177
29605000000,0.00058548036,-0.010713689,-1.0032955,0.016192704,-0.97639173,0.025143534,0.00060233078,-0.010241927
29672500000,0.0003891252,-0.01024575,-1.0059949,0.015866131,-0.9764775,0.024574518,0.00078646326,-0.010368124
29740000000,0.00026105251,-0.010484705,-1.0041564,0.015755177,-0.97581214,0.024363965,0.0008339691,-0.010217572
29807500000,0.00036025001,-0.010442469,-1.0039289,0.016540021,-0.9760043,0.024003178,0.00061388547,-0.01027717
29875000000,7.1411021e-005,-0.010727989,-1.004831,0.016230971,-0.97764593,0.022656411,-0.00024915254,-0.010517369
29942500000,0.00023948884,-0.01037275,-1.0036523,0.01528364,-0.97675848,0.022953752,0.00059063511,-0.0099385781
30010000000,-0.00031649368,-0.010678347,-1.0037532,0.016712964,-0.97820377,0.024986058,0.00031306176,-0.0099906679
30077500000,1.7108629e-005,-0.010620092,-1.0050104,0.016605347,-0.97797692,0.023023278,0.0005044993,-0.009932748
30145000000,-0.00011040922,-0.010215277,-1.0044159,0.015892327,-0.9763341,0.023307949,0.00074331707,-0.010166955
30212500000,-0.00041153748,-0.010731544,-1.0047719,0.017201662,-0.97848511,0.022643059,0.00041610608,-0.0098549481
30280000000,0.00016807206,-0.010160297,-1.0050985,0.016240358,-0.97794139,0.023419172,0.0011178879,-0.0098363534
30347500000,0.00020016171,-0.010448359,-1.0031747,0.016852677,-0.97717744,0.023276329,0.00069630053,-0.0099661946
30415000000,-0.00024907291,-0.010591892,-1.0042666,0.01726298,-0.97862434,0.025097817,0.00095974538,-0.0097895181
30482500000,0.00030732644,-0.010334617,-1.0042264,0.016029656,-0.97758067,0.023920625,0.00064912741,-0.0096772108
30550000000,0.00021735532,-0.01037452,-1.0034082,0.01669541,-0.9768343,0.025559992,0.0013131201,-0.0098844804
30617500000,0.00026218523,-0.010694502,-1.0045023,0.017564148,-0.97778875,0.024811059,0.0012434677,-0.010284891
30685000000,0.00031966367,-0.0103994,-1.0037111,0.016829073,-0.97584409,0.024919048,0.0019923632,-0.010428968
30752500000,0.00048064278,-0.010612882,-1.0023446,0.018244833,-0.97509187,0.02645731,0.0016644928,-0.010441883
30820000000,5.2514486e-005,-0.010821357,-1.0029014,0.016470224,-0.97672784,0.024875015,0.0015858179,-0.011264076
30887500000,0.00021123374,-0.01113558,-1.002461,0.017183363,-0.97437525,0.026064068,0.0014664535,-0.010587983
30955000000,0.00032744533,-0.011182,-1.0036372,0.017363936,-0.97515166,0.027520895,0.0019149899,-0.011177901
31022500000,0.00065222662,-0.011181448,-1.0042696,0.01812619,-0.9740957,0.027526051,0.00098624127,-0.011248482
31090000000,-2.4982262e-005,-0.011352796,-1.0030845,0.017561495,-0.97278547,0.02708751,0.0018637772,-0.011040532
31157500000,0.00019449973,-0.012056174,-1.0038593,0.018142283,-0.97206891,0.026803166,0.0014580684,-0.011224272
31225000000,0.00012522703,-0.012116268,-1.0037609,0.017337561,-0.97195125,0.027207881,0.0013561565,-0.011358345
31292500000,-0.00018719933,-0.011469924,-1.0027734,0.017528892,-0.97007692,0.027018547,0.0016422598,-0.011968915
31360000000,-0.00033154152,-0.012051364,-1.0036495,0.018646985,-0.97054374,0.026309922,0.00069776084,-0.01246009
31427500000,-0.00037760078,-0.01163172,-1.0018624,0.018020406,-0.96973217,0.027056023,0.00048421079,-0.012112205
31495000000,-0.00043014064,-0.011334654,-1.0018241,0.01867345,-0.96992064,0.027170509,0.00049407315,-0.011577117
31562500000,-0.0012446344,-0.011309289,-1.0032293,0.01897642,-0.9718942,0.026407942,0.00029754499,-0.011801367
31630000000,-0.00039738417,-0.011480114,-1.0026833,0.018052518,-0.97025144,0.025978029,0.00049035484,-0.011946037
31697500000,-0.0012645475,-0.0118465,-1.0037769,0.018437028,-0.97026175,0.02591303,-0.00026349118,-0.012044903
31765000000,-0.00081995269,-0.011301168,-1.0029507,0.018505335,-0.97191042,0.025411755,0.00011422392,-0.011518169
31832500000,-0.00073950272,-0.010980524,-1.0021224,0.019305825,-0.97153354,0.025898516,0.00025057793,-0.011828342
31900000000,-0.00089871523,-0.011736669,-1.0023702,0.019315295,-0.97144932,0.025832962,3.1205826e-005,-0.011316106
31967500000,-0.0010592374,-0.011309475,-1.0023341,0.018844828,-0.97299421,0.026384279,0.00031982257,-0.011265562
32035000000,-0.00040151086,-0.011462526,-1.0027581,0.018656075,-0.97266936,0.026596934,0.00018427009,-0.011648463
32102500000,-0.00079633121,-0.011354474,-1.0021397,0.019131325,-0.97205836,0.027389847,-5.4468284e-005,-0.01078991
32170000000,-0.0004373407,-0.011116665,-1.0016308,0.018917173,-0.97271293,0.027275294,0.00037165824,-0.011272548
32237500000,-0.00094513083,-0.011129783,-1.0024905,0.018548012,-0.9727965,0.027098864,0.00057865679,-0.011516915
32305000000,-0.0004351465,-0.011383358,-1.0022571,0.018292367,-0.97313583,0.027799726,0.00058102794,-0.011278342
32372500000,-0.00056420872,-0.011472204,-1.0014931,0.018383384,-0.97266316,0.028194845,0.00087343901,-0.01154661
32440000000,-0.00070682238,-0.011194288,-1.0024383,0.018908933,-0.97311914,0.028218195,0.00058697257,-0.011247676
32507500000,-0.00020768901,-0.011435731,-1.0010989,0.018381339,-0.97261107,0.028619397,0.0010418599,-0.011740359
32575000000,-0.0010889687,-0.011682892,-1.0014573,0.018271953,-0.97213101,0.029052168,0.00070108939,-0.012106488
32642500000,-0.00010679848,-0.010896748,-1.0020776,0.019215941,-0.97204626,0.028161287,0.00062515005,-0.012123389
32710000000,-0.0004183175,-0.011631188,-1.0018487,0.017897725,-0.97141737,0.027292609,-4.1823834e-005,-0.01227532
32777500000,-0.00060945982,-0.011446597,-1.0011593,0.018233284,-0.97169226,0.027862176,0.00035362085,-0.01210125
32845000000,-0.00085312221,-0.011560258,-1.0017468,0.018312275,-0.97084033,0.027893186,0.00040336233,-0.012790048
32912500000,-0.00050502084,-0.011734365,-1.0012721,0.017710865,-0.97132194,0.027300119,-0.00024355762,-0.013108568
32980000000,-0.00083635841,-0.011615342,-1.0024655,0.017805248,-0.97133762,0.026454985,9.0915244e-005,-0.012906772
33047500000,-0.00084968214,-0.011843295,-1.0033139,0.017621666,-0.97112381,0.024828851,-0.00066887587,-0.012858159
33115000000,-0.0014069907,-0.012053773,-1.0022382,0.017384157,-0.971178,0.024969757,-0.0003715335,-0.013043816
33182500000,-0.0013092132,-0.012018414,-1.0022333,0.018063933,-0.97159123,0.0241566,-0.00077142334,-0.013210004
33250000000,-0.0018594649,-0.011708811,-1.0025513,0.017152801,-0.97081649,0.023396,-0.0011967847,-0.013252727
33317500000,-0.0017400077,-0.011887143,-1.0023735,0.017516524,-0.97101563,0.023552686,-0.0016563474,-0.012920489
33385000000,-0.0017833407,-0.012227856,-1.0040047,0.018252909,-0.97114444,0.022431344,-0.0017579538,-0.013317022
33452500000,-0.0021019778,-0.011488011,-1.0033922,0.018051386,-0.97024691,0.021963626,-0.0017601764,-0.012940409
33520000000,-0.0019375205,-0.011259636,-1.0032476,0.018013924,-0.97268641,0.021709114,-0.0017970558,-0.013096667
33587500000,-0.0020063694,-0.011310698,-1.0038624,0.018345684,-0.97302401,0.019349545,-0.0024575947,-0.012932895
33655000000,-0.0021618959,-0.011492817,-1.0035541,0.017985478,-0.97138327,0.020804912,-0.0022831326,-0.012385991
33722500000,-0.0021309196,-0.011384618,-1.0037892,0.018102556,-0.97282547,0.021397084,-0.0022754832,-0.012308607
33790000000,-0.0025251422,-0.011506735,-1.0035833,0.018232435,-0.97249627,0.020449072,-0.0028546806,-0.011815173
33857500000,-0.0025186129,-0.01102958,-1.003667,0.018300056,-0.97318387,0.021439403,-0.0027431967,-0.011929981
33925000000,-0.0025544714,-0.010922672,-1.0037549,0.018994123,-0.97368938,0.02117011,-0.0027055957,-0.011751594
33992500000,-0.002604017,-0.010575932,-1.0042478,0.018531948,-0.97234398,0.020722926,-0.002982616,-0.011523686
34060000000,-0.0023419545,-0.010908486,-1.0037965,0.019149154,-0.97329438,0.021580726,-0.0028369026,-0.010995287
34127500000,-0.0026032524,-0.010922272,-1.0042623,0.019393295,-0.97438228,0.02166003,-0.0020655748,-0.011212116
34195000000,-0.0021470524,-0.010612625,-1.0038862,0.018887967,-0.97224998,0.022125751,-0.0026948233,-0.011322046
34262500000,-0.0021306206,-0.01104061,-1.0029941,0.019701779,-0.97259927,0.024389923,-0.0020402358,-0.010435019
34330000000,-0.0024900278,-0.010567421,-1.0040704,0.019464105,-0.97294497,0.023083597,-0.0021954756,-0.01096689
34397500000,-0.0022061476,-0.010841005,-1.0043638,0.019946873,-0.97119761,0.023141086,-0.0020958572,-0.010683425
34465000000,-0.0021241941,-0.010541514,-1.0044347,0.019824296,-0.97192281,0.025509417,-0.0016047545,-0.010737084
34532500000,-0.0022652028,-0.010970687,-1.0043232,0.019438684,-0.97170013,0.02497524,-0.001190671,-0.011102642
34600000000,-0.002352624,-0.010782139,-1.0043088,0.01915431,-0.97064447,0.025744364,-0.0011836581,-0.01129276
34667500000,-0.0022727568,-0.011059511,-1.0043061,0.019768536,-0.97066331,0.025970608,-0.0015729032,-0.01064253
34735000000,-0.0024471991,-0.011222884,-1.0046535,0.019165486,-0.9698143,0.025639951,-0.0011205617,-0.011469369
34802500000,-0.0022054538,-0.010741035,-1.0051725,0.020286053,-0.96833748,0.026881158,-0.0015953435,-0.011457331
34870000000,-0.0024661452,-0.011257365,-1.0049548,0.019698501,-0.96790057,0.026403308,-0.001472299,-0.011368007
34937500000,-0.002637397,-0.011060227,-1.0045557,0.019433647,-0.96866822,0.027079612,-0.0019533415,-0.011424325
35005000000,-0.0027786891,-0.011286239,-1.0051486,0.020106399,-0.96830058,0.02712897,-0.0016609948,-0.011548118
35072500000,-0.0031454407,-0.011226677,-1.0065703,0.019347072,-0.96811056,0.026250899,-0.0020942662,-0.011668589
35140000000,-0.0032099476,-0.011611647,-1.0048654,0.018986821,-0.9662599,0.02556783,-0.0021924025,-0.011569316
35207500000,-0.0036929836,-0.011333697,-1.0061393,0.019745529,-0.9678793,0.025163651,-0.0024580914,-0.011880258
35275000000,-0.0031557179,-0.011187986,-1.006304,0.020010032,-0.96828878,0.024275791,-0.0026610962,-0.011400284
35342500000,-0.0034191718,-0.010902706,-1.0053128,0.019581251,-0.96803623,0.02456101,-0.0027803832,-0.011381352
35410000000,-0.0037429756,-0.010737877,-1.005251,0.020975217,-0.97001582,0.023302212,-0.0028228567,-0.011177204
35477500000,-0.0038052259,-0.010672331,-1.0058283,0.019354552,-0.97089005,0.023354262,-0.003298017,-0.010842039
35545000000,-0.0036339757,-0.010817913,-1.0041972,0.020188659,-0.97103083,0.023800611,-0.0028186771,-0.010551418
35612500000,-0.00424144,-0.010263941,-1.0066446,0.021273106,-0.97159684,0.024849623,-0.0030574179,-0.010305585
35680000000,-0.0038240349,-0.010554496,-1.0057087,0.020297945,-0.97134542,0.024160534,-0.0028482447,-0.0098315347
35747500000,-0.0041820025,-0.01020328,-1.0044948,0.020976633,-0.97161674,0.025336295,-0.0026401242,-0.0099182865
35815000000,-0.0040394948,-0.0099578314,-1.00543,0.021751225,-0.97328639,0.024809837,-0.0027920601,-0.0098635983
35882500000,-0.0034164398,-0.0095457193,-1.0048052,0.021376543,-0.97337949,0.024907626,-0.0021624437,-0.0095918123
35950000000,-0.0037808062,-0.0099618854,-1.004101,0.022164017,-0.97285181,0.025871128,-0.0024108237,-0.010294551
36017500000,-0.003400425,-0.0095373327,-1.0039859,0.022032738,-0.9743104,0.025808081,-0.0025553317,-0.009684938
36085000000,-0.0033496174,-0.0095078843,-1.0050395,0.021611094,-0.97428286,0.026209414,-0.0023724586,-0.009672828
36152500000,-0.0039886963,-0.0095141977,-1.0061604,0.022034079,-0.9748323,0.026190057,-0.002655732,-0.0094526047
36220000000,-0.0036328239,-0.0089811441,-1.0044491,0.021482855,-0.97491336,0.02634123,-0.002271696,-0.0093982257
36287500000,-0.0030752388,-0.0095452433,-1.002228,0.02127862,-0.97593826,0.026483849,-0.0016319817,-0.0093021868
36355000000,-0.0030473182,-0.009392227,-1.0027374,0.022981256,-0.97692543,0.027208358,-0.002204661,-0.010155533
36422500000,-0.0028241856,-0.0093601961,-1.0049415,0.022298992,-0.97590601,0.026935101,-0.0019538933,-0.0098140482
36490000000,-0.0028824687,-0.009205482,-1.0046179,0.021073997,-0.97636837,0.028083362,-0.0013291622,-0.0097227925
36557500000,-0.002698153,-0.0094650909,-1.0032864,0.0218274,-0.976125,0.027569443,-0.0015783266,-0.01024155
36625000000,-0.0024527744,-0.0094939284,-1.0016991,0.021510571,-0.97567755,0.027186081,-0.0021650805,-0.010108871
36692500000,-0.0029086163,-0.0099244332,-1.0028508,0.022035062,-0.97596669,0.027718812,-0.0013106372,-0.010298835
36760000000,-0.002712579,-0.0097666541,-1.0047054,0.022161037,-0.97450006,0.027334869,-0.0018113186,-0.010694301
36827500000,-0.0026398809,-0.0097996341,-1.0045117,0.021164432,-0.97552043,0.02820541,-0.0018026108,-0.010536622
36895000000,-0.0026610505,-0.010098475,-1.0030093,0.021732628,-0.97678399,0.027421832,-0.0016734921,-0.010483348
36962500000,-0.0032194983,-0.0096651828,-1.0033227,0.021689147,-0.97462004,0.027559787,-0.002164802,-0.011095475
37030000000,-0.0024533174,-0.0096724061,-1.0037576,0.021170169,-0.97384393,0.026973963,-0.002287617,-0.010616352
37097500000,-0.0034048578,-0.010076508,-1.0041944,0.021894157,-0.97430509,0.0271734,-0.0022217799,-0.011379931
37165000000,-0.0031736945,-0.010035727,-1.0031347,0.020515591,-0.97208548,0.027095616,-0.0025528288,-0.011354567
37232500000,-0.0030998115,-0.010492067,-1.0022516,0.021867931,-0.97309375,0.027585119,-0.0026094972,-0.010923532
37300000000,-0.0035977727,-0.010519932,-1.0046548,0.022429496,-0.97346097,0.027040809,-0.0031702789,-0.011387436
37367500000,-0.0031991773,-0.010600593,-1.0060425,0.02202037,-0.97165358,0.026266277,-0.0034178945,-0.011370428
37435000000,-0.0032784501,-0.0096281692,-1.0048894,0.021484926,-0.97254932,0.027740519,-0.0030499552,-0.011279048
37502500000,-0.0036353902,-0.0097498652,-1.0046521,0.021916866,-0.97198224,0.026289791,-0.0031676318,-0.011274954
37570000000,-0.0036535494,-0.0099229962,-1.0044092,0.02246999,-0.9710961,0.02666631,-0.0032271957,-0.01088665
37637500000,-0.0040660701,-0.0096902745,-1.0049428,0.023039781,-0.97073835,0.026617229,-0.0036523319,-0.010885892
37705000000,-0.0038090094,-0.0096679274,-1.006234,0.023287624,-0.97015786,0.025987864,-0.0039927857,-0.011078717
37772500000,-0.0041464777,-0.0093781464,-1.0062813,0.022662595,-0.97073239,0.025391981,-0.0041044122,-0.01083569
37840000000,-0.0041137161,-0.010285541,-1.0067611,0.022508428,-0.97062039,0.02565594,-0.004298483,-0.010341107
37907500000,-0.0033742809,-0.0098747648,-1.0048031,0.022114068,-0.97098351,0.025583601,-0.0043720338,-0.0099371951
37975000000,-0.0037911811,-0.0092230029,-1.0033536,0.023016781,-0.97084284,0.02608192,-0.0038969945,-0.0098504974
38042500000,-0.0040146718,-0.0091831665,-1.003111,0.023834318,-0.97084028,0.025028467,-0.0043898271,-0.0094495434
38110000000,-0.0035232231,-0.0087431408,-1.004539,0.023329675,-0.97002792,0.025924504,-0.004389653,-0.0095440522
38177500000,-0.0039065965,-0.008730771,-1.0054109,0.025182217,-0.97089988,0.026640534,-0.0040282412,-0.0092620645
