!CSV A.01.01
!Keysight Technologies,N5247B,US56070639,A.17.30.08
!Date: Wednesday, July 22, 2026 09:45:38
!Source: Standard

BEGIN CH1_DATA
Freq(Hz),S21(REAL),S21(IMAG),S11(REAL),S11(IMAG),S22(REAL),S22(IMAG),S12(REAL),S12(IMAG)
26500000000,0.0020246338,-0.0088941455,-0.98684275,0.014481097,-0.98664701,0.027785838,0.0012760966,-0.009460493
26567500000,0.0017407297,-0.0092135891,-0.9853912,0.013978511,-0.98658735,0.028345048,0.0014154143,-0.0094386209
26635000000,0.0017581417,-0.0093541704,-0.98433506,0.014827669,-0.98579252,0.027567327,0.0013927133,-0.0096843662
26702500000,0.0017421269,-0.0092582637,-0.98369724,0.01539886,-0.98545814,0.028728023,0.001265835,-0.0097284345
26770000000,0.0016860312,-0.0091716386,-0.98312318,0.015644565,-0.9860788,0.027313218,0.0013042964,-0.0098811286
26837500000,0.0009380359,-0.0092068454,-0.98176616,0.016081199,-0.98465437,0.027254254,0.00039775576,-0.010013876
26905000000,0.0012370269,-0.009229823,-0.98191011,0.016157895,-0.9853847,0.027421772,0.00046564476,-0.010300391
26972500000,0.0009105471,-0.0096150469,-0.98021102,0.016485184,-0.98577547,0.026630223,0.00059572048,-0.0098752799
27040000000,0.0010527481,-0.0096142488,-0.98043323,0.017604886,-0.985111,0.026668925,0.00046055985,-0.010293622
27107500000,0.00060247304,-0.0095744701,-0.98009872,0.017790765,-0.98567939,0.026705384,0.00017896807,-0.010300623
27175000000,0.00085542107,-0.009472887,-0.97798252,0.017979391,-0.98505157,0.02564998,9.2803617e-005,-0.0098694796
27242500000,0.0011245077,-0.0098798368,-0.97657484,0.019558638,-0.98564357,0.02674067,0.00021201139,-0.009992782
27310000000,0.00086078461,-0.0097112898,-0.97675455,0.019649535,-0.98516738,0.027284026,0.00022105256,-0.010537794
27377500000,0.00084329094,-0.010214744,-0.97550923,0.020657539,-0.98458904,0.025555789,-0.00025233789,-0.010411476
27445000000,0.00090458849,-0.010116227,-0.97476822,0.020692676,-0.98470032,0.025675982,-0.00032640109,-0.010143109
27512500000,0.00025847275,-0.010616606,-0.97433233,0.020551085,-0.98630154,0.025899589,-0.00083933072,-0.010257427
27580000000,0.00058144471,-0.010211532,-0.97207206,0.021365762,-0.98465341,0.02513355,-0.00032656454,-0.010236789
27647500000,0.00033054175,-0.010163384,-0.97158009,0.021409452,-0.98489773,0.025722653,-0.00063588587,-0.011007508
27715000000,0.00034096208,-0.010594476,-0.97068059,0.021848321,-0.98563576,0.025170326,-0.0011393202,-0.010257631
27782500000,-4.6533532e-005,-0.01059963,-0.96958804,0.021495134,-0.98453116,0.024888784,-0.00082769012,-0.010905772
27850000000,-0.00036544213,-0.010396075,-0.96832073,0.021639273,-0.98587781,0.025165886,-0.0013741051,-0.010541792
27917500000,8.5737091e-005,-0.010916006,-0.96682602,0.021589875,-0.98517454,0.024299085,-0.0013862511,-0.011047955
27985000000,-0.00047458569,-0.010539979,-0.96694016,0.021568596,-0.98462176,0.024201035,-0.0016609207,-0.010623032
28052500000,-0.00078773871,-0.010396319,-0.96638119,0.020479679,-0.98573244,0.023416758,-0.0019712518,-0.010274721
28120000000,-0.0006382633,-0.010430995,-0.96462178,0.02077809,-0.98591113,0.023164213,-0.0020150889,-0.010267362
28187500000,-0.00058702898,-0.010451568,-0.96393442,0.020862393,-0.98517483,0.024217047,-0.0016725289,-0.010595012
28255000000,-0.0011894063,-0.01014295,-0.96361673,0.019611776,-0.98564065,0.023949951,-0.0018489396,-0.010366762
28322500000,-0.0012160008,-0.010092787,-0.96344942,0.019247741,-0.98542172,0.023214012,-0.0020267209,-0.010042066
28390000000,-0.0013740374,-0.010008899,-0.96376294,0.019273743,-0.98475182,0.024330646,-0.0020009014,-0.0096657248
28457500000,-0.0014283678,-0.0095714005,-0.96311361,0.018432617,-0.98566771,0.023831934,-0.0016287609,-0.0095803458
28525000000,-0.00091928756,-0.0096441591,-0.96259922,0.01901421,-0.98634887,0.024349719,-0.0018459095,-0.0098362882
28592500000,-0.00060670683,-0.0095627587,-0.96132249,0.018877983,-0.98526978,0.024130881,-0.0017281084,-0.0094780605
28660000000,-0.00093015144,-0.0099062435,-0.96137083,0.018105179,-0.98567474,0.023714095,-0.0015668254,-0.0099880984
28727500000,-0.00070485688,-0.00942499,-0.96144807,0.017717695,-0.98572969,0.024241071,-0.0015497608,-0.0092975451
28795000000,-0.00070608576,-0.0094405264,-0.96217626,0.017248571,-0.98524719,0.024226949,-0.0014228823,-0.0093576005
28862500000,-0.00050317869,-0.0096747214,-0.9619776,0.017232805,-0.98515964,0.024099499,-0.0015165559,-0.0094251875
28930000000,-0.00060439715,-0.0095769651,-0.96264052,0.017000109,-0.98549283,0.023270309,-0.0012316201,-0.0098410044
28997500000,-0.00033792958,-0.0097584929,-0.96188951,0.017259702,-0.98527896,0.023612916,-0.0014322803,-0.0095701227
29065000000,-0.00041113503,-0.0098695578,-0.96186525,0.017142862,-0.98605019,0.024582893,-0.00094776903,-0.0094766263
29132500000,-0.00021992996,-0.0099950479,-0.9626199,0.017045617,-0.98511505,0.024221033,-0.0012076991,-0.0098544825
29200000000,-0.00019143755,-0.010450043,-0.96269256,0.016774297,-0.98447514,0.023760647,-0.0011528176,-0.010085367
29267500000,-0.00036280934,-0.010034301,-0.96337193,0.017913612,-0.98540169,0.023724159,-0.0010681878,-0.010058696
29335000000,-7.5756456e-005,-0.010489929,-0.96331459,0.018624455,-0.98488522,0.023116581,-0.00082748942,-0.010352814
29402500000,-7.4058888e-005,-0.010980781,-0.96249521,0.019394837,-0.98516756,0.022756003,-0.00081300229,-0.010440326
29470000000,0.00031551626,-0.010588788,-0.96345621,0.021331802,-0.98580927,0.022616595,-0.0012122688,-0.010852292
29537500000,-0.0002071436,-0.010983268,-0.96169549,0.020296872,-0.98490775,0.021901518,-0.0011584298,-0.010955404
29605000000,-0.0003596223,-0.011245243,-0.96132159,0.021551847,-0.98507559,0.022798747,-0.0014311695,-0.010948796
29672500000,-0.00025707157,-0.010969935,-0.96211278,0.021793544,-0.98536974,0.021730006,-0.00097479811,-0.011280798
29740000000,-0.00038705627,-0.010956837,-0.96070707,0.0216299,-0.98495257,0.021518975,-0.0015042089,-0.010923102
29807500000,-0.00041333772,-0.011103795,-0.9606297,0.023675799,-0.98558307,0.02185756,-0.0014815726,-0.011360416
29875000000,-0.00075173331,-0.011499524,-0.95990634,0.024020791,-0.98682272,0.020536423,-0.0024745381,-0.01136891
29942500000,-0.00062406284,-0.0111964,-0.95848048,0.023673661,-0.98607707,0.020772133,-0.0015968289,-0.01103084
30010000000,-0.0011609602,-0.011610903,-0.95765865,0.025128871,-0.98636198,0.021542907,-0.0018871976,-0.010755574
30077500000,-0.001021489,-0.011676281,-0.95875871,0.024903804,-0.98643482,0.021052182,-0.001855358,-0.011085678
30145000000,-0.0010954156,-0.011181641,-0.95809871,0.024725169,-0.985744,0.021165669,-0.0020548021,-0.011271392
30212500000,-0.0010282602,-0.011698934,-0.95735002,0.026095718,-0.98744112,0.020790011,-0.0021342828,-0.011286065
30280000000,-0.0013996609,-0.011243382,-0.95702887,0.026282787,-0.98679411,0.02145499,-0.0019012368,-0.01143912
30347500000,-0.00095138559,-0.01174855,-0.95518404,0.02734226,-0.98605716,0.020989209,-0.0021039189,-0.01152239
30415000000,-0.0013184829,-0.011570998,-0.95606101,0.02758231,-0.98684251,0.022517338,-0.002065266,-0.01131744
30482500000,-0.0010195004,-0.011787623,-0.95556211,0.027496018,-0.98704362,0.021456286,-0.0020895754,-0.011748414
30550000000,-0.0013503814,-0.011789643,-0.95415074,0.028191507,-0.98602968,0.022804677,-0.0018842747,-0.011999862
30617500000,-0.0011659594,-0.012271715,-0.95392096,0.029501989,-0.98617506,0.022391446,-0.0017647295,-0.011930252
30685000000,-0.0010592211,-0.011964371,-0.95251238,0.030140281,-0.98495644,0.022069454,-0.0013562869,-0.012483549
30752500000,-0.0010807215,-0.012821587,-0.94943088,0.031326786,-0.9845016,0.022671133,-0.0020026141,-0.012232559
30820000000,-0.0015888372,-0.012646837,-0.94828141,0.0310404,-0.98586351,0.022401333,-0.0022808625,-0.013075122
30887500000,-0.0019108094,-0.012421933,-0.94669062,0.031499058,-0.9837687,0.022594392,-0.0023175194,-0.012878673
30955000000,-0.0023534745,-0.012983424,-0.94639397,0.031702969,-0.98405933,0.023523338,-0.0018246486,-0.013375401
31022500000,-0.0019680266,-0.013240269,-0.94518113,0.032433182,-0.98368877,0.023350298,-0.0030311965,-0.01352255
31090000000,-0.0020910334,-0.013273226,-0.9439348,0.031747222,-0.98301631,0.023065746,-0.0029620817,-0.013605431
31157500000,-0.0031526615,-0.012949557,-0.94106191,0.032999128,-0.98132622,0.023408383,-0.0032715257,-0.01438982
31225000000,-0.0028989944,-0.01398694,-0.93995303,0.031853423,-0.9819932,0.023589224,-0.0032668135,-0.013798366
31292500000,-0.002738853,-0.013535831,-0.93784207,0.031007439,-0.98110539,0.022850245,-0.003674906,-0.014745071
31360000000,-0.004078588,-0.013837237,-0.93675804,0.03079503,-0.98200965,0.022814929,-0.0042912038,-0.014152593
31427500000,-0.0038077291,-0.013247546,-0.93597478,0.030384485,-0.98109174,0.022884412,-0.0053047366,-0.013729944
31495000000,-0.0032920914,-0.013434398,-0.93564606,0.030164778,-0.98179817,0.022769481,-0.0051355744,-0.013933981
31562500000,-0.0046965731,-0.01332769,-0.93522596,0.028868854,-0.98215199,0.022784978,-0.0057838429,-0.013571172
31630000000,-0.0046872618,-0.013383644,-0.93368912,0.029220909,-0.98070753,0.022802263,-0.0059279189,-0.013266992
31697500000,-0.0041201944,-0.013143294,-0.93306869,0.029162228,-0.98185325,0.02316618,-0.0061001936,-0.013090003
31765000000,-0.0046971757,-0.01299168,-0.93157917,0.028793216,-0.98208505,0.022145808,-0.0065016332,-0.013056595
31832500000,-0.0047558756,-0.013243584,-0.93032312,0.028410494,-0.98220783,0.022374332,-0.0064635687,-0.012864436
31900000000,-0.0048818053,-0.012521449,-0.92940277,0.028764226,-0.98248535,0.022761241,-0.0066619799,-0.012674456
31967500000,-0.0045935889,-0.012607406,-0.93032348,0.028451337,-0.98295432,0.02342049,-0.0065880246,-0.012108825
32035000000,-0.0048695635,-0.012659957,-0.92785156,0.027644068,-0.98302799,0.023458064,-0.006971824,-0.012549653
32102500000,-0.0051019192,-0.012370823,-0.92662585,0.028355226,-0.98329294,0.02339384,-0.0069548069,-0.01217616
32170000000,-0.0051091556,-0.012249146,-0.92593348,0.028320849,-0.98381698,0.023189276,-0.0068436582,-0.011925414
32237500000,-0.0053234054,-0.012159965,-0.92537028,0.027258486,-0.98296452,0.023559839,-0.0070102853,-0.011537408
32305000000,-0.0050223623,-0.012571077,-0.92214155,0.02814725,-0.98426074,0.023495466,-0.0070904009,-0.012045303
32372500000,-0.0058167111,-0.012572384,-0.92080176,0.027863473,-0.9833467,0.023461372,-0.0074036792,-0.0122132
32440000000,-0.0059998771,-0.012356807,-0.92049336,0.027599607,-0.98337507,0.023748644,-0.0077767638,-0.012134164
32507500000,-0.0058490708,-0.012555423,-0.91666311,0.0260766,-0.98361462,0.023435935,-0.0076400703,-0.012410305
32575000000,-0.0066336324,-0.011960114,-0.9150703,0.024470866,-0.98358917,0.024023712,-0.0081615923,-0.011931483
32642500000,-0.0063498393,-0.011714682,-0.91540909,0.023112327,-0.98307872,0.023309112,-0.008499613,-0.011914987
32710000000,-0.0069476767,-0.012172464,-0.91270208,0.020876527,-0.98386657,0.022521019,-0.0095500685,-0.011756416
32777500000,-0.0069904597,-0.011454748,-0.9096272,0.019588768,-0.98305351,0.022570044,-0.0093730101,-0.011038443
32845000000,-0.0072864704,-0.01109089,-0.90878367,0.016871452,-0.9831692,0.022638977,-0.0099975197,-0.010571652
32912500000,-0.0075173005,-0.010832686,-0.90787125,0.013680249,-0.98362303,0.022048861,-0.010483002,-0.0099587291
32980000000,-0.0078056976,-0.0104306,-0.90558684,0.0091510713,-0.98435462,0.02157414,-0.010105837,-0.01009917
33047500000,-0.0079201264,-0.0098744128,-0.9055512,0.0043028295,-0.98417938,0.020487919,-0.010402592,-0.0085767107
33115000000,-0.0082710087,-0.0093092602,-0.90675783,0.00079028308,-0.9850319,0.019648768,-0.010485095,-0.0080828415
33182500000,-0.0079161394,-0.0085727246,-0.90841967,-0.002187252,-0.98598605,0.019266188,-0.010346558,-0.0067886324
33250000000,-0.0079310462,-0.0080238897,-0.9099353,-0.0053410232,-0.98480994,0.018772215,-0.0099012274,-0.0064131999
33317500000,-0.0073846132,-0.0079619791,-0.91241801,-0.0080265999,-0.98491657,0.0189192,-0.0092795724,-0.005520951
33385000000,-0.007631544,-0.0071224486,-0.91676426,-0.011778653,-0.98597765,0.018084884,-0.0092952475,-0.0061327135
33452500000,-0.0070439912,-0.0063436111,-0.9200598,-0.014162242,-0.98499244,0.018103033,-0.0084654642,-0.0048070643
33520000000,-0.0068071666,-0.0063591152,-0.92517984,-0.014461219,-0.98655999,0.018229365,-0.0076266662,-0.0052512195
33587500000,-0.0064986302,-0.0056834212,-0.9275555,-0.014681637,-0.98728204,0.01681444,-0.0078601185,-0.0050813397
33655000000,-0.0055631446,-0.0063269599,-0.93098128,-0.014860073,-0.98691672,0.017844098,-0.0067881844,-0.0049647028
33722500000,-0.005030205,-0.0059549157,-0.93424606,-0.012914211,-0.98757976,0.018497884,-0.006703076,-0.0051646959
33790000000,-0.0044993586,-0.0062257322,-0.93558538,-0.011711478,-0.98670733,0.018173292,-0.0058066193,-0.0050120251
33857500000,-0.0044950829,-0.0065172594,-0.93860924,-0.011201739,-0.98756313,0.019256085,-0.0059757628,-0.0052655837
33925000000,-0.0044812923,-0.0060689463,-0.93991137,-0.0089149475,-0.98785335,0.019223452,-0.005337853,-0.0052828756
33992500000,-0.0039744014,-0.0065500317,-0.94251084,-0.00764063,-0.9878999,0.019102156,-0.0054145716,-0.0059988843
34060000000,-0.0039341464,-0.0064317258,-0.94183904,-0.0064404905,-0.98793179,0.020326585,-0.0052799811,-0.0057063326
34127500000,-0.0036457046,-0.0068125594,-0.9433592,-0.0040591005,-0.98845112,0.019999977,-0.0049795778,-0.0060249385
34195000000,-0.003715938,-0.0067339125,-0.9439714,-0.0015748739,-0.98662066,0.020518214,-0.004858851,-0.0063204286
34262500000,-0.0037443282,-0.0069525633,-0.94290602,-0.0010355413,-0.98604238,0.021463156,-0.0044397064,-0.0064426959
34330000000,-0.0034230377,-0.0070248907,-0.94387263,0.00049179792,-0.9870317,0.022273883,-0.0044368594,-0.0062467237
34397500000,-0.0032789088,-0.0073515121,-0.94428051,0.0028474331,-0.98573196,0.021933079,-0.00430327,-0.00658395
34465000000,-0.0035110195,-0.007333193,-0.94419867,0.003292501,-0.9858532,0.02262798,-0.0045452677,-0.006893564
34532500000,-0.0032599627,-0.007721669,-0.94243073,0.0038730502,-0.98536587,0.022354662,-0.0042062378,-0.0071498966
34600000000,-0.0029301278,-0.0081815524,-0.94102079,0.0053614676,-0.98445356,0.023606971,-0.0044174991,-0.0075767967
34667500000,-0.0031516491,-0.0082514705,-0.94021469,0.0063847899,-0.98505104,0.023648709,-0.004227587,-0.006910413
34735000000,-0.0033955474,-0.0083428556,-0.93968511,0.0069126189,-0.98514473,0.023023248,-0.0039137308,-0.0078868074
34802500000,-0.0034281388,-0.008848845,-0.93908083,0.0078924,-0.98238772,0.024575293,-0.0048512253,-0.0083285542
34870000000,-0.003588771,-0.0088760089,-0.93762773,0.0084937513,-0.98290712,0.02363646,-0.0048915041,-0.0085226307
34937500000,-0.0037111705,-0.0090567414,-0.93459547,0.0071484447,-0.98361063,0.024166226,-0.0050933845,-0.0083664609
35005000000,-0.004050687,-0.0094179697,-0.93427962,0.0074711144,-0.98356509,0.024311513,-0.0047689313,-0.0085153459
35072500000,-0.0041209324,-0.0094318353,-0.93245494,0.0053953528,-0.98327631,0.024012521,-0.0056138188,-0.0085117994
35140000000,-0.004705424,-0.0088622831,-0.93118352,0.0040145703,-0.9815554,0.02399705,-0.0061027668,-0.0087120486
35207500000,-0.0050171148,-0.00904838,-0.93112981,0.0046373159,-0.98304814,0.02391009,-0.0063094273,-0.0085312854
35275000000,-0.0049508512,-0.0087425448,-0.93112493,0.0033568442,-0.98288292,0.023015052,-0.0061577833,-0.0079440083
35342500000,-0.0052306745,-0.0084707495,-0.93112272,0.00036074221,-0.98152459,0.024437547,-0.0067677647,-0.0084687844
35410000000,-0.0058067185,-0.0092224404,-0.92936563,0.00093320012,-0.98347467,0.02328831,-0.0068850494,-0.0075646676
35477500000,-0.0057034623,-0.0089618927,-0.93043065,-0.001345396,-0.98414719,0.022738218,-0.0064905817,-0.0071138898
35545000000,-0.0057518324,-0.0084305583,-0.93121445,-0.0023274124,-0.98426104,0.023179412,-0.00689271,-0.0066240113
35612500000,-0.0062287846,-0.0079618432,-0.93429273,-0.0048232675,-0.98443091,0.023518711,-0.0066073011,-0.0066581196
35680000000,-0.0058233691,-0.0081539918,-0.93402696,-0.0048291683,-0.98436618,0.023934901,-0.006245913,-0.0064281719
35747500000,-0.0059653437,-0.0077690817,-0.93376571,-0.0056189001,-0.98478365,0.024744153,-0.0060693771,-0.0067940317
35815000000,-0.0060255309,-0.0075444807,-0.93500078,-0.0041321516,-0.98635882,0.024049878,-0.0063551897,-0.0061841356
35882500000,-0.0058380123,-0.0072993478,-0.93682659,-0.0037259161,-0.9861089,0.024065673,-0.0051821964,-0.0066314479
35950000000,-0.005511771,-0.0072596488,-0.93733883,-0.0026374608,-0.98599595,0.024853155,-0.0062812483,-0.0059116748
36017500000,-0.0055093416,-0.0068431087,-0.93797088,-0.0010623448,-0.98731822,0.024492901,-0.0059624235,-0.0060304371
36085000000,-0.005539455,-0.0067097135,-0.93933201,-0.0012607276,-0.98751807,0.023910046,-0.0058361944,-0.006130564
36152500000,-0.005450957,-0.0077212965,-0.94005829,0.00073576719,-0.98834085,0.024618603,-0.0059209941,-0.0060751033
36220000000,-0.0057322751,-0.0063530235,-0.93937409,0.0026777685,-0.98821896,0.024187118,-0.0054884697,-0.006128897
36287500000,-0.0052625397,-0.0068003833,-0.93692011,0.0032211081,-0.98881161,0.023912031,-0.0051126289,-0.0063607199
36355000000,-0.0048751757,-0.0069125444,-0.93545747,0.0055868626,-0.98959082,0.024015188,-0.0057386998,-0.0067125726
36422500000,-0.0046493909,-0.0071412204,-0.93657553,0.0060985088,-0.98988545,0.023961395,-0.0057898923,-0.0065097488
36490000000,-0.0051194704,-0.0077218083,-0.93528712,0.0063913763,-0.99016207,0.02468437,-0.0054236394,-0.0071202246
36557500000,-0.0048956592,-0.0073438366,-0.93084919,0.0081096888,-0.99019945,0.024312854,-0.0058532162,-0.0075654606
36625000000,-0.0044390904,-0.0076590306,-0.92932385,0.0094238445,-0.98969376,0.024171621,-0.0059452839,-0.0069508734
36692500000,-0.0045005386,-0.0077941958,-0.92822599,0.0095528662,-0.99026805,0.024965167,-0.0059899641,-0.0076048267
36760000000,-0.00527748,-0.0077437432,-0.9268989,0.0092411339,-0.98985213,0.024244964,-0.0068801595,-0.0076708035
36827500000,-0.0050515076,-0.0082314843,-0.9246487,0.0085763633,-0.99016559,0.025274813,-0.006766676,-0.0077227736
36895000000,-0.0056641153,-0.0082661854,-0.92154372,0.0086457431,-0.99140811,0.025121003,-0.0072763907,-0.0078050275
36962500000,-0.0061510727,-0.0083561875,-0.91930622,0.0081944466,-0.99062437,0.024302095,-0.0077109667,-0.0078871138
37030000000,-0.0064049372,-0.0084508136,-0.91608083,0.0060987771,-0.98952341,0.024208218,-0.008215568,-0.0072801011
37097500000,-0.0068281409,-0.0081147542,-0.91528606,0.0039248466,-0.99006677,0.025119483,-0.0087292101,-0.0072597242
37165000000,-0.0073116892,-0.008199092,-0.90996552,0.0013174713,-0.9887172,0.025178164,-0.0093856528,-0.0070741633
37232500000,-0.007759287,-0.0080290474,-0.90777034,3.8802624e-005,-0.99002904,0.02499935,-0.010043607,-0.006350656
37300000000,-0.0081652813,-0.0078526884,-0.90757632,-0.0026896596,-0.99015379,0.025209635,-0.010406498,-0.0060621072
37367500000,-0.009067039,-0.0070258053,-0.90561777,-0.0058218241,-0.98849338,0.024864763,-0.010795964,-0.0056605311
37435000000,-0.0093513969,-0.0074797706,-0.90446746,-0.010187984,-0.98927706,0.026237935,-0.011095851,-0.0052473526
37502500000,-0.0096252933,-0.0064245132,-0.90276086,-0.015451103,-0.98936546,0.025404662,-0.011563864,-0.0042418945
37570000000,-0.010385003,-0.0057910881,-0.90053898,-0.020851046,-0.98814964,0.025623262,-0.012024133,-0.0030408632
37637500000,-0.010878667,-0.0052048629,-0.90139127,-0.025925457,-0.98829657,0.02613315,-0.012028836,-0.0018518437
37705000000,-0.010999256,-0.0035418987,-0.90407521,-0.031258114,-0.98765326,0.025449149,-0.012175157,-0.00089671987
37772500000,-0.011387383,-0.0025387187,-0.90412039,-0.04152596,-0.98714703,0.025156856,-0.011732097,0.00049290201
37840000000,-0.011285101,-0.0021064,-0.90365767,-0.047482967,-0.98714918,0.025681943,-0.011209132,0.0016517497
37907500000,-0.011172168,-0.00069002784,-0.90534335,-0.050993875,-0.98694485,0.02560477,-0.01091169,0.0026977723
37975000000,-0.010820307,0.0010986556,-0.91065305,-0.056473255,-0.98790067,0.025975019,-0.0091828313,0.003913905
38042500000,-0.010113079,0.0011417274,-0.91717803,-0.06143266,-0.98745048,0.026087821,-0.0077692415,0.0042149546
