!CSV A.01.01
!Keysight Technologies,N5247B,US56070639,A.17.30.08
!Date: Wednesday, July 22, 2026 11:31:58
!Source: Standard

BEGIN CH1_DATA
Freq(Hz),S21(REAL),S21(IMAG),S11(REAL),S11(IMAG),S22(REAL),S22(IMAG),S12(REAL),S12(IMAG)
26500000000,0.0026790658,-0.0028627315,-1.0097232,0.019942254,-0.97171515,0.037250012,0.0028570993,-0.0028772864
26567500000,0.0023037442,-0.0028802585,-1.0082049,0.017980397,-0.9719069,0.037303001,0.0029913879,-0.0027806077
26635000000,0.0029329869,-0.0030392795,-1.006708,0.018922836,-0.96859908,0.037318438,0.002628525,-0.0028128356
26702500000,0.0024804797,-0.0032218299,-1.0084636,0.019773766,-0.9697749,0.038587108,0.0030242945,-0.0030723533
26770000000,0.0025124506,-0.0031090921,-1.0087217,0.018216558,-0.97025895,0.035530731,0.0031871519,-0.0029212362
26837500000,0.0023564652,-0.0028864017,-1.0071578,0.019259945,-0.96748912,0.036765143,0.0027406306,-0.0031528291
26905000000,0.0028010532,-0.0026421237,-1.0100471,0.018381953,-0.97030741,0.036429226,0.0024306667,-0.0026614915
26972500000,0.0025740073,-0.003201769,-1.0078024,0.018589467,-0.96990621,0.03561312,0.002826846,-0.002970469
27040000000,0.0023476097,-0.0030916866,-1.0088888,0.02021067,-0.96687156,0.036223304,0.003087831,-0.0028390298
27107500000,0.0027426092,-0.0029342058,-1.0096284,0.018744856,-0.96920335,0.036355495,0.0028020968,-0.0029371697
27175000000,0.0024706786,-0.0029397027,-1.0071571,0.017972067,-0.96840435,0.033754215,0.0031435699,-0.0029189426
27242500000,0.0026206754,-0.0026750241,-1.0077169,0.01956892,-0.96840996,0.036434263,0.0028876895,-0.003036856
27310000000,0.0031164889,-0.0027427152,-1.008904,0.017626941,-0.96831673,0.036769971,0.0030816675,-0.002737911
27377500000,0.0030138097,-0.0028013401,-1.0073532,0.018723905,-0.96614367,0.034800053,0.0031776184,-0.0027720123
27445000000,0.0032015184,-0.0028935573,-1.0081785,0.01913777,-0.96646017,0.035763144,0.0028320793,-0.0029145128
27512500000,0.0027162919,-0.0029152113,-1.0090387,0.017603248,-0.96902776,0.034959197,0.0029280104,-0.0029044792
27580000000,0.0028666041,-0.0030019786,-1.0062795,0.018978506,-0.96584702,0.035563499,0.0032992298,-0.0028377511
27647500000,0.003055878,-0.0030732122,-1.0088433,0.019016057,-0.96626639,0.037072957,0.002773443,-0.0031087575
27715000000,0.0032779614,-0.0030032895,-1.0087969,0.018124521,-0.96701968,0.03498897,0.0030364657,-0.0028609312
27782500000,0.0031459883,-0.0029021357,-1.0084261,0.018893898,-0.96557987,0.035586417,0.0032687737,-0.0025644323
27850000000,0.0032587748,-0.0031497993,-1.0088347,0.019251004,-0.96661788,0.036912963,0.0032007792,-0.0027380376
27917500000,0.0030110194,-0.0032377471,-1.0084364,0.018255562,-0.96500897,0.034819245,0.0033643516,-0.0029222998
27985000000,0.0032975869,-0.003172731,-1.008124,0.020252049,-0.9632439,0.03528899,0.0032584916,-0.0027964192
28052500000,0.0031311223,-0.0031310418,-1.0091498,0.018722981,-0.96506834,0.034669667,0.0029602405,-0.0028303638
28120000000,0.0030514263,-0.0032862434,-1.0084585,0.01901406,-0.96588266,0.033496678,0.0030638464,-0.0029306379
28187500000,0.0032583466,-0.0031318457,-1.0079564,0.019410625,-0.96457481,0.035228848,0.0034000995,-0.0029924489
28255000000,0.0030124679,-0.0031560778,-1.0087161,0.020168841,-0.96557754,0.03482306,0.0033237434,-0.002762048
28322500000,0.0030500144,-0.0031529935,-1.007386,0.018973708,-0.96479368,0.033531606,0.0031242867,-0.0028775544
28390000000,0.0033017318,-0.0035826948,-1.0085402,0.020157553,-0.96433914,0.034922317,0.0034440984,-0.00267612
28457500000,0.0030215434,-0.0030414413,-1.007936,0.019342512,-0.96574831,0.034656554,0.003179579,-0.0026868496
28525000000,0.0035140577,-0.0028905803,-1.0077348,0.019565791,-0.96574897,0.035145849,0.0034351696,-0.0027006413
28592500000,0.0034092078,-0.0030183685,-1.0071144,0.020117015,-0.96389365,0.035496235,0.0035249996,-0.002737459
28660000000,0.0034151899,-0.0027104185,-1.0086459,0.019518405,-0.96573573,0.035646319,0.0037726604,-0.0024618185
28727500000,0.003418549,-0.002882445,-1.0081995,0.020328321,-0.96527088,0.03526647,0.0035533102,-0.0026251043
28795000000,0.0032600341,-0.0026907325,-1.0079339,0.018755212,-0.96458673,0.037486598,0.0035216594,-0.0027987538
28862500000,0.0032983308,-0.0029614449,-1.0082338,0.019687355,-0.96487927,0.036947012,0.0034254177,-0.0026682299
28930000000,0.003865792,-0.0030611216,-1.0082856,0.01918903,-0.96413445,0.035154551,0.0035224282,-0.0029141591
28997500000,0.0036674058,-0.0030106066,-1.008049,0.019183964,-0.963817,0.035968937,0.003927968,-0.002572112
29065000000,0.0038669894,-0.0028758124,-1.0087757,0.019366935,-0.96507895,0.037741616,0.0038852221,-0.0025171838
29132500000,0.0039157048,-0.0031158754,-1.0084014,0.018340796,-0.96389508,0.036893874,0.0037947767,-0.0028410228
29200000000,0.0038020215,-0.0033403628,-1.0082757,0.019361109,-0.96214557,0.036946565,0.0040298421,-0.0029226225
29267500000,0.0035934618,-0.0031802137,-1.009614,0.019181311,-0.96425366,0.036257837,0.0041468232,-0.0028661494
29335000000,0.0040032482,-0.0028251845,-1.0088806,0.018529266,-0.96286565,0.035279796,0.0042145671,-0.0028287454
29402500000,0.0046244911,-0.0032603464,-1.0078001,0.019741356,-0.96319211,0.036546312,0.0040877378,-0.0028526699
29470000000,0.0041034315,-0.0030200197,-1.0095677,0.019826561,-0.96374196,0.03605105,0.0042676651,-0.0032110447
29537500000,0.004286062,-0.0034478875,-1.00906,0.018192083,-0.96143168,0.034208283,0.0042260922,-0.0029627897
29605000000,0.0045212535,-0.0035621382,-1.0083853,0.019462466,-0.96255147,0.035365373,0.0043832227,-0.0030927565
29672500000,0.0042658262,-0.0037300265,-1.0113,0.018662006,-0.96318495,0.034095675,0.004318309,-0.0030984241
29740000000,0.0044199442,-0.0034323386,-1.0092144,0.01908052,-0.96159124,0.033969551,0.004299127,-0.0031397475
29807500000,0.0043087145,-0.003594371,-1.0096437,0.019827485,-0.96144152,0.034042418,0.0046223584,-0.0030220335
29875000000,0.0047494848,-0.003615374,-1.0106645,0.020024031,-0.96371931,0.031832904,0.0041127172,-0.0034848491
29942500000,0.0042217104,-0.0036223107,-1.0090243,0.018538231,-0.96287382,0.031615812,0.0044629467,-0.0029517768
30010000000,0.0043179402,-0.0038478971,-1.009887,0.020630985,-0.96476066,0.034208655,0.0044909408,-0.0030223997
30077500000,0.0045427,-0.0038476672,-1.0112571,0.01950711,-0.96433693,0.031533986,0.0043604448,-0.0031740468
30145000000,0.0043453421,-0.0038235451,-1.0092503,0.019503027,-0.96204507,0.032835186,0.0047108554,-0.0033063567
30212500000,0.0048010009,-0.0042933309,-1.010323,0.020995438,-0.96538854,0.032296121,0.0045575574,-0.0030884366
30280000000,0.0043027028,-0.0037955134,-1.0104057,0.019590229,-0.96515715,0.032480687,0.0046482459,-0.0030727657
30347500000,0.0044627846,-0.0038824906,-1.0084743,0.020284027,-0.96343827,0.032633185,0.0047310959,-0.0031935871
30415000000,0.0044643609,-0.0042603202,-1.0099435,0.020842165,-0.96564686,0.034631729,0.0045583081,-0.0034097726
30482500000,0.0046006595,-0.0039806613,-1.0101882,0.019177213,-0.96452105,0.033282995,0.0047873235,-0.0030844097
30550000000,0.0046886797,-0.0041264766,-1.0094279,0.020298511,-0.96377939,0.035803616,0.004918118,-0.0029857664
30617500000,0.0048019025,-0.0039026937,-1.0106058,0.021183506,-0.96530855,0.035756499,0.0052188653,-0.0031168922
30685000000,0.0049710842,-0.0040369998,-1.0098423,0.019674808,-0.96275336,0.035586417,0.0053285584,-0.002922128
30752500000,0.0051282691,-0.0041247392,-1.0077705,0.021707982,-0.96169245,0.037448943,0.005236391,-0.0032326048
30820000000,0.0050810156,-0.0045212158,-1.0090898,0.019295335,-0.96357155,0.035544425,0.0054565729,-0.0033401069
30887500000,0.0051185926,-0.0043024924,-1.0084049,0.020799577,-0.96054494,0.036808759,0.0055411877,-0.0034082117
30955000000,0.0049366048,-0.0047564111,-1.0097115,0.020421997,-0.96141207,0.039018258,0.0058271,-0.0032625401
31022500000,0.0053681494,-0.0048427386,-1.0103843,0.021209896,-0.95988524,0.038788289,0.0058203177,-0.0040538684
31090000000,0.0051046959,-0.0046778428,-1.0083641,0.020682484,-0.95799661,0.038349926,0.0056860805,-0.0038219097
31157500000,0.0048005925,-0.004940412,-1.0093743,0.02165547,-0.95742399,0.038765103,0.0061250562,-0.0038732258
31225000000,0.005373545,-0.0053612189,-1.0096726,0.020747006,-0.9569186,0.0380193,0.0053734733,-0.0042340225
31292500000,0.0053470163,-0.0050754901,-1.0082273,0.021139294,-0.95464027,0.038327187,0.0063488442,-0.0041234563
31360000000,0.0055326694,-0.0054200576,-1.008962,0.022721574,-0.95592666,0.037660152,0.0059399689,-0.0044645616
31427500000,0.0050280485,-0.0054194042,-1.0082347,0.021829519,-0.95445877,0.03722195,0.0062003792,-0.0044510434
31495000000,0.0050799325,-0.0051940903,-1.0075231,0.022513837,-0.95385712,0.037385136,0.0059145801,-0.0044871187
31562500000,0.0050535351,-0.0055911699,-1.0089021,0.02213949,-0.95508945,0.036779672,0.0056665568,-0.0044977814
31630000000,0.0050445227,-0.0056171315,-1.0082561,0.021276623,-0.95374399,0.035859376,0.0056018978,-0.004787344
31697500000,0.0049661095,-0.0054824948,-1.0096292,0.021933138,-0.95437944,0.035310268,0.0057221055,-0.0049619009
31765000000,0.0047570802,-0.0054921871,-1.0085822,0.021835357,-0.95561504,0.035149395,0.0052977479,-0.0050393948
31832500000,0.0045518968,-0.0056079971,-1.0079426,0.022725642,-0.95562565,0.035207421,0.0055649555,-0.0047974158
31900000000,0.0047912775,-0.0060724244,-1.0077014,0.022283606,-0.95516264,0.035212036,0.0056383563,-0.0046804729
31967500000,0.0045668646,-0.0057085785,-1.0083812,0.022276536,-0.95595419,0.035555176,0.0052911444,-0.0046716598
32035000000,0.0048995633,-0.0054420624,-1.0084721,0.021776736,-0.9561671,0.03596586,0.0053551216,-0.004872615
32102500000,0.0047680908,-0.005436074,-1.0070561,0.02284801,-0.95577568,0.036683813,0.0053674304,-0.0047720671
32170000000,0.0049029253,-0.0052807005,-1.0076796,0.022304356,-0.95632148,0.036409944,0.0054506077,-0.0044004386
32237500000,0.0050040842,-0.0051308121,-1.0075084,0.021751016,-0.95619065,0.036744565,0.0052404511,-0.0046839858
32305000000,0.0049491948,-0.0052983486,-1.0075724,0.021262228,-0.95668852,0.037570268,0.0054592313,-0.0046839505
32372500000,0.005216362,-0.0055105234,-1.0067061,0.021475464,-0.9560554,0.037936211,0.0056871129,-0.0046906765
32440000000,0.0047342959,-0.0053446586,-1.0082898,0.022295058,-0.95589316,0.038118362,0.00547694,-0.0049065379
32507500000,0.0050252718,-0.0056027342,-1.0065904,0.021076493,-0.95506221,0.038262323,0.0061463467,-0.0047217496
32575000000,0.004888311,-0.0057874415,-1.007787,0.021225303,-0.95448834,0.038728654,0.0058863973,-0.0048484779
32642500000,0.0049810987,-0.0055989823,-1.0087401,0.022126764,-0.95304471,0.037854761,0.0062360857,-0.0050619161
32710000000,0.005275243,-0.005681871,-1.0082247,0.019872904,-0.95288688,0.03824079,0.0062548183,-0.0049116183
32777500000,0.0050848913,-0.0056549232,-1.0074559,0.020293772,-0.95245349,0.038087294,0.0060327444,-0.0051221345
32845000000,0.0050218287,-0.0057690837,-1.0078733,0.020938128,-0.9509058,0.037038773,0.006413369,-0.0052576889
32912500000,0.0052920892,-0.0060365163,-1.0075713,0.020167977,-0.95113277,0.036478758,0.0062821326,-0.0054336353
32980000000,0.0051568961,-0.0060793031,-1.0087686,0.020370662,-0.95126349,0.035016418,0.0065485099,-0.0056396527
33047500000,0.0052971868,-0.0064505674,-1.0099483,0.019753993,-0.95002139,0.033440918,0.0061184615,-0.0057775714
33115000000,0.0050882827,-0.0059056412,-1.0088124,0.019556586,-0.95011008,0.033142921,0.0063451533,-0.0059810854
33182500000,0.005426792,-0.0063469368,-1.0096622,0.020435959,-0.95065665,0.031535357,0.0060909428,-0.0059574745
33250000000,0.0046724505,-0.0062945392,-1.0095677,0.019171804,-0.94824749,0.031050593,0.0059428741,-0.00619624
33317500000,0.0049387161,-0.0059689176,-1.0096524,0.01961264,-0.94927692,0.030034244,0.0057311868,-0.0062996177
33385000000,0.0047075301,-0.0065830415,-1.0110078,0.020330012,-0.95059109,0.028498709,0.0060345614,-0.0064289151
33452500000,0.0043528979,-0.0065574353,-1.0102092,0.020792872,-0.94887841,0.02731508,0.005723903,-0.0067399279
33520000000,0.0048460807,-0.006602169,-1.0093148,0.020589203,-0.95158559,0.02730602,0.0061401632,-0.0062699346
33587500000,0.0049323514,-0.0065110228,-1.010673,0.021144658,-0.95210302,0.024166137,0.0056999144,-0.0069625331
33655000000,0.0048111281,-0.0067432197,-1.0098842,0.020302206,-0.95122242,0.025491029,0.0056379368,-0.0064061237
33722500000,0.0045883688,-0.0065850737,-1.0103103,0.020457983,-0.95297796,0.025337756,0.0053930152,-0.0066351658
33790000000,0.0045399647,-0.0064319791,-1.0103016,0.020559043,-0.9531244,0.024125278,0.0050999494,-0.0065554539
33857500000,0.0044517745,-0.0067193485,-1.0099592,0.02094844,-0.95290422,0.025191188,0.0053177318,-0.0066711926
33925000000,0.0043907887,-0.0068118223,-1.0107371,0.02140066,-0.95461202,0.024229974,0.0051660379,-0.0068074968
33992500000,0.0044939863,-0.0067972392,-1.010798,0.020925552,-0.95471811,0.024098605,0.0051551852,-0.0066900244
34060000000,0.0042651012,-0.0064656795,-1.0100474,0.021052718,-0.95546699,0.025371283,0.0055103204,-0.0064631603
34127500000,0.0042712856,-0.0068498817,-1.0102106,0.021207854,-0.95725685,0.025285356,0.0055299425,-0.0063389833
34195000000,0.0043334467,-0.006443087,-1.0096262,0.02093479,-0.95460379,0.025782019,0.0049043656,-0.0064829388
34262500000,0.0046990504,-0.0069894628,-1.0088332,0.021579564,-0.95582306,0.028162688,0.0052427859,-0.006370665
34330000000,0.0044688317,-0.0064715417,-1.0101882,0.021784216,-0.95649981,0.027507335,0.0049210903,-0.0062761637
34397500000,0.0047482178,-0.0068419483,-1.0100201,0.021354109,-0.95473599,0.028162301,0.0053159939,-0.0064465003
34465000000,0.0049180454,-0.0067169266,-1.0104327,0.022139698,-0.9561621,0.029945225,0.005485096,-0.0063494397
34532500000,0.0050493986,-0.0070208246,-1.0101959,0.021035299,-0.95598423,0.029783174,0.0054473737,-0.0061332122
34600000000,0.0053848801,-0.0071111443,-1.0100253,0.021126643,-0.95465434,0.030213133,0.0054684011,-0.0065377192
34667500000,0.0051976591,-0.007191577,-1.0093164,0.021387249,-0.95469618,0.031113178,0.0055541052,-0.0069032116
34735000000,0.0047226958,-0.0070248144,-1.0106242,0.020186573,-0.95448613,0.030793816,0.006249404,-0.0065465141
34802500000,0.0050162664,-0.0074200584,-1.0114331,0.022386611,-0.95207536,0.032529324,0.005870793,-0.0064847488
34870000000,0.0052057132,-0.0073435381,-1.0113851,0.021101534,-0.9514485,0.031461418,0.0058064773,-0.0071446458
34937500000,0.0054066787,-0.0077331266,-1.0112188,0.020644873,-0.95191509,0.03116399,0.0065226699,-0.0069249449
35005000000,0.0050545903,-0.0082958601,-1.0109857,0.021299995,-0.95192224,0.032461166,0.0059355265,-0.0070077232
35072500000,0.0045180288,-0.0088193147,-1.0139374,0.021091849,-0.95110416,0.031544358,0.0061398693,-0.0079054143
35140000000,0.0050283596,-0.008815215,-1.0121326,0.020722404,-0.94863504,0.030760035,0.0058439826,-0.0079078777
35207500000,0.0052157505,-0.0084309466,-1.0124501,0.021780156,-0.9515416,0.030063428,0.0063913395,-0.008126541
35275000000,0.0046896492,-0.0087022288,-1.0123801,0.021690799,-0.95074242,0.028359901,0.0055305352,-0.0081168516
35342500000,0.0044978848,-0.008847734,-1.0119665,0.020997837,-0.95008856,0.028885677,0.0055178842,-0.0079737483
35410000000,0.0046600671,-0.0092349565,-1.0120745,0.022151798,-0.95250434,0.028564349,0.0057147434,-0.008353468
35477500000,0.0041121547,-0.0087153781,-1.012907,0.020987242,-0.95300269,0.026663244,0.0047754636,-0.0084108999
35545000000,0.0044094701,-0.0089357598,-1.0106853,0.021843195,-0.95354158,0.027375937,0.0052788588,-0.0079042036
35612500000,0.0031735117,-0.0098128133,-1.0133394,0.02317211,-0.95452464,0.027914762,0.0048530018,-0.0083415955
35680000000,0.0039636418,-0.0093664667,-1.0125333,0.022173166,-0.95533025,0.027887702,0.0046322318,-0.0078750029
35747500000,0.0036218334,-0.0093686143,-1.0111229,0.022318095,-0.95523036,0.02860412,0.0049358592,-0.0083012749
35815000000,0.0038636655,-0.0092308158,-1.0117921,0.023660004,-0.95663512,0.028043956,0.0047099832,-0.0080262749
35882500000,0.0035743748,-0.009107708,-1.0114031,0.022476055,-0.95691115,0.028829776,0.004485358,-0.0076155332
35950000000,0.0035342313,-0.0088856714,-1.0108913,0.023016095,-0.95645499,0.030030936,0.0043552388,-0.0080896514
36017500000,0.0028569873,-0.0092121204,-1.0115838,0.023087263,-0.95792347,0.029139355,0.0048824018,-0.0078607295
36085000000,0.0034189387,-0.0089406287,-1.0109435,0.022551149,-0.95777887,0.030033976,0.0048047872,-0.0079027154
36152500000,0.0033206784,-0.0094078705,-1.012228,0.023520961,-0.95879024,0.029772192,0.0046981811,-0.0077901497
36220000000,0.003448497,-0.0090143457,-1.0124785,0.021557748,-0.95897853,0.029225111,0.0048067481,-0.0079730861
36287500000,0.0030102117,-0.0088900784,-1.0089359,0.021323889,-0.95977879,0.030942872,0.0044762432,-0.0076392828
36355000000,0.0029736366,-0.0089739067,-1.0102746,0.023953915,-0.95965332,0.031586349,0.004975602,-0.0082173608
36422500000,0.0030667307,-0.0091308542,-1.0127823,0.023425043,-0.95904815,0.032274574,0.0048214062,-0.0084876893
36490000000,0.0031967394,-0.0092049316,-1.0115005,0.021188945,-0.95958251,0.033068106,0.0050225225,-0.0084807836
36557500000,0.0033306784,-0.0090816952,-1.0110277,0.021801114,-0.95853865,0.03209576,0.0055388948,-0.0090357866
36625000000,0.0033982673,-0.0091294972,-1.0084724,0.021572918,-0.95741403,0.032185212,0.0043858862,-0.0089010736
36692500000,0.0036471498,-0.0094531924,-1.0103492,0.021822512,-0.95785511,0.032717586,0.0053559379,-0.008980155
36760000000,0.0030831674,-0.0098428549,-1.0139045,0.021704674,-0.9557659,0.032147408,0.004838055,-0.0091566714
36827500000,0.0036770459,-0.0099470867,-1.0119678,0.020405069,-0.95661962,0.033322901,0.0047087613,-0.0091680838
36895000000,0.003338855,-0.0098951776,-1.0103366,0.021638572,-0.95752072,0.03290391,0.0051724939,-0.0095461411
36962500000,0.0034594366,-0.010079065,-1.0116653,0.02142188,-0.95518798,0.032193065,0.0052400683,-0.0098503707
37030000000,0.0032047597,-0.010147693,-1.0126809,0.020464599,-0.95387799,0.031954914,0.0048902384,-0.0098239081
37097500000,0.0025199614,-0.010453078,-1.0128845,0.021851271,-0.95419371,0.031391174,0.0048062699,-0.010304667
37165000000,0.0023324129,-0.010819932,-1.0123789,0.020411283,-0.95168936,0.031012833,0.0044618766,-0.01027759
37232500000,0.0028358386,-0.011031507,-1.0116376,0.021194309,-0.95389593,0.031285137,0.0041958946,-0.010737935
37300000000,0.0021709078,-0.010624158,-1.0140396,0.022107244,-0.95411497,0.029603809,0.0040990887,-0.010905298
37367500000,0.0020900378,-0.011041556,-1.0149269,0.021540493,-0.95137185,0.029389262,0.0035971045,-0.011132929
37435000000,0.0020644602,-0.010636462,-1.0137455,0.02157918,-0.95194584,0.030486567,0.0032548092,-0.010642577
37502500000,0.0016002157,-0.010839205,-1.0142179,0.021737158,-0.95197856,0.028460056,0.0035207137,-0.011342721
37570000000,0.0011732621,-0.01106529,-1.0138401,0.022938222,-0.95116824,0.028603069,0.0030376473,-0.011329751
37637500000,0.00081395824,-0.010691582,-1.0142212,0.023709714,-0.9512201,0.027859926,0.0029503286,-0.011002492
37705000000,0.0010759539,-0.010561873,-1.0152317,0.023057461,-0.95034635,0.026928812,0.0022940009,-0.011384411
37772500000,0.00042216666,-0.010831476,-1.0150834,0.023011342,-0.95130515,0.026403651,0.0018557858,-0.011538273
37840000000,0.0005278156,-0.010515783,-1.0165431,0.02319324,-0.95177633,0.025737219,0.0012508777,-0.011032417
37907500000,8.2799044e-005,-0.010949552,-1.0148581,0.02237835,-0.95165306,0.02564753,0.0015570999,-0.011562614
37975000000,0.0003294209,-0.010477863,-1.0130913,0.023932099,-0.95235431,0.025568277,0.0010094922,-0.011283956
38042500000,0.00032333611,-0.010707509,-1.013193,0.023779601,-0.95345855,0.024392694,0.00064268219,-0.010214625
38110000000,8.7301712e-005,-0.0097373426,-1.0146147,0.023438752,-0.9528057,0.024785638,0.001304158,-0.01035781
38177500000,-0.0002580774,-0.0096510649,-1.0144457,0.025157571,-0.95403403,0.02559945,0.00024363212,-0.009936261
38245000000,-6.5455679e-005,-0.0097746467,-1.0149305,0.023718774,-0.95375675,0.025185227,0.0011824386,-0.0098039201
38312500000,0.00022181962,-0.010045958,-1.0133426,0.023087442,-0.95425886,0.026886612,0.000659151,-0.010332248
