!CSV A.01.01
!Keysight Technologies,N5247B,US56070639,A.17.30.08
!Date: Wednesday, July 22, 2026 11:31:21
!Source: Standard

BEGIN CH1_DATA
Freq(Hz),S21(REAL),S21(IMAG),S11(REAL),S11(IMAG),S22(REAL),S22(IMAG),S12(REAL),S12(IMAG)
26500000000,-9.6690143e-005,-0.0023291574,-1.0017412,0.024032384,-0.99303687,0.027566016,-0.00013218488,-0.0024468855
26567500000,2.7200789e-005,-0.0023765899,-1.00006,0.022362262,-0.99290621,0.027178913,-0.00026459084,-0.0026024971
26635000000,0.00012385927,-0.0025417935,-0.99854839,0.023508668,-0.99098015,0.026827991,-0.00014417444,-0.00275003
26702500000,0.00012996065,-0.0022485422,-1.0003328,0.024063945,-0.99135822,0.029138476,-0.00021697397,-0.0024089217
26770000000,0.00015438936,-0.0026073495,-0.99995881,0.022462539,-0.99284339,0.026302427,3.5783858e-005,-0.0025325955
26837500000,-5.2785792e-005,-0.0027593952,-0.99902201,0.023581147,-0.98987496,0.027676299,-0.0001197278,-0.0028182201
26905000000,8.0490427e-005,-0.002402022,-1.001417,0.023310408,-0.99182087,0.027893126,-4.0790066e-005,-0.0027021312
26972500000,0.00018969201,-0.0026201173,-0.99904096,0.022894621,-0.99158978,0.025999933,0.00013478787,-0.0025481652
27040000000,-0.00015676483,-0.0025279121,-0.99991453,0.024545036,-0.98920953,0.026753213,-9.3170966e-006,-0.002645877
27107500000,0.00010563375,-0.002557436,-1.0009736,0.023434281,-0.99153531,0.027572393,5.0582574e-005,-0.002832402
27175000000,5.3698895e-005,-0.0024726717,-0.99857289,0.022816941,-0.9897759,0.025571227,-7.9082296e-005,-0.00238975
27242500000,3.162655e-006,-0.0026969826,-0.99889606,0.024920374,-0.98952639,0.027353197,9.2540868e-006,-0.0028157013
27310000000,0.00035617818,-0.0024651738,-1.0000361,0.023260765,-0.9902932,0.027633563,-0.00011807529,-0.0029494599
27377500000,9.0182875e-006,-0.0027282846,-0.99858987,0.024124593,-0.98838836,0.025804967,-0.0002523117,-0.0026129086
27445000000,0.00018355099,-0.0029430557,-0.99929595,0.024539322,-0.98741364,0.026992917,-0.00022825482,-0.0027861455
27512500000,2.4946989e-005,-0.0028034244,-0.99987149,0.023312956,-0.98995119,0.0265854,-0.00018892973,-0.0027846459
27580000000,7.9447054e-005,-0.0025937033,-0.99720883,0.024743766,-0.9869771,0.026402801,1.3869489e-005,-0.0029681474
27647500000,0.00017839129,-0.0028242271,-0.99927515,0.024847209,-0.98759723,0.027626336,-0.00013228069,-0.0026191804
27715000000,6.8507274e-005,-0.0029911168,-0.99919045,0.02443248,-0.98889738,0.026615322,-3.8500002e-005,-0.0029700878
27782500000,-0.00015704415,-0.0030313972,-0.99895459,0.024716437,-0.9862417,0.026334167,-0.00037685968,-0.0028762396
27850000000,-5.8509409e-005,-0.0031558019,-0.99916959,0.025094211,-0.98711336,0.027600646,-0.00013531366,-0.0028657159
27917500000,-6.6393346e-005,-0.0030713386,-0.99801117,0.024302244,-0.9873805,0.025598228,-0.00024124951,-0.0032718906
27985000000,-0.00011072843,-0.0030839823,-0.99787444,0.025614679,-0.98572075,0.026253968,-0.00026124518,-0.0030497308
28052500000,-0.00013338192,-0.00289307,-0.99923199,0.024074078,-0.98630083,0.025983512,-0.00029256428,-0.0029293932
28120000000,-0.00023772533,-0.0029969173,-0.99813199,0.02466619,-0.98696923,0.025481105,-0.00024082814,-0.0027781739
28187500000,-0.00013043036,-0.0028606732,-0.99768257,0.02529341,-0.9857927,0.026522368,-0.00033280844,-0.0032883899
28255000000,-0.00033883,-0.0029219671,-0.99834919,0.025270611,-0.9866752,0.026491433,-0.00020782684,-0.0027614203
28322500000,-0.00029624358,-0.0031486799,-0.9975915,0.025073558,-0.9858638,0.025366902,-0.0003185285,-0.0031343643
28390000000,-0.00056009681,-0.0031233851,-0.99832106,0.026043508,-0.98515594,0.026867401,-0.00025536073,-0.0031471755
28457500000,-0.00052618136,-0.0029172101,-0.99769866,0.024888337,-0.98642218,0.026046693,-0.00023704156,-0.0028570592
28525000000,-0.00021016563,-0.0027169094,-0.99737191,0.025390983,-0.98645639,0.026577622,-0.00025132578,-0.0031877086
28592500000,-9.2420029e-005,-0.0033538318,-0.99631822,0.025539607,-0.98496819,0.027007103,-2.9215938e-005,-0.0034525008
28660000000,-0.0001428629,-0.0030369638,-0.99837476,0.025540292,-0.98655093,0.026581913,-0.00028839335,-0.003716941
28727500000,-0.0001194426,-0.0029798823,-0.99759966,0.025626957,-0.98555535,0.0259749,-0.00019398259,-0.0028964214
28795000000,2.9596558e-005,-0.0029314251,-0.99831462,0.024859905,-0.98538101,0.026839823,-0.00020968518,-0.0030372809
28862500000,-0.00054288318,-0.0028002732,-0.99873,0.02601999,-0.98606974,0.026662737,-0.00013801921,-0.0032614339
28930000000,8.3917053e-005,-0.0029230441,-0.99844313,0.025676519,-0.98555988,0.026148707,-0.00022895122,-0.0033253948
28997500000,-0.00012429335,-0.0029097674,-0.99808723,0.026241831,-0.98522842,0.025959998,-3.0542171e-005,-0.0033413179
29065000000,-0.00021213444,-0.0031223148,-0.99818212,0.026039444,-0.98702073,0.026981778,2.3626504e-005,-0.0028587009
29132500000,-0.00039068458,-0.0032725993,-0.99815857,0.025764674,-0.98536372,0.026148707,-0.00023605779,-0.0032621939
29200000000,-8.5621956e-005,-0.0031392402,-0.99783427,0.026153982,-0.98479843,0.026730984,-0.00028091203,-0.0033278456
29267500000,1.7743849e-005,-0.0032719893,-0.99947906,0.026058272,-0.98671472,0.026384905,0.00021242799,-0.0033156909
29335000000,1.6230042e-006,-0.0034413079,-0.99803382,0.025602371,-0.98521394,0.025278941,-0.00021391892,-0.003467106
29402500000,-0.00029685974,-0.0034483378,-0.9967587,0.026737154,-0.9857738,0.02556783,-0.00011912346,-0.0033375861
29470000000,-0.00019511761,-0.0034052862,-0.99881852,0.027033731,-0.98712432,0.025304437,-0.00026787742,-0.0035486503
29537500000,-0.00045967603,-0.0035966851,-0.99676663,0.025220677,-0.98545408,0.024268195,-0.00038622197,-0.0038289621
29605000000,-0.00028582336,-0.0035057557,-0.99637091,0.026745617,-0.98582029,0.025183946,-0.00042389566,-0.0031622634
29672500000,-0.00055400061,-0.0033410511,-0.99942225,0.025992304,-0.98718131,0.024588317,-8.8536995e-005,-0.003805323
29740000000,-0.00036904996,-0.003499551,-0.99757767,0.026052982,-0.98547554,0.023919791,-0.00047638756,-0.0033864772
29807500000,-0.00033286423,-0.0035663503,-0.99772167,0.026938289,-0.98593247,0.025050879,-0.00061739469,-0.0035809381
29875000000,-0.00021052815,-0.0033403409,-0.99837285,0.026811361,-0.98813641,0.022935212,-0.00071729103,-0.0036638831
29942500000,-0.00034024258,-0.0032999348,-0.99719393,0.025671139,-0.9865225,0.022735253,-0.00043193327,-0.0035750081
30010000000,-0.00082042895,-0.0033104054,-0.99779761,0.026553661,-0.98800361,0.024827659,-0.00036785938,-0.0033453607
30077500000,-0.00039016444,-0.0036388002,-0.99872965,0.026117653,-0.9881525,0.022894919,-0.00035199593,-0.0033050822
30145000000,-0.00030389742,-0.003613217,-0.99744815,0.025967255,-0.98580647,0.023478583,-0.0003292599,-0.0035590683
30212500000,-0.00034350494,-0.003300518,-0.99784446,0.026590854,-0.98860317,0.023520619,-0.00044841948,-0.0034883369
30280000000,-0.00055180851,-0.0034651682,-0.99877578,0.025834352,-0.9877156,0.023230046,-6.3357176e-005,-0.0035489704
30347500000,-0.00049097766,-0.0038208561,-0.99664754,0.027166754,-0.98640615,0.023275703,-0.00045746902,-0.0038020732
30415000000,-0.00072213169,-0.0034692741,-0.9983266,0.027651325,-0.98857272,0.024786353,-0.00043851888,-0.0033899138
30482500000,-0.00037794665,-0.0036540171,-0.99815905,0.026118696,-0.98782676,0.023277089,-0.00036421785,-0.0036193419
30550000000,-0.00072844373,-0.0037549709,-0.99735451,0.026901364,-0.98620105,0.024992645,-0.00015712285,-0.0035555309
30617500000,-0.00041001139,-0.003579339,-0.99843925,0.027863428,-0.98757595,0.024504453,-5.2493939e-005,-0.0036926556
30685000000,-0.00035188626,-0.0037348676,-0.99802005,0.02658686,-0.98627692,0.023888037,4.4083863e-005,-0.0036073185
30752500000,-8.0139143e-006,-0.0040690345,-0.99647552,0.029032946,-0.98546195,0.024950475,-4.603737e-005,-0.0037654859
30820000000,-0.00059926626,-0.0036866965,-0.99699223,0.02723527,-0.98805857,0.023662478,-0.00010641932,-0.0037218854
30887500000,-0.00050064595,-0.003671638,-0.9959774,0.02812916,-0.98495471,0.024370998,-6.2662759e-005,-0.0037611388
30955000000,-0.00048246226,-0.004238701,-0.99764204,0.028309017,-0.98708725,0.026023835,-0.00026850839,-0.0037589073
31022500000,-0.0001841312,-0.0040138946,-0.99772036,0.028412253,-0.98700202,0.025114179,-2.6820693e-005,-0.0043838583
31090000000,-0.000135076,-0.0039067673,-0.99616551,0.028419256,-0.9852044,0.025204599,-2.1066982e-005,-0.0043182834
31157500000,-0.00035520713,-0.0039137253,-0.99664587,0.02956906,-0.98490942,0.025549144,-0.00051413814,-0.0044023315
31225000000,-0.00059822685,-0.0039896462,-0.99710065,0.029081881,-0.98530525,0.024817944,-0.00012262911,-0.0047634244
31292500000,-0.00062051899,-0.0043514268,-0.995327,0.028545529,-0.98369908,0.024943233,-1.4857389e-005,-0.0045114332
31360000000,-0.0010425863,-0.0039738161,-0.99495888,0.029591024,-0.98448473,0.024902582,-0.00027054583,-0.004422572
31427500000,-0.00080176041,-0.0037597425,-0.99512714,0.028335363,-0.9838118,0.024846412,-0.00054434786,-0.004715676
31495000000,-0.00066902966,-0.0041433768,-0.99497181,0.029417604,-0.98408759,0.024496764,-0.0011584146,-0.0044251806
31562500000,-0.0010425886,-0.004033661,-0.99584633,0.029506341,-0.98473972,0.024082899,-0.0014541002,-0.0045577455
31630000000,-0.0010163754,-0.0039414242,-0.99525678,0.028822631,-0.98295498,0.024679303,-0.00073203095,-0.0047274577
31697500000,-0.00080799928,-0.0039741113,-0.9966011,0.029245317,-0.98359227,0.024626166,-0.0011487644,-0.0042349761
31765000000,-0.00097789278,-0.0039638514,-0.99498785,0.029069781,-0.9849211,0.023896694,-0.0010858385,-0.0040152674
31832500000,-0.00063729251,-0.0036889957,-0.99472064,0.029677987,-0.98504448,0.023591906,-0.0011675153,-0.0042598853
31900000000,-0.00099840481,-0.0042713331,-0.99481356,0.029877983,-0.98444974,0.024958506,-0.00094714219,-0.0038987298
31967500000,-0.0011493237,-0.0036737663,-0.99550718,0.029266134,-0.98554438,0.024627045,-0.0011617426,-0.0042559048
32035000000,-0.00087694568,-0.0040918067,-0.99566233,0.029196143,-0.98522556,0.025652379,-0.001017255,-0.0041705873
32102500000,-0.0013403377,-0.0036846614,-0.99414378,0.029939026,-0.9840939,0.025380693,-0.00093623484,-0.0044141351
32170000000,-0.0010868805,-0.0041176579,-0.99442124,0.029046625,-0.98434293,0.025448322,-0.0009562663,-0.0042984607
32237500000,-0.001059138,-0.0041788677,-0.99471688,0.028801352,-0.98452663,0.024902374,-0.00087525859,-0.0042081429
32305000000,-0.00083998626,-0.0041918908,-0.99517202,0.029237866,-0.98421204,0.025391996,-0.00091316737,-0.0044120634
32372500000,-0.00075806794,-0.0043475227,-0.99423325,0.029420972,-0.98458016,0.026130706,-0.00067810435,-0.0047456226
32440000000,-0.00086860941,-0.0040703956,-0.99512029,0.030332655,-0.98502612,0.025714308,-0.00081776048,-0.0045903749
32507500000,-0.0010609115,-0.003960772,-0.99381107,0.028954513,-0.98399532,0.026020579,-0.00094695663,-0.0044499515
32575000000,-0.0010740224,-0.0042175273,-0.99462116,0.029949605,-0.983729,0.026316494,-0.00069795514,-0.004357507
32642500000,-0.0011578075,-0.0040712715,-0.99538136,0.029518634,-0.98317742,0.024396181,-0.0010948873,-0.0048584719
32710000000,-0.0014103692,-0.0044188034,-0.99451947,0.028761506,-0.98306519,0.024430782,-0.00073763367,-0.0048026056
32777500000,-0.0010448056,-0.0043127784,-0.99370605,0.029449999,-0.9829495,0.025377184,-0.0011780327,-0.0042589586
32845000000,-0.0013157986,-0.004058273,-0.99461198,0.029321373,-0.98249006,0.024741411,-0.0012595293,-0.0048308852
32912500000,-0.0011738305,-0.0040850956,-0.99392194,0.029607296,-0.98214018,0.023954451,-0.0014307714,-0.0045939116
32980000000,-0.0015149935,-0.0039877323,-0.99463344,0.029497355,-0.98306274,0.023876339,-0.001203331,-0.0050005927
33047500000,-0.0013763045,-0.0042553614,-0.99478984,0.028765291,-0.98228478,0.022427142,-0.0018963201,-0.0045117051
33115000000,-0.0015790849,-0.0041514626,-0.99417043,0.028515033,-0.98284543,0.022843935,-0.0016546051,-0.0045815054
33182500000,-0.0014672754,-0.0041047339,-0.9942497,0.02899763,-0.98310864,0.021708637,-0.0021446226,-0.0049891612
33250000000,-0.0017608274,-0.0041431207,-0.99465156,0.027799785,-0.98199487,0.021573707,-0.0021873808,-0.004915202
33317500000,-0.0016436427,-0.0038771136,-0.99448031,0.028819263,-0.9828704,0.021785617,-0.0021317932,-0.0045300033
33385000000,-0.0018650783,-0.0037706112,-0.99581182,0.0290052,-0.98363698,0.020356387,-0.0022437582,-0.004404075
33452500000,-0.0018829274,-0.003906792,-0.99447817,0.028460979,-0.98177719,0.020421088,-0.0026131524,-0.0044443198
33520000000,-0.0022295925,-0.0038167536,-0.99422556,0.028877586,-0.98460943,0.020917028,-0.0021761088,-0.0043529412
33587500000,-0.0020163557,-0.0038908755,-0.99532163,0.028871417,-0.98474538,0.018695682,-0.002299394,-0.004219783
33655000000,-0.0019330282,-0.0037740204,-0.99479163,0.028372556,-0.9831233,0.019699648,-0.0022072205,-0.004129882
33722500000,-0.0019865856,-0.0039504957,-0.99489701,0.028540254,-0.98511064,0.020433903,-0.0025820495,-0.0039599813
33790000000,-0.0019484229,-0.0034832519,-0.99456048,0.028672457,-0.98448336,0.018770874,-0.0025567969,-0.0041956073
33857500000,-0.0023463275,-0.0034502661,-0.99442804,0.028456509,-0.98377693,0.019313067,-0.002667069,-0.0038886904
33925000000,-0.0022160716,-0.0035835647,-0.99507535,0.02948606,-0.98540914,0.020285279,-0.0020948513,-0.0039263428
33992500000,-0.0024512804,-0.0032129022,-0.99558872,0.028359532,-0.98467273,0.018849581,-0.0025353872,-0.0037568382
34060000000,-0.0022133617,-0.0034027165,-0.99516237,0.028794497,-0.98555309,0.019902885,-0.0026556351,-0.0036365567
34127500000,-0.002385627,-0.0031101357,-0.99533451,0.029221751,-0.98607391,0.019766092,-0.0024519493,-0.0036733868
34195000000,-0.0017874233,-0.0037196386,-0.99512297,0.029167414,-0.98417825,0.019816637,-0.002547598,-0.0036842641
34262500000,-0.0026330564,-0.0033359171,-0.99432552,0.029793948,-0.98381656,0.021940053,-0.0022933581,-0.0036902609
34330000000,-0.0024718391,-0.0034982145,-0.99598551,0.029533178,-0.98506051,0.021226913,-0.0024469956,-0.0034277176
34397500000,-0.0017779856,-0.0033060596,-0.99577212,0.030255526,-0.98385578,0.020631194,-0.0023561711,-0.0033299441
34465000000,-0.001868634,-0.0035498287,-0.99515474,0.030723691,-0.98451048,0.021935254,-0.0019967225,-0.0035495432
34532500000,-0.0020777304,-0.003487268,-0.99526733,0.030175835,-0.98464996,0.020296365,-0.0021714224,-0.0035987843
34600000000,-0.0021265089,-0.0032278718,-0.99524236,0.030385077,-0.98314035,0.021172673,-0.0020652856,-0.0035921065
34667500000,-0.0020077149,-0.0034035186,-0.99451208,0.03119567,-0.98475426,0.020801842,-0.0020978106,-0.0032241908
34735000000,-0.0023846102,-0.0031193467,-0.99550086,0.029767066,-0.98460919,0.019417673,-0.0024837938,-0.0034587262
34802500000,-0.0024345156,-0.0033012209,-0.9961499,0.031078726,-0.98286551,0.021457911,-0.0021896304,-0.0037150471
34870000000,-0.0021275107,-0.00300332,-0.99616998,0.030593723,-0.98362327,0.020341545,-0.0021356868,-0.0035392081
34937500000,-0.0025803274,-0.0031117657,-0.99499297,0.030627966,-0.98441297,0.020525932,-0.0025473214,-0.0036180741
35005000000,-0.0024906578,-0.0028586031,-0.99449372,0.031826943,-0.98462641,0.020826507,-0.0025782697,-0.0030319134
35072500000,-0.0025939888,-0.0032657969,-0.9967351,0.030738831,-0.98503613,0.019346088,-0.0024770689,-0.0032426347
35140000000,-0.0024001978,-0.0035005962,-0.99497634,0.030110195,-0.98221815,0.019505009,-0.0021703867,-0.0031738575
35207500000,-0.0022331511,-0.0026750891,-0.99516618,0.030668881,-0.98641622,0.01876061,-0.0026151326,-0.0030896878
35275000000,-0.002831199,-0.0029970652,-0.99534816,0.031092146,-0.98564309,0.017554965,-0.002616958,-0.0030779012
35342500000,-0.0027489031,-0.0026103244,-0.99459863,0.030140884,-0.98367816,0.019356124,-0.0027377927,-0.0028659808
35410000000,-0.0024168803,-0.0026603083,-0.99457151,0.031472668,-0.98591661,0.01893042,-0.0025341983,-0.0027503748
35477500000,-0.0024323731,-0.0022260414,-0.99506712,0.030015022,-0.98759305,0.017771363,-0.0029456206,-0.0026352878
35545000000,-0.0027205395,-0.0024737122,-0.99350983,0.031135052,-0.98683566,0.018459171,-0.00254753,-0.0026895439
35612500000,-0.0025774585,-0.0025031005,-0.99547601,0.031328857,-0.98677075,0.019110322,-0.0023073268,-0.0026111901
35680000000,-0.0025969283,-0.0026077677,-0.99514812,0.029569238,-0.9879238,0.018967628,-0.0025185151,-0.0020229379
35747500000,-0.0024879912,-0.0022935397,-0.99335289,0.030367315,-0.98885268,0.019785404,-0.0020257006,-0.0023763892
35815000000,-0.0023942667,-0.0021497514,-0.99376142,0.031617969,-0.98962271,0.018576592,-0.002466979,-0.0025479493
35882500000,-0.0023316694,-0.0022615239,-0.99432552,0.030765221,-0.9889273,0.018994927,-0.0020116875,-0.0024429194
35950000000,-0.0019635842,-0.0024049995,-0.99407208,0.031330079,-0.9896059,0.0211761,-0.0023607179,-0.002251853
36017500000,-0.0020340213,-0.0019872873,-0.99401861,0.03100571,-0.99083579,0.019665048,-0.0020010609,-0.0023200396
36085000000,-0.0022528612,-0.002162959,-0.99378681,0.030296385,-0.99057329,0.019866019,-0.0020936138,-0.0023513129
36152500000,-0.0023694008,-0.002011453,-0.99578696,0.031588942,-0.99181283,0.020143837,-0.0023105922,-0.0019710057
36220000000,-0.0020261207,-0.0021877866,-0.99590611,0.030125827,-0.99106538,0.019535989,-0.00188613,-0.0019291182
36287500000,-0.0018290179,-0.0019524661,-0.99231118,0.030317143,-0.99169892,0.019545972,-0.0018631883,-0.0020388844
36355000000,-0.0019787927,-0.0020672139,-0.99330699,0.032479763,-0.99245226,0.020175353,-0.001917947,-0.0023656837
36422500000,-0.0017146934,-0.0017890015,-0.99568248,0.031456649,-0.99173844,0.020167798,-0.0017418189,-0.0022783882
36490000000,-0.001647652,-0.0020082775,-0.99551129,0.030430123,-0.9927969,0.021292746,-0.0014087243,-0.002683857
36557500000,-0.0018503829,-0.002213299,-0.99393535,0.03091073,-0.99294591,0.019984275,-0.0019665568,-0.0022634626
36625000000,-0.0013195266,-0.0019897365,-0.99222171,0.031317234,-0.99173564,0.020058423,-0.0017193933,-0.002606007
36692500000,-0.0018032442,-0.0019262963,-0.99324882,0.031606197,-0.99270868,0.020677447,-0.0014917797,-0.0024522147
36760000000,-0.0013844507,-0.002056272,-0.99696702,0.031835407,-0.99273223,0.02022934,-0.0020054758,-0.0025305375
36827500000,-0.0014792848,-0.0021049301,-0.9951396,0.030959785,-0.99306971,0.020943969,-0.0012544633,-0.0022019534
36895000000,-0.0017025773,-0.0021342875,-0.99247783,0.031785399,-0.99475479,0.020720094,-0.0017524881,-0.0025834441
36962500000,-0.0015025563,-0.0018084783,-0.99340242,0.031650007,-0.99336147,0.02002427,-0.0015594139,-0.0024336525
37030000000,-0.0014628507,-0.0020724961,-0.99372113,0.031242222,-0.99313736,0.020318776,-0.0013446747,-0.002343206
37097500000,-0.0017502019,-0.0018771843,-0.99447262,0.031665057,-0.99410069,0.020743936,-0.0013719234,-0.0024021687
37165000000,-0.0014387476,-0.0024425341,-0.99265492,0.030663639,-0.992764,0.020416439,-0.0018054898,-0.0024215942
37232500000,-0.0014346465,-0.0019445415,-0.99252796,0.032049447,-0.99403024,0.020920634,-0.001609388,-0.0026220556
37300000000,-0.0014960514,-0.0018719109,-0.99433923,0.032248184,-0.99552178,0.02109845,-0.0016614432,-0.0025885324
37367500000,-0.0015840367,-0.0020339673,-0.9944818,0.031208456,-0.99321413,0.021300137,-0.0017971322,-0.0025319341
37435000000,-0.0015013504,-0.0026238526,-0.99398392,0.031209052,-0.99524355,0.023081288,-0.0019028273,-0.0024407643
37502500000,-0.0015703829,-0.0020280096,-0.99397504,0.030972958,-0.99524724,0.021719664,-0.0014975396,-0.0024111804
37570000000,-0.0015815394,-0.0018730278,-0.99335581,0.031167064,-0.9944011,0.022770803,-0.0020485905,-0.0028783616
37637500000,-0.001800024,-0.0023503951,-0.99392009,0.032098003,-0.9956035,0.023086667,-0.0020529155,-0.0026578519
37705000000,-0.0014532657,-0.0017843876,-0.99545014,0.031549901,-0.9958806,0.023067921,-0.0019259544,-0.0024710901
37772500000,-0.001833746,-0.0018388205,-0.9946726,0.03157261,-0.99552625,0.023537695,-0.0019582456,-0.0021960973
37840000000,-0.0014998083,-0.0020994255,-0.99626201,0.031071726,-0.99586183,0.024174895,-0.0016043896,-0.0022284035
37907500000,-0.0015696053,-0.0021182396,-0.99411142,0.031036941,-0.99469036,0.02432707,-0.0020706537,-0.0025364289
