!CSV A.01.01
!Keysight Technologies,N5247B,US56070639,A.17.30.08
!Date: Wednesday, July 22, 2026 11:52:35
!Source: Standard

BEGIN CH1_DATA
Freq(Hz),S21(REAL),S21(IMAG),S11(REAL),S11(IMAG),S22(REAL),S22(IMAG),S12(REAL),S12(IMAG)
26500000000,-0.00018143328,-0.017381523,-0.9980098,0.0013155341,-0.98681581,0.022476435,-0.00097114546,-0.01790949
26567500000,-3.1159259e-005,-0.017104624,-0.99491191,-4.0829182e-006,-0.98614281,0.021959931,-0.00043947343,-0.017887529
26635000000,-0.00012347102,-0.017497607,-0.99264622,0.0022697449,-0.98336768,0.021027952,-0.00043890812,-0.01846125
26702500000,-0.00093690585,-0.017681472,-0.99393779,0.0030465573,-0.98469532,0.023641378,-0.00072693685,-0.018485021
26770000000,-0.00046259887,-0.018000213,-0.99202579,0.002121821,-0.98536408,0.020259902,-0.0012652448,-0.01860976
26837500000,-0.00091656134,-0.017594272,-0.99029541,0.0045371205,-0.98310399,0.022015437,-0.0015656948,-0.018442756
26905000000,-0.0010454105,-0.017840452,-0.99164701,0.0039456785,-0.98517281,0.021955222,-0.0016611959,-0.018319068
26972500000,-0.0012046471,-0.018087585,-0.98852026,0.0042429566,-0.98460913,0.020158619,-0.0014909608,-0.018249013
27040000000,-0.00093130389,-0.017561018,-0.98795223,0.0067941397,-0.98219746,0.021087587,-0.0019901779,-0.018839007
27107500000,-0.00090084272,-0.017525446,-0.98812664,0.0061133206,-0.98492634,0.021655351,-0.00225324,-0.018313291
27175000000,-0.00029548677,-0.017775534,-0.98436213,0.006570667,-0.98358572,0.019245699,-0.0018503609,-0.017980672
27242500000,-0.00057302695,-0.018240303,-0.98333359,0.0092074573,-0.98247772,0.021054447,-0.0016887803,-0.018057458
27310000000,-0.00029816921,-0.017845571,-0.98300225,0.0077788532,-0.98307824,0.021551535,-0.0015506931,-0.018755475
27377500000,-6.8488996e-005,-0.018238427,-0.98078674,0.0092850327,-0.98143518,0.01920259,-0.0022278158,-0.018973304
27445000000,-0.00017582253,-0.018580701,-0.98075819,0.0097085238,-0.98124331,0.020887673,-0.0020541539,-0.018150581
27512500000,-0.00068238284,-0.018893611,-0.98005366,0.0089040697,-0.98381346,0.020058692,-0.002346253,-0.018538188
27580000000,-8.1109814e-005,-0.018463049,-0.97608554,0.010321081,-0.97981864,0.019964069,-0.0015593823,-0.01857291
27647500000,-0.00023786211,-0.019016974,-0.97730279,0.010206342,-0.98076522,0.021653324,-0.0021825142,-0.019064995
27715000000,-0.00073870691,-0.019117873,-0.97572362,0.010004222,-0.98181438,0.020029664,-0.0023465219,-0.018590447
27782500000,-0.00049854722,-0.019587388,-0.97391033,0.010436594,-0.97943723,0.01949802,-0.0014593485,-0.019312076
27850000000,-0.0014503258,-0.019472055,-0.97350729,0.009986341,-0.9808206,0.02094005,-0.0023060744,-0.018960807
27917500000,-0.0010680817,-0.019710664,-0.97125459,0.009311229,-0.98078865,0.018899113,-0.0025549154,-0.019722022
27985000000,-0.0013030265,-0.019042779,-0.97069174,0.010242581,-0.97839993,0.019295633,-0.0028049829,-0.019619703
28052500000,-0.0015941476,-0.019433275,-0.97104526,0.0083656907,-0.98137355,0.018995881,-0.0030418867,-0.018659309
28120000000,-0.0019386848,-0.019299673,-0.96950829,0.008795917,-0.98102391,0.018797159,-0.0031352183,-0.018264621
28187500000,-0.0017199103,-0.01912377,-0.96839184,0.0084448904,-0.97923177,0.02005659,-0.0028669161,-0.019116614
28255000000,-0.0024325345,-0.018745756,-0.96929049,0.0079519153,-0.98044264,0.019554526,-0.0033056119,-0.01874252
28322500000,-0.0022601064,-0.018614328,-0.96797091,0.0070337951,-0.97904629,0.018352121,-0.0030278536,-0.018660234
28390000000,-0.0021078878,-0.018546997,-0.96868259,0.0073090345,-0.97829646,0.020339489,-0.0029823077,-0.018332709
28457500000,-0.0022126562,-0.018345529,-0.96821147,0.0069730878,-0.98009902,0.020516157,-0.0026838006,-0.018386947
28525000000,-0.0015286575,-0.018507527,-0.96745592,0.007869333,-0.97998667,0.020166099,-0.0027377256,-0.018469203
28592500000,-0.0015539322,-0.018538486,-0.96678269,0.0077336431,-0.97729528,0.020314455,-0.0027128439,-0.018443184
28660000000,-0.0021142419,-0.018977437,-0.96774071,0.0075504184,-0.97940433,0.019919872,-0.0025938367,-0.018614117
28727500000,-0.001232433,-0.01850079,-0.966869,0.0073799733,-0.978715,0.020511962,-0.0024166342,-0.018068621
28795000000,-0.0011371981,-0.018836793,-0.96734381,0.0070735365,-0.97860497,0.021704242,-0.0021599808,-0.018723456
28862500000,-0.0013868907,-0.018143527,-0.96717107,0.0083892643,-0.97910523,0.021108359,-0.0022920584,-0.018577471
28930000000,-0.0010059127,-0.018635899,-0.96679366,0.0082599223,-0.97873813,0.019450426,-0.0022834744,-0.018940508
28997500000,-0.00070770341,-0.018952442,-0.9653179,0.0087722838,-0.97833979,0.020393237,-0.0025766753,-0.018785782
29065000000,-0.00059134304,-0.01945184,-0.96468163,0.0086081475,-0.98062485,0.021076888,-0.0017833877,-0.018634347
29132500000,-0.00094984006,-0.019751415,-0.96387452,0.0077645183,-0.97851288,0.019713432,-0.0023577046,-0.019310012
29200000000,-0.001065515,-0.019951735,-0.96325094,0.0080348253,-0.97793877,0.020664334,-0.0024306802,-0.019672755
29267500000,-0.0017570487,-0.01949743,-0.96408701,0.0083092349,-0.98007643,0.020011637,-0.0025512257,-0.019751411
29335000000,-0.00075042574,-0.020230213,-0.96259725,0.0074397027,-0.979114,0.018467747,-0.0023200165,-0.019355258
29402500000,-0.001512562,-0.020625873,-0.96094114,0.0084611699,-0.97960007,0.019043058,-0.0026859222,-0.019449702
29470000000,-0.00091222441,-0.020346176,-0.9620086,0.0091264546,-0.98064822,0.018783182,-0.0028039021,-0.020132318
29537500000,-0.0017761248,-0.020949211,-0.96006477,0.0067709386,-0.97886425,0.016819865,-0.0031719953,-0.020520005
29605000000,-0.0016778801,-0.020650046,-0.95994204,0.0078093112,-0.98031348,0.018674761,-0.0032097008,-0.019512996
29672500000,-0.0019631637,-0.020501848,-0.96270299,0.0062059164,-0.98129761,0.017286509,-0.0034784484,-0.020149693
29740000000,-0.0021965597,-0.020190373,-0.96058106,0.0065717101,-0.97969586,0.01655063,-0.0034169471,-0.019571319
29807500000,-0.0020213956,-0.020483259,-0.96088445,0.0079111457,-0.98125041,0.017030448,-0.0036892304,-0.02020737
29875000000,-0.0019514225,-0.020859987,-0.96136934,0.0074088871,-0.98363662,0.015320718,-0.0049123545,-0.019806357
29942500000,-0.0020944169,-0.020241071,-0.96000749,0.0068677105,-0.98209125,0.015524354,-0.0035131914,-0.01959624
30010000000,-0.0029329914,-0.020379823,-0.96114916,0.0080057681,-0.9841522,0.017431527,-0.0036914842,-0.01876127
30077500000,-0.0025856793,-0.020600231,-0.96223295,0.0070883334,-0.98410386,0.014970601,-0.0037305122,-0.018987423
30145000000,-0.0023779059,-0.020098101,-0.96085143,0.0083289146,-0.98158693,0.015467614,-0.0035479297,-0.019528504
30212500000,-0.0022599031,-0.020597266,-0.96203899,0.010260552,-0.98533392,0.015957594,-0.0034368201,-0.018997176
30280000000,-0.0020922087,-0.0197246,-0.96165884,0.010034621,-0.98436606,0.015580356,-0.0027874904,-0.019220103
30347500000,-0.0015144809,-0.020380888,-0.95959556,0.012039721,-0.98262918,0.01554504,-0.0025036153,-0.01934831
30415000000,-0.0026612454,-0.020331593,-0.96149307,0.01287964,-0.98546529,0.016870797,-0.0029253811,-0.019487878
30482500000,-0.0016172975,-0.02013316,-0.96020764,0.012723476,-0.98402631,0.01543498,-0.0029727563,-0.019755932
30550000000,-0.0019059135,-0.020065732,-0.95928454,0.014971137,-0.98309052,0.017687768,-0.0021346477,-0.019963814
30617500000,-0.0014844255,-0.020784667,-0.9598608,0.016201802,-0.98453432,0.016341962,-0.001953952,-0.020267548
30685000000,-0.0014083828,-0.020672865,-0.95762169,0.016670585,-0.98207861,0.015277803,-0.0013327193,-0.020894922
30752500000,-0.0007057609,-0.02120389,-0.9543829,0.01988712,-0.98115474,0.017367706,-0.0019750262,-0.020924494
30820000000,-0.0015440816,-0.021294933,-0.95446706,0.018503368,-0.98425299,0.015709251,-0.0019544214,-0.022155385
30887500000,-0.0015863888,-0.021571998,-0.95222926,0.019384146,-0.98126286,0.015815437,-0.0020610448,-0.021723501
30955000000,-0.0019205699,-0.022373131,-0.95202643,0.019981444,-0.98210078,0.017539717,-0.0015372061,-0.022587538
31022500000,-0.0013729353,-0.022023262,-0.95119244,0.020593524,-0.9819718,0.016972631,-0.0027545858,-0.022689201
31090000000,-0.0020765564,-0.021920323,-0.94800436,0.021201968,-0.98011953,0.016670108,-0.0027082982,-0.023085104
31157500000,-0.0021616635,-0.022473156,-0.94657105,0.022873521,-0.9804194,0.017109275,-0.0030741333,-0.023721186
31225000000,-0.0026137882,-0.023217514,-0.9448837,0.021465257,-0.97970313,0.01551266,-0.0031593873,-0.024176326
31292500000,-0.002406948,-0.022778993,-0.9423731,0.02156119,-0.97867757,0.016741082,-0.0030928827,-0.024927985
31360000000,-0.0032795107,-0.023328368,-0.94185305,0.021855913,-0.98052317,0.015552014,-0.0047342745,-0.02390586
31427500000,-0.0033658005,-0.022773972,-0.93980491,0.021624461,-0.97991472,0.016289506,-0.0052950312,-0.024144409
31495000000,-0.003130638,-0.023295678,-0.94000471,0.022025973,-0.97906983,0.016294509,-0.0050560194,-0.02417119
31562500000,-0.004045961,-0.022884244,-0.93893647,0.021189153,-0.98076266,0.016228408,-0.0057120882,-0.023509892
31630000000,-0.0039714053,-0.021990769,-0.93713713,0.021578342,-0.97970676,0.016100436,-0.0057418179,-0.023496917
31697500000,-0.0037247394,-0.023053335,-0.93682271,0.022369266,-0.98033363,0.015895784,-0.005892863,-0.023385379
31765000000,-0.0038652755,-0.022520188,-0.93554807,0.021965623,-0.98115939,0.015574902,-0.0064360327,-0.022801595
31832500000,-0.004485636,-0.022574693,-0.93421537,0.021880984,-0.98084271,0.015699327,-0.0067288065,-0.023179658
31900000000,-0.0040159142,-0.022648362,-0.93346035,0.021892454,-0.98019534,0.016700197,-0.0064046555,-0.02261924
31967500000,-0.0040597147,-0.021889688,-0.93310565,0.022223765,-0.98240513,0.016818631,-0.0067017609,-0.022208216
32035000000,-0.0040843952,-0.022335183,-0.93062466,0.021922499,-0.98193789,0.017461777,-0.0072335196,-0.022360848
32102500000,-0.0038807001,-0.022031473,-0.92807114,0.023219466,-0.98058146,0.017957181,-0.0064516342,-0.022099197
32170000000,-0.0034343656,-0.02182683,-0.92787093,0.023529768,-0.98171878,0.018016994,-0.0064724497,-0.022138448
32237500000,-0.0039740484,-0.021554522,-0.92755151,0.022568494,-0.98200983,0.017822802,-0.0067632841,-0.022195816
32305000000,-0.0035087466,-0.022073306,-0.92322266,0.023219883,-0.98160267,0.017431825,-0.006412046,-0.022109665
32372500000,-0.0037796018,-0.022329587,-0.92190808,0.023941159,-0.98201454,0.017549574,-0.0062550092,-0.022867
32440000000,-0.003744191,-0.021927619,-0.92293435,0.02407616,-0.98159158,0.017936323,-0.0070758117,-0.023116261
32507500000,-0.0035221255,-0.022507081,-0.91762429,0.022863671,-0.98080182,0.018148869,-0.0062432392,-0.022910276
32575000000,-0.0045999754,-0.022418747,-0.91684729,0.022925809,-0.98118103,0.017578691,-0.0072459872,-0.023535239
32642500000,-0.0037645008,-0.022011641,-0.91627461,0.022227496,-0.98098886,0.016506612,-0.007727541,-0.023541097
32710000000,-0.0037374487,-0.023079023,-0.91225398,0.020587921,-0.98072094,0.016507715,-0.0081737358,-0.023779316
32777500000,-0.0043390319,-0.022834066,-0.90900671,0.02122587,-0.98139507,0.016725183,-0.0085455701,-0.023723828
32845000000,-0.0043382738,-0.022697045,-0.90765691,0.019265801,-0.98052549,0.016523212,-0.0091254562,-0.024147591
32912500000,-0.0040964568,-0.023061296,-0.90442097,0.017680645,-0.98058379,0.016184807,-0.0094310567,-0.023797486
32980000000,-0.0047852732,-0.022906616,-0.90084517,0.014901519,-0.98172283,0.015067011,-0.0096201394,-0.023947153
33047500000,-0.0053767748,-0.023133244,-0.89833957,0.010903105,-0.9812178,0.013686508,-0.010937721,-0.023082253
33115000000,-0.0055258498,-0.023108544,-0.89647955,0.0085355937,-0.98210984,0.014217436,-0.011461997,-0.023260754
33182500000,-0.00601087,-0.022883128,-0.89572161,0.0061286092,-0.98258454,0.013141572,-0.012148671,-0.022837974
33250000000,-0.0063458146,-0.0220904,-0.89276981,0.0022141039,-0.98071164,0.013594478,-0.01299375,-0.022243977
33317500000,-0.0068655717,-0.022494465,-0.89116436,-0.0013567805,-0.98209131,0.0135158,-0.013730385,-0.020608434
33385000000,-0.0077102175,-0.022262342,-0.89179045,-0.0075343549,-0.98332649,0.012460858,-0.013942548,-0.021310451
33452500000,-0.0081079509,-0.021872642,-0.88886201,-0.013118863,-0.98142874,0.012388766,-0.013838261,-0.019616093
33520000000,-0.0080723865,-0.02125207,-0.89133698,-0.016719699,-0.98355889,0.012455165,-0.01359497,-0.019578442
33587500000,-0.0088626435,-0.020606775,-0.89245975,-0.023123667,-0.98481786,0.010893643,-0.014814488,-0.01886062
33655000000,-0.0081979772,-0.020706054,-0.89216483,-0.02798494,-0.98300207,0.012274511,-0.01369397,-0.01749575
33722500000,-0.0086468253,-0.020093789,-0.89606678,-0.031594083,-0.98455554,0.012368768,-0.014333475,-0.016940668
33790000000,-0.0087882904,-0.019282915,-0.89851606,-0.036443457,-0.98352122,0.012242198,-0.013831204,-0.01594596
33857500000,-0.0087986253,-0.018806826,-0.90165454,-0.043264955,-0.98327726,0.013974577,-0.013244074,-0.015432415
33925000000,-0.0088649364,-0.018458553,-0.90632838,-0.044717729,-0.98516101,0.013668999,-0.012871655,-0.01444831
33992500000,-0.0087654945,-0.017590387,-0.91356313,-0.049523473,-0.98361254,0.012782693,-0.011986626,-0.01471704
34060000000,-0.0083679277,-0.01752568,-0.91657883,-0.051578462,-0.98378921,0.014864028,-0.011259226,-0.013970791
34127500000,-0.0080811018,-0.016751332,-0.92302227,-0.051133931,-0.98503184,0.014906056,-0.010157186,-0.013482821
34195000000,-0.0071437475,-0.016207106,-0.92911589,-0.050690323,-0.98219895,0.014064908,-0.010334622,-0.013734327
34262500000,-0.0073445323,-0.016735049,-0.93249011,-0.050459296,-0.98203582,0.017308623,-0.0088634323,-0.013116891
34330000000,-0.00641781,-0.016830945,-0.93838823,-0.050528869,-0.98278141,0.016628861,-0.0084878886,-0.012985958
34397500000,-0.0058857617,-0.016630067,-0.94108605,-0.046589822,-0.98073459,0.016858935,-0.0074790241,-0.013668581
34465000000,-0.0053604138,-0.016667664,-0.94582218,-0.043429524,-0.98125672,0.019160032,-0.0071410649,-0.0140682
34532500000,-0.005240126,-0.017329004,-0.94738179,-0.04264912,-0.9818278,0.017366767,-0.0063706012,-0.014091693
34600000000,-0.0052272216,-0.01778931,-0.9477517,-0.03955169,-0.97997713,0.018591151,-0.0066802902,-0.014904498
34667500000,-0.0046664933,-0.017116878,-0.94986951,-0.036420017,-0.98065394,0.019178092,-0.0059519731,-0.014935784
34735000000,-0.005113584,-0.018014345,-0.95211357,-0.035493195,-0.98105216,0.018141866,-0.0053144409,-0.016106198
34802500000,-0.0050791181,-0.017968584,-0.9521904,-0.032429665,-0.97792995,0.018976957,-0.0062708114,-0.016021397
34870000000,-0.0046609668,-0.018360885,-0.95335102,-0.029462337,-0.97879452,0.019280374,-0.0056113009,-0.016850883
34937500000,-0.0047184946,-0.018524773,-0.95265067,-0.028676659,-0.97997928,0.018552244,-0.0065691005,-0.017268892
35005000000,-0.0047791055,-0.018745024,-0.9519996,-0.026914559,-0.97906065,0.019866154,-0.0058789025,-0.017174315
35072500000,-0.0054808208,-0.019684361,-0.95483196,-0.028021723,-0.9794991,0.019172996,-0.0067520114,-0.017892424
35140000000,-0.0062848385,-0.019255817,-0.95381355,-0.027656175,-0.97732443,0.01854758,-0.0068532922,-0.017971374
35207500000,-0.0065766433,-0.018925786,-0.95281559,-0.024558663,-0.97969508,0.019725919,-0.0074582165,-0.0178653
35275000000,-0.006087156,-0.019239182,-0.9529959,-0.023861352,-0.97953922,0.017577618,-0.0080351708,-0.017265085
35342500000,-0.0066926461,-0.019084342,-0.95300657,-0.023123309,-0.97892797,0.018995106,-0.00796689,-0.018024728
35410000000,-0.0067214225,-0.019149773,-0.95143932,-0.020721406,-0.9814676,0.018093348,-0.0081196856,-0.016468776
35477500000,-0.0066275531,-0.018748898,-0.95192838,-0.021893948,-0.98094237,0.01845932,-0.008842323,-0.016427562
35545000000,-0.007156475,-0.018779276,-0.95030308,-0.020534486,-0.98125315,0.018550009,-0.008148808,-0.016449153
35612500000,-0.0078468006,-0.018443592,-0.95361412,-0.020077825,-0.9818083,0.019504547,-0.0085599218,-0.016312357
35680000000,-0.0070909038,-0.01824614,-0.95191026,-0.020106047,-0.98295271,0.019455135,-0.0079781264,-0.015527419
35747500000,-0.0074809664,-0.018512445,-0.95031899,-0.018573046,-0.98242313,0.019776464,-0.007888943,-0.01660347
35815000000,-0.0069751702,-0.017614264,-0.95071924,-0.017172456,-0.98402011,0.019721746,-0.0077012824,-0.015344995
35882500000,-0.007275586,-0.017668519,-0.95057291,-0.016802952,-0.98429191,0.02016294,-0.0076236539,-0.01494026
35950000000,-0.0070235417,-0.01737221,-0.95224351,-0.014675051,-0.98438221,0.02130504,-0.0081987353,-0.015745563
36017500000,-0.0071888687,-0.016722875,-0.95148218,-0.015440352,-0.98598683,0.020257499,-0.0074270158,-0.014907816
36085000000,-0.0065782298,-0.01711349,-0.95023781,-0.01532498,-0.98554105,0.021467268,-0.0074425638,-0.015290087
36152500000,-0.0063351169,-0.016891168,-0.95043743,-0.012109026,-0.98697549,0.021677189,-0.0078530638,-0.015148977
36220000000,-0.0061407685,-0.016563464,-0.95074391,-0.012708604,-0.98647106,0.02083981,-0.0074613239,-0.015021852
36287500000,-0.0057692425,-0.016521811,-0.94779581,-0.011580393,-0.98756254,0.020842781,-0.0060128374,-0.014723064
36355000000,-0.006238285,-0.016685711,-0.94825453,-0.0088075399,-0.98933464,0.021117568,-0.0069644214,-0.015948869
36422500000,-0.0060240109,-0.016802011,-0.94932151,-0.01054135,-0.98755717,0.020869255,-0.0065724766,-0.015539434
36490000000,-0.0055474183,-0.017342545,-0.94587564,-0.0095791817,-0.98909104,0.022017539,-0.006191859,-0.015810013
36557500000,-0.0049271728,-0.01748482,-0.94385231,-0.0075445473,-0.98966551,0.021595389,-0.0062158294,-0.016859127
36625000000,-0.0049948348,-0.017615488,-0.94185966,-0.0064322501,-0.98857081,0.021461889,-0.0070826011,-0.016092176
36692500000,-0.0050742403,-0.017427834,-0.94145232,-0.0058597028,-0.9896071,0.022128105,-0.0062472145,-0.017001577
36760000000,-0.0056345537,-0.017564911,-0.94217712,-0.0062068403,-0.98864472,0.020852923,-0.0069303485,-0.017639939
36827500000,-0.0048459233,-0.018783245,-0.93852365,-0.0060262382,-0.98923707,0.022149533,-0.0070795487,-0.017152736
36895000000,-0.0049218857,-0.018914958,-0.93624604,-0.0047430694,-0.99095929,0.02159223,-0.0071004839,-0.017619602
36962500000,-0.0060079591,-0.018351495,-0.93547565,-0.0057357252,-0.98969275,0.021026492,-0.0080306008,-0.018343816
37030000000,-0.0053334995,-0.018780258,-0.93233299,-0.0072306097,-0.98899627,0.02127251,-0.0080462629,-0.018272564
37097500000,-0.005973835,-0.018725485,-0.93277407,-0.0067591667,-0.98962927,0.021152198,-0.0081109172,-0.018683538
37165000000,-0.0064399783,-0.018886551,-0.92824143,-0.0094782114,-0.98806781,0.021487087,-0.0093054101,-0.018583987
37232500000,-0.0062229997,-0.019536886,-0.92575192,-0.0090388358,-0.98916823,0.02175054,-0.0097031128,-0.01826138
37300000000,-0.0071268938,-0.019743806,-0.92573255,-0.010618716,-0.99037582,0.021060795,-0.010061052,-0.018349133
37367500000,-0.0072331456,-0.018937236,-0.92333937,-0.013355374,-0.98829484,0.020872951,-0.010931402,-0.018176667
37435000000,-0.0074637095,-0.019093847,-0.92234617,-0.01406689,-0.98909533,0.022970542,-0.011326672,-0.017838458
37502500000,-0.0080736391,-0.018987035,-0.92192703,-0.017283887,-0.98946029,0.021287858,-0.012043389,-0.017929133
37570000000,-0.0086474344,-0.018588716,-0.91976947,-0.021093577,-0.98762918,0.022477776,-0.012368703,-0.017097803
37637500000,-0.0091646425,-0.018421737,-0.92040169,-0.02494067,-0.98796004,0.022806078,-0.01290935,-0.016182307
37705000000,-0.0091620209,-0.01800058,-0.92013872,-0.027998447,-0.98799944,0.021714598,-0.013319929,-0.016280232
37772500000,-0.010194631,-0.017448246,-0.91837704,-0.034471899,-0.98731506,0.022460341,-0.014028728,-0.014636261
37840000000,-0.0097061787,-0.01720864,-0.91896904,-0.037510648,-0.98749912,0.022688776,-0.013895586,-0.013466254
37907500000,-0.009983561,-0.017086908,-0.91900986,-0.041073531,-0.98719501,0.022897258,-0.01336044,-0.013152181
37975000000,-0.0099237897,-0.015720099,-0.9214071,-0.044593841,-0.98657602,0.02320829,-0.01370538,-0.012540148
38042500000,-0.010142164,-0.01518378,-0.92480564,-0.047824264,-0.98728645,0.022758484,-0.012301048,-0.010962032
38110000000,-0.0095702438,-0.014805783,-0.9290961,-0.051988751,-0.98568916,0.024110496,-0.012052321,-0.011200295
