!CSV A.01.01
!Keysight Technologies,N5247B,US56070639,A.17.30.08
!Date: Wednesday, July 22, 2026 11:53:22
!Source: Standard

BEGIN CH1_DATA
Freq(Hz),S21(REAL),S21(IMAG),S11(REAL),S11(IMAG),S22(REAL),S22(IMAG),S12(REAL),S12(IMAG)
26500000000,-0.00052353833,-0.015572311,-0.97210783,0.0015082061,-1.0061151,0.018126249,-0.0030418048,-0.0160357
26567500000,-0.00078183925,-0.015347537,-0.96894228,-0.00074744225,-1.0059814,0.01764819,-0.0023033964,-0.015714189
26635000000,-0.00080736307,-0.015830355,-0.96652889,0.00080800056,-1.0034161,0.016602486,-0.0025872136,-0.016407872
26702500000,-0.00086743268,-0.015668234,-0.96813244,0.0011586994,-1.0047328,0.01925537,-0.0028875363,-0.016425552
26770000000,-0.00086355465,-0.016079936,-0.96676475,-7.9259276e-005,-1.0061704,0.015535712,-0.0034336664,-0.016404608
26837500000,-0.001331625,-0.015310127,-0.96517658,0.0011292994,-1.0029818,0.017939478,-0.0036678498,-0.015560341
26905000000,-0.0016184514,-0.015351008,-0.96709526,-0.00037741661,-1.0044482,0.01785174,-0.0038241758,-0.015870413
26972500000,-0.001505123,-0.015623178,-0.96391523,-0.00079593062,-1.004113,0.016376525,-0.0033056727,-0.015816534
27040000000,-0.0013941445,-0.015812712,-0.96575594,0.0010328051,-1.0015838,0.017126957,-0.0036554271,-0.01582442
27107500000,-0.0014748694,-0.01529295,-0.96637529,-0.00028008223,-1.0046849,0.017727792,-0.0039019804,-0.015594144
27175000000,-0.00094291102,-0.015230277,-0.96301264,-8.2984567e-005,-1.0025728,0.015314251,-0.0036240707,-0.015449068
27242500000,-0.00088248681,-0.015532896,-0.96288693,0.0015054643,-1.0010948,0.01702553,-0.0031894329,-0.01521402
27310000000,-0.00065424782,-0.015250298,-0.96354508,-0.00032283366,-1.0022601,0.017062902,-0.0033575806,-0.015593714
27377500000,-0.00067179371,-0.015710007,-0.96221614,0.0010146499,-1.0005474,0.015267849,-0.0039389608,-0.015456342
27445000000,-0.00039272243,-0.015446317,-0.96355188,0.00090679526,-0.9993338,0.016958475,-0.0034092357,-0.014973549
27512500000,-0.00069857575,-0.015329828,-0.96408617,-0.00076311827,-1.0020163,0.015892982,-0.0035648625,-0.015131458
27580000000,-0.00028907089,-0.015286977,-0.96132308,0.0015353858,-0.99834818,0.014744014,-0.0025217826,-0.015228197
27647500000,-0.00016452186,-0.016022559,-0.96389163,0.0007969141,-0.9990977,0.017230362,-0.0030288289,-0.015978919
27715000000,-0.00075135403,-0.016040282,-0.96323627,0.00063617527,-1.0010601,0.015560374,-0.0030277409,-0.015131532
27782500000,-0.00036961306,-0.016367773,-0.96372658,0.0016230345,-0.99797285,0.014797986,-0.0024102447,-0.015948046
27850000000,-0.00069336034,-0.01636784,-0.96438986,0.001763925,-0.99868906,0.016698405,-0.0026458325,-0.015560745
27917500000,-0.00053598825,-0.016507292,-0.96305847,0.0018739104,-0.999327,0.014185101,-0.0027643861,-0.016438095
27985000000,-0.0011421768,-0.016055826,-0.9640761,0.004235059,-0.99719346,0.014926136,-0.002984541,-0.01643686
28052500000,-0.00095693069,-0.016311787,-0.96529782,0.0031907856,-0.9985522,0.015495449,-0.0031738114,-0.01579077
28120000000,-0.0010589622,-0.016295649,-0.96362638,0.004978925,-0.99843526,0.014384836,-0.003304312,-0.015711775
28187500000,-0.0010092524,-0.016540531,-0.9634456,0.0064386651,-0.99668151,0.015793018,-0.003059716,-0.016401673
28255000000,-0.0014657001,-0.016173836,-0.96438044,0.0062688589,-0.99815524,0.016040027,-0.0034439636,-0.016005475
28322500000,-0.0013573668,-0.016189162,-0.96320111,0.0070848167,-0.99766088,0.014667243,-0.0031094258,-0.016128054
28390000000,-0.0014652307,-0.015931142,-0.96388346,0.0083047524,-0.99582857,0.015880063,-0.0031279768,-0.015731528
28457500000,-0.0014998512,-0.015950523,-0.96282017,0.0088878274,-0.99669749,0.016019881,-0.002579778,-0.015676918
28525000000,-0.0013393257,-0.016012967,-0.96202946,0.011121243,-0.99735677,0.01546067,-0.0029356284,-0.016077064
28592500000,-0.0010005455,-0.015787816,-0.95968413,0.012013555,-0.99579716,0.015705973,-0.0029001981,-0.016431835
28660000000,-0.0010537123,-0.016175088,-0.96078223,0.012109995,-0.99791288,0.016037732,-0.0027161576,-0.016397968
28727500000,-0.0006300371,-0.015833857,-0.95922267,0.013055115,-0.99659878,0.015081546,-0.0025484466,-0.015795892
28795000000,-0.00041580503,-0.015741199,-0.9586876,0.013079435,-0.99631453,0.015518442,-0.0025493985,-0.016257701
28862500000,-0.00094674714,-0.016304716,-0.95825529,0.014668673,-0.99755764,0.015200734,-0.0031941244,-0.016585892
28930000000,-0.00082365796,-0.016429046,-0.95703483,0.014695048,-0.99734485,0.014147729,-0.0027315882,-0.016834099
28997500000,-0.00021000067,-0.016778843,-0.95433402,0.015669659,-0.99632084,0.01485227,-0.0030398916,-0.016805768
29065000000,-0.00018585171,-0.016917897,-0.9538675,0.01618728,-0.9982872,0.015183166,-0.0025292984,-0.016558364
29132500000,-0.00045972131,-0.017197452,-0.95243204,0.014984965,-0.99707246,0.013712764,-0.0028507579,-0.017068049
29200000000,-0.00021203142,-0.017049231,-0.95019603,0.015007079,-0.99702841,0.014492542,-0.0032416615,-0.017493201
29267500000,-0.00067663495,-0.017395213,-0.9509297,0.015651202,-0.99882543,0.01424754,-0.0031000637,-0.017492479
29335000000,-0.00025701418,-0.017215393,-0.94804221,0.015573099,-0.99736381,0.012776554,-0.0027537977,-0.017233741
29402500000,-0.00079191773,-0.018167384,-0.94598734,0.016336914,-0.99818909,0.013175733,-0.0033179724,-0.017492419
29470000000,-0.00018741889,-0.017639786,-0.94637805,0.01695399,-1.0002832,0.012171358,-0.003347174,-0.017743377
29537500000,-0.00088886498,-0.018018303,-0.94346082,0.014356434,-0.99963927,0.011123896,-0.0039667729,-0.018009152
29605000000,-0.00065681152,-0.018163042,-0.9425543,0.015174657,-0.99972606,0.013618469,-0.0042064521,-0.017716864
29672500000,-0.0013807956,-0.018042935,-0.94426501,0.013220906,-1.0011724,0.012234718,-0.0039513507,-0.017857946
29740000000,-0.0014786413,-0.017721433,-0.94163525,0.012524635,-0.99924493,0.011334717,-0.0040667597,-0.017578285
29807500000,-0.0012106225,-0.018140547,-0.94150054,0.013976425,-1.000932,0.013009936,-0.0044105561,-0.017696979
29875000000,-0.00095472299,-0.018218871,-0.94041204,0.01239422,-1.0034628,0.011174053,-0.0054123811,-0.017676691
29942500000,-0.0014040859,-0.018078869,-0.93885189,0.011027474,-1.0010276,0.011367515,-0.0043641804,-0.017254563
30010000000,-0.0019332157,-0.017991209,-0.93910354,0.011086315,-1.0019082,0.013645887,-0.0045787995,-0.016883139
30077500000,-0.0021958873,-0.018343864,-0.94017112,0.0088184178,-1.0024906,0.010823369,-0.0045124232,-0.016623273
30145000000,-0.0018934277,-0.017744055,-0.93834311,0.0091606975,-1.0002246,0.011635661,-0.0044237566,-0.017214347
30212500000,-0.0018668436,-0.017835384,-0.93963623,0.010095924,-1.004396,0.011793703,-0.0049603246,-0.01656522
30280000000,-0.0017220727,-0.017107077,-0.93960357,0.0086710751,-1.00281,0.01110658,-0.0040222867,-0.016929148
30347500000,-0.0012288378,-0.017572653,-0.93790531,0.010145426,-1.0009894,0.011143327,-0.0038748076,-0.016614968
30415000000,-0.0019267313,-0.01727826,-0.9400875,0.009331733,-1.0039939,0.012569517,-0.0039675818,-0.01666599
30482500000,-0.0013449597,-0.01776387,-0.93949407,0.0077205747,-1.0028629,0.010188788,-0.0040206201,-0.016978974
30550000000,-0.0016239281,-0.01755455,-0.93925524,0.0096707642,-1.0010775,0.012276292,-0.0032637054,-0.01702751
30617500000,-0.0011198447,-0.017684713,-0.94029963,0.0100298,-1.0030321,0.011501513,-0.0033998161,-0.016878985
30685000000,-0.0010393751,-0.017721491,-0.93898511,0.010063946,-1.0014462,0.0094863474,-0.0023329398,-0.01764008
30752500000,-0.00046204217,-0.017973324,-0.93659902,0.012894049,-1.0012488,0.01056011,-0.0029253103,-0.017618924
30820000000,-0.00097093359,-0.018716052,-0.93735015,0.011866659,-1.0042979,0.0099804699,-0.0030221627,-0.018095374
30887500000,-0.0010528266,-0.018495273,-0.93543261,0.011852354,-1.0018879,0.0092632473,-0.0029074843,-0.018154662
30955000000,-0.001391464,-0.018752903,-0.9367401,0.012638755,-1.0030528,0.011597395,-0.0022618924,-0.019099427
31022500000,-0.0012741797,-0.019044708,-0.93617725,0.012822837,-1.0042168,0.010259122,-0.0033898354,-0.019309819
31090000000,-0.00090185832,-0.019385632,-0.93372512,0.013764024,-1.002496,0.0094802976,-0.0036452345,-0.018946026
31157500000,-0.001132613,-0.01907987,-0.93317556,0.015088052,-1.0026443,0.010300636,-0.0040039392,-0.02004908
31225000000,-0.0018373744,-0.020123564,-0.93254012,0.014186978,-1.0039949,0.0084341168,-0.0042178244,-0.020523982
31292500000,-0.0016676299,-0.01953104,-0.93005145,0.014042422,-1.0030181,0.0089177042,-0.0036662905,-0.020677615
31360000000,-0.0023821276,-0.019999009,-0.93110859,0.01501818,-1.005246,0.0091289729,-0.0053215488,-0.020456595
31427500000,-0.0025257755,-0.019562433,-0.93051147,0.014697865,-1.0045069,0.010147572,-0.0056394129,-0.020251011
31495000000,-0.0020045256,-0.019854365,-0.93030334,0.015607417,-1.0042118,0.010692418,-0.0058048875,-0.020714147
31562500000,-0.0028142696,-0.020024458,-0.93011326,0.01511395,-1.0051615,0.010207981,-0.005780939,-0.019733608
31630000000,-0.0023885248,-0.019169867,-0.92927492,0.015898854,-1.0037993,0.0094797015,-0.00578492,-0.019911069
31697500000,-0.0028270124,-0.019796692,-0.92948753,0.016466141,-1.0040679,0.010175675,-0.0064929957,-0.020064706
31765000000,-0.0027197571,-0.01940421,-0.92856324,0.016357988,-1.005105,0.010366201,-0.0066016293,-0.0194647
31832500000,-0.0031058593,-0.019202534,-0.92801845,0.016662359,-1.0051181,0.010800719,-0.0066456292,-0.019387091
31900000000,-0.0025676547,-0.019355657,-0.92790985,0.017755106,-1.00384,0.011211416,-0.0063102357,-0.019638723
31967500000,-0.0027559204,-0.018645326,-0.92818326,0.018013531,-1.0059719,0.011576425,-0.0063930843,-0.019268449
32035000000,-0.0027350811,-0.019517004,-0.92635703,0.017917931,-1.0051314,0.011779547,-0.0069321217,-0.01941344
32102500000,-0.0027023852,-0.019381396,-0.9243499,0.019771457,-1.0044812,0.011952519,-0.0063996417,-0.018857636
32170000000,-0.0023223236,-0.019061131,-0.92487001,0.020308346,-1.0039843,0.011446565,-0.0059885159,-0.01901768
32237500000,-0.0028541628,-0.019201215,-0.92508233,0.020438373,-1.0041412,0.010675192,-0.0059847832,-0.019729733
32305000000,-0.0023749685,-0.019107804,-0.92189234,0.020872176,-1.0038663,0.011011422,-0.0058927103,-0.018881038
32372500000,-0.002370507,-0.019690892,-0.92117316,0.022334814,-1.0044415,0.011531591,-0.006186767,-0.019947525
32440000000,-0.0029661271,-0.01909828,-0.92252558,0.022736132,-1.0044771,0.01105655,-0.0061040195,-0.019886473
32507500000,-0.0022743624,-0.019728217,-0.91780901,0.022358686,-1.0039638,0.010012761,-0.0058759986,-0.020310758
32575000000,-0.003283537,-0.019578984,-0.91770065,0.023120105,-1.0048511,0.0099969208,-0.0065668873,-0.020826975
32642500000,-0.0027179765,-0.019387592,-0.91870868,0.022743821,-1.0040089,0.0087279677,-0.0066608503,-0.020555858
32710000000,-0.0030329227,-0.01999506,-0.91535246,0.021943897,-1.0042025,0.0096944571,-0.0078804065,-0.021415142
32777500000,-0.0032705185,-0.019526249,-0.91267705,0.023276895,-1.0055912,0.0092102289,-0.0074155233,-0.02108977
32845000000,-0.0031186095,-0.019683283,-0.91271704,0.022298485,-1.0048434,0.0090792775,-0.0081864763,-0.021763448
32912500000,-0.0034867958,-0.020409172,-0.91048312,0.021789551,-1.0050917,0.0096451938,-0.0087128403,-0.02124916
32980000000,-0.0036676498,-0.020252893,-0.90805697,0.019758135,-1.006573,0.0093857646,-0.008758489,-0.021912411
33047500000,-0.0041152225,-0.020034017,-0.90653479,0.017639726,-1.0059302,0.0076967329,-0.010174705,-0.02094668
33115000000,-0.0044710673,-0.020131959,-0.90504837,0.01684013,-1.0067682,0.0095407739,-0.010565397,-0.021213992
33182500000,-0.004617142,-0.020043209,-0.90499103,0.015947431,-1.0084553,0.0085547566,-0.010912696,-0.020517454
33250000000,-0.00495741,-0.019857317,-0.90349638,0.014608622,-1.0068365,0.0094987154,-0.012178194,-0.020875465
33317500000,-0.004854646,-0.019933362,-0.90244937,0.013682902,-1.0079765,0.010570288,-0.012892973,-0.019526536
33385000000,-0.0060573919,-0.020027392,-0.90229118,0.010350436,-1.0093257,0.0086883605,-0.012815828,-0.020472256
33452500000,-0.005735998,-0.019384192,-0.89968789,0.0076316297,-1.0067126,0.0095911026,-0.013442474,-0.019022841
33520000000,-0.00650104,-0.019303966,-0.90153992,0.0070815682,-1.0099123,0.010088652,-0.012459529,-0.018594004
33587500000,-0.0068340325,-0.018388735,-0.90166157,0.0040826797,-1.0102081,0.0090409815,-0.014314084,-0.018119428
33655000000,-0.0066122701,-0.018878587,-0.89972013,0.0027894136,-1.0078501,0.010290725,-0.013252342,-0.017007688
33722500000,-0.0071561066,-0.018535376,-0.90099782,0.0027837902,-1.010451,0.012226939,-0.014434284,-0.017095972
33790000000,-0.0072831782,-0.017904771,-0.89969009,0.00065971911,-1.009153,0.011274844,-0.014409086,-0.01556998
33857500000,-0.0074838414,-0.018064138,-0.89930874,-0.0022069216,-1.0085903,0.012452722,-0.014178637,-0.015698696
33925000000,-0.0076527307,-0.017798802,-0.90004861,-0.0019827038,-1.0091432,0.012425557,-0.014247345,-0.014383037
33992500000,-0.0076374128,-0.016808927,-0.90085191,-0.0044923723,-1.0078994,0.011919588,-0.013904243,-0.014692858
34060000000,-0.0076167127,-0.017019473,-0.89895105,-0.0049970448,-1.0079708,0.014393657,-0.014052108,-0.01345633
34127500000,-0.0079587251,-0.016865795,-0.89940113,-0.0057251379,-1.0095499,0.013434313,-0.013127085,-0.013576806
34195000000,-0.0074023232,-0.016033739,-0.89996916,-0.0073221028,-1.0071079,0.012859464,-0.013761447,-0.013194692
34262500000,-0.0078984564,-0.016626915,-0.89742732,-0.0083103478,-1.0061843,0.014826089,-0.01286782,-0.012535809
34330000000,-0.0079837339,-0.015463666,-0.89783257,-0.010874823,-1.0081248,0.014969036,-0.012462789,-0.01186522
34397500000,-0.0080556208,-0.015850769,-0.89604712,-0.011014223,-1.0059137,0.014309943,-0.012707585,-0.011940891
34465000000,-0.0080453614,-0.01543277,-0.89686561,-0.013200134,-1.006405,0.015083909,-0.011976282,-0.011736015
34532500000,-0.0076753227,-0.015047695,-0.89536738,-0.018214971,-1.0065782,0.013063312,-0.011661592,-0.011355233
34600000000,-0.0077515771,-0.015087083,-0.89312905,-0.019831128,-1.0051596,0.014257617,-0.011670513,-0.011236032
34667500000,-0.0077055739,-0.014648748,-0.89456463,-0.02223599,-1.0067689,0.014406681,-0.011209747,-0.010641811
34735000000,-0.0079875095,-0.013733913,-0.89657003,-0.027788371,-1.0070591,0.012562394,-0.010823674,-0.011148887
34802500000,-0.0078854449,-0.013704251,-0.89756823,-0.030184448,-1.0061117,0.013773799,-0.010698801,-0.010631426
34870000000,-0.0075202077,-0.012981297,-0.89923823,-0.03335011,-1.0075961,0.0133847,-0.010184007,-0.010541126
34937500000,-0.0072554518,-0.013736503,-0.90001804,-0.03851074,-1.0082122,0.01378864,-0.0099224336,-0.0095442981
35005000000,-0.0071859676,-0.012945255,-0.90396762,-0.041103564,-1.0075581,0.014251605,-0.0095490832,-0.0096385693
35072500000,-0.007222225,-0.012868688,-0.90827966,-0.046721399,-1.0085384,0.014025554,-0.009726461,-0.0098818
35140000000,-0.0067969179,-0.012651296,-0.9112066,-0.050196487,-1.0081536,0.013862697,-0.0089282282,-0.0096551254
35207500000,-0.0065005673,-0.012311284,-0.91692895,-0.048457541,-1.0102051,0.015164107,-0.0085402038,-0.0096104816
35275000000,-0.0062095402,-0.012660352,-0.92089808,-0.049474917,-1.0101029,0.014267355,-0.0079800012,-0.0093060052
35342500000,-0.0059706704,-0.011677307,-0.92649573,-0.048937097,-1.0085834,0.015369341,-0.0076610339,-0.0096048787
35410000000,-0.0052961581,-0.012013402,-0.92899644,-0.047923699,-1.0096833,0.014691919,-0.0073223868,-0.0094584711
35477500000,-0.0050336355,-0.011265321,-0.93405271,-0.048867911,-1.011916,0.016085893,-0.0066530388,-0.0088445786
35545000000,-0.0044012121,-0.011652991,-0.93608415,-0.044304132,-1.0106574,0.016017497,-0.0062729931,-0.009192206
35612500000,-0.0050586462,-0.012342533,-0.94470382,-0.042756021,-1.0095589,0.017782897,-0.0062478282,-0.0097766332
35680000000,-0.0042727594,-0.011633044,-0.94490016,-0.040748686,-1.0100821,0.017377257,-0.0055889329,-0.0092608808
35747500000,-0.0043927617,-0.012325592,-0.94538343,-0.036512524,-1.0109708,0.017924726,-0.0047463039,-0.0099148173
35815000000,-0.0034643002,-0.012648153,-0.94877619,-0.032230079,-1.0116619,0.017221332,-0.0053493725,-0.010273409
35882500000,-0.0030091146,-0.012046097,-0.94891173,-0.028923459,-1.0113375,0.018446997,-0.0045143724,-0.01065495
35950000000,-0.0035852573,-0.012443204,-0.95213252,-0.024711221,-1.0110155,0.019023478,-0.0051769172,-0.010576779
36017500000,-0.0029451044,-0.012504388,-0.95115101,-0.022805817,-1.0122842,0.018233396,-0.0045402851,-0.010638022
36085000000,-0.0026797317,-0.012475843,-0.94977486,-0.020684898,-1.0105734,0.019009203,-0.0044291709,-0.011682558
36152500000,-0.0034196423,-0.01282982,-0.95036459,-0.016290113,-1.0112011,0.019755453,-0.0048353504,-0.011793916
36220000000,-0.0028410098,-0.013473568,-0.94986773,-0.014343649,-1.0113709,0.018721789,-0.0043948325,-0.011806034
36287500000,-0.0022308845,-0.013124171,-0.94674349,-0.01140362,-1.0115876,0.018315099,-0.0036725125,-0.011859296
36355000000,-0.0025405947,-0.012681449,-0.94703126,-0.0064743161,-1.012417,0.01793322,-0.0040959446,-0.012818499
36422500000,-0.0025028307,-0.012907028,-0.94790685,-0.0079655647,-1.0111836,0.017629564,-0.0038293395,-0.012769106
36490000000,-0.0024047429,-0.013579793,-0.94382948,-0.0060601085,-1.0128843,0.01867637,-0.0036424173,-0.013050271
36557500000,-0.0024860969,-0.013758154,-0.94148296,-0.0034720302,-1.0132791,0.018188059,-0.0044583655,-0.013934324
36625000000,-0.0023596012,-0.013734414,-0.93928045,-0.0018781871,-1.012506,0.01816766,-0.0047827642,-0.013672521
36692500000,-0.0019597732,-0.014089503,-0.93893433,-0.00034305453,-1.0127251,0.018598497,-0.004272785,-0.014192752
36760000000,-0.0026306245,-0.014243472,-0.93987572,-0.00038123131,-1.0134985,0.017487556,-0.005556094,-0.014892265
36827500000,-0.0022879532,-0.014417078,-0.93637037,-0.00026744604,-1.0135348,0.018451363,-0.0050865123,-0.014287869
36895000000,-0.0024482468,-0.014492728,-0.93332946,0.001845181,-1.0158312,0.018206149,-0.0052961111,-0.015067778
36962500000,-0.002525087,-0.014329706,-0.93325168,0.0015843213,-1.0150088,0.017460197,-0.006009188,-0.015161187
37030000000,-0.0026174574,-0.014648488,-0.93145537,0.00083446503,-1.014462,0.018465549,-0.0059247669,-0.01522139
37097500000,-0.0030896193,-0.014491725,-0.93141758,0.0016508698,-1.016016,0.01844123,-0.0060789036,-0.015451754
37165000000,-0.0030281749,-0.014688704,-0.92798746,0.00031140447,-1.0144417,0.018397808,-0.0068975906,-0.015498472
37232500000,-0.0027820913,-0.015366344,-0.92664278,0.0010774136,-1.0159737,0.019843698,-0.0070003606,-0.015059452
37300000000,-0.0031138202,-0.015207455,-0.92803752,0.0001603961,-1.0177901,0.020091236,-0.0075760633,-0.015721304
37367500000,-0.0038800722,-0.015329374,-0.92687684,-0.0011690557,-1.0156635,0.020134419,-0.0078523951,-0.015324295
37435000000,-0.0035058246,-0.014776218,-0.9253974,-0.00043049641,-1.0171695,0.021769587,-0.0081699193,-0.015426368
37502500000,-0.0036146231,-0.01462282,-0.92494857,-0.0013713837,-1.0173602,0.02146247,-0.0078018201,-0.015167588
37570000000,-0.0034895684,-0.015148704,-0.92363369,-0.0027292073,-1.0163988,0.023457035,-0.0086739017,-0.014816232
37637500000,-0.0040139798,-0.014943977,-0.92494345,-0.0036308914,-1.0175087,0.022933394,-0.0083693825,-0.014163326
37705000000,-0.0040375963,-0.014288236,-0.9253369,-0.003839463,-1.0174383,0.023805067,-0.0088921273,-0.014655743
37772500000,-0.0051679583,-0.014389869,-0.92321187,-0.0060148537,-1.0170766,0.024816692,-0.0098475516,-0.013781251
37840000000,-0.0045071086,-0.014666706,-0.92289972,-0.0058057606,-1.0169119,0.026131645,-0.010004884,-0.013262603
37907500000,-0.0042415918,-0.014581064,-0.92133594,-0.0050161257,-1.0161505,0.026282996,-0.0095888199,-0.013630471
37975000000,-0.0043456159,-0.014031691,-0.92175782,-0.0048411489,-1.0165027,0.028791994,-0.010278102,-0.01276609
38042500000,-0.0039154598,-0.014096232,-0.92195141,-0.0049667656,-1.0165921,0.027122855,-0.0097562158,-0.01181257
38110000000,-0.004102577,-0.013725821,-0.92293316,-0.0061475933,-1.0142164,0.027169347,-0.009477308,-0.012700891
38177500000,-0.0045178435,-0.013468084,-0.92253745,-0.0057572424,-1.0141516,0.028211892,-0.0095666694,-0.012371009
