!CSV A.01.01
!Keysight Technologies,N5247B,US56070639,A.17.30.08
!Date: Wednesday, July 22, 2026 11:47:38
!Source: Standard

BEGIN CH1_DATA
Freq(Hz),S21(REAL),S21(IMAG),S11(REAL),S11(IMAG),S22(REAL),S22(IMAG),S12(REAL),S12(IMAG)
26500000000,-2.9588118e-006,-0.013626626,-1.0079399,0.01101163,-0.98628175,0.018668622,-0.00035794033,-0.014543305
26567500000,-9.3462877e-005,-0.013382243,-1.0054643,0.0094020367,-0.98548794,0.019064933,0.00021331897,-0.014213309
26635000000,-0.0001493711,-0.014399702,-1.0038903,0.010347784,-0.98254389,0.018425792,4.4023152e-005,-0.014851048
26702500000,-0.00019497355,-0.014068976,-1.0064404,0.011229873,-0.98444539,0.019867897,-0.00023876433,-0.014627523
26770000000,-0.00018040556,-0.013800192,-1.0058579,0.0093010738,-0.9851737,0.017109081,-0.00020420947,-0.014807096
26837500000,-0.00059767417,-0.013902622,-1.0047933,0.010977373,-0.98239535,0.018471807,-0.00051637203,-0.014711759
26905000000,-0.00060276478,-0.013777573,-1.0074203,0.0098495185,-0.98479217,0.019197062,-0.00055553159,-0.014531978
26972500000,-0.00078117847,-0.014010916,-1.0046861,0.0099583566,-0.98425967,0.016726255,-0.00045361323,-0.014634511
27040000000,-0.00034988357,-0.013752681,-1.0056421,0.011641748,-0.98179322,0.018207688,-0.00023408822,-0.01499941
27107500000,-0.0006830967,-0.013587582,-1.0063514,0.010611027,-0.98470938,0.018412352,-0.00062626041,-0.014539272
27175000000,5.5544777e-005,-0.013663708,-1.0036649,0.0099287778,-0.98268718,0.015842423,-0.00026501575,-0.014431633
27242500000,0.00021861959,-0.013860482,-1.0033922,0.011987925,-0.9824791,0.018312007,-0.00012501515,-0.014426237
27310000000,0.00011206989,-0.013758054,-1.0048368,0.0098667741,-0.98302621,0.018450856,-0.00031935447,-0.014862801
27377500000,0.0002607808,-0.014050052,-1.0029886,0.011031464,-0.9811461,0.017039508,-0.00045964401,-0.014944013
27445000000,0.00040585222,-0.014035659,-1.0038636,0.011165529,-0.98103178,0.018083811,-0.00031909533,-0.014309376
27512500000,0.00011224486,-0.014304014,-1.0045898,0.0095818043,-0.9836095,0.017303556,-0.00056445645,-0.014714774
27580000000,0.00043878658,-0.014013171,-1.0017986,0.011245191,-0.97958505,0.017265916,0.00017982395,-0.014523806
27647500000,0.00024128892,-0.014554449,-1.0041333,0.010900348,-0.98044842,0.019121498,0.00017770939,-0.015187851
27715000000,0.00030393712,-0.014534176,-1.0039514,0.010372221,-0.98224825,0.017719746,-0.00036372221,-0.014488571
27782500000,0.00020885421,-0.014690563,-1.0034075,0.011059463,-0.97932971,0.017384201,0.00034197234,-0.014918091
27850000000,-0.0005621959,-0.014834864,-1.0041753,0.011101902,-0.98049003,0.018928766,0.00012276368,-0.01473756
27917500000,-0.00021195179,-0.014936304,-1.0035388,0.010301352,-0.98026901,0.015909821,-0.0001253034,-0.01549607
27985000000,-0.00026599132,-0.014572518,-1.0030565,0.011814445,-0.97886443,0.016877919,-0.00020842766,-0.015114857
28052500000,-0.00068968255,-0.014841314,-1.0046225,0.010373503,-0.98100346,0.017213076,-0.00049710274,-0.014608304
28120000000,-0.00032291282,-0.014977709,-1.0036066,0.010495216,-0.98094827,0.016311437,-0.00060438411,-0.014262099
28187500000,-0.00030895579,-0.014473645,-1.0034877,0.011409208,-0.97908098,0.01755929,-0.00016989955,-0.014689482
28255000000,-0.0012274589,-0.014645617,-1.0044314,0.011760116,-0.98041576,0.017635554,-0.00040483801,-0.014795037
28322500000,-0.00077937311,-0.014413293,-1.0032973,0.011374325,-0.97962457,0.016313702,-0.00036564656,-0.014847401
28390000000,-0.0003607081,-0.014444213,-1.0043607,0.012025278,-0.97864741,0.01819412,-0.00035134994,-0.014356697
28457500000,-0.00083572045,-0.014123672,-1.0042808,0.011786342,-0.98044795,0.018728435,0.00042038225,-0.014108687
28525000000,-0.00044167088,-0.014553618,-1.0034835,0.011868834,-0.98008829,0.01827231,0.00012700073,-0.014237786
28592500000,-3.5468955e-005,-0.014170591,-1.0025012,0.012377083,-0.97818524,0.018749058,0.00013479125,-0.014692644
28660000000,4.4737943e-005,-0.014447819,-1.0040225,0.011971086,-0.9797492,0.018906713,0.00058064703,-0.014583498
28727500000,6.445765e-005,-0.01429614,-1.0038298,0.012353145,-0.97915936,0.018786207,0.00027175085,-0.013969228
28795000000,0.00011608284,-0.014197605,-1.0035301,0.011133403,-0.97832036,0.019631654,0.0004695463,-0.014724545
28862500000,0.0001691021,-0.014078517,-1.0044107,0.012354285,-0.97900385,0.019677937,0.00063012075,-0.01474271
28930000000,1.8182211e-005,-0.014427779,-1.0034823,0.011595517,-0.9788745,0.018418401,0.00073110918,-0.014854858
28997500000,0.00059623207,-0.01462636,-1.0034155,0.012148134,-0.97811747,0.019260533,0.00061280205,-0.014922142
29065000000,0.00033719011,-0.014790298,-1.00374,0.011896566,-0.98047662,0.019659914,0.0012111841,-0.014742974
29132500000,0.00046959473,-0.015228854,-1.004308,0.010909319,-0.97891486,0.018672407,0.00090505974,-0.015048549
29200000000,0.0002920907,-0.015347362,-1.0037018,0.01118499,-0.97790313,0.018892378,0.00076795882,-0.015902122
29267500000,-0.00015780469,-0.01540231,-1.0051568,0.011232741,-0.98008311,0.018506579,0.00035268103,-0.015271615
29335000000,0.00061268825,-0.015302218,-1.0036199,0.010682464,-0.97890091,0.017835736,0.00076118531,-0.015380494
29402500000,0.0004119277,-0.015950795,-1.0032595,0.011635274,-0.97929382,0.018277392,0.00039425306,-0.015514821
29470000000,0.00065407366,-0.015973039,-1.0052994,0.011678606,-0.98088419,0.017624289,0.00090498617,-0.015690912
29537500000,-4.4956105e-005,-0.016208135,-1.0033078,0.0096694529,-0.9790917,0.016225606,0.00042896462,-0.015894013
29605000000,0.00011128699,-0.016149098,-1.0034107,0.011567354,-0.97949374,0.017693698,0.0004334338,-0.015764251
29672500000,-0.00010827137,-0.015882054,-1.0062504,0.010758758,-0.98140359,0.016570628,0.00037503475,-0.016189899
29740000000,-0.00048381276,-0.016030064,-1.0045538,0.011137903,-0.97918922,0.01600197,0.00019718148,-0.015749546
29807500000,-0.0005487497,-0.01635888,-1.0043769,0.011583149,-0.9801119,0.016256362,7.9202e-005,-0.016177393
29875000000,-0.00032368116,-0.016154189,-1.0056546,0.012011886,-0.98309433,0.014550894,-0.00084640691,-0.016248967
29942500000,-0.00033447135,-0.015930692,-1.0039599,0.010518268,-0.98130149,0.015022762,-3.2179058e-005,-0.015812237
30010000000,-0.00095440773,-0.016123734,-1.0051863,0.012073636,-0.98347008,0.017188251,-0.00012556929,-0.01515498
30077500000,-0.0007329681,-0.016081655,-1.0055265,0.011716843,-0.98326004,0.014456511,-3.9300881e-005,-0.015427016
30145000000,-0.001071044,-0.015572125,-1.0040085,0.011352435,-0.98065233,0.015476853,-6.6539505e-005,-0.01572662
30212500000,-0.0010137381,-0.016152672,-1.0047574,0.01282388,-0.98422134,0.015526742,-7.572677e-005,-0.015329453
30280000000,-0.00056324527,-0.015885934,-1.005229,0.011251539,-0.98339975,0.014914304,0.0003975709,-0.015498752
30347500000,-0.00031493977,-0.016004683,-1.0032551,0.012622297,-0.98152721,0.01526624,0.00054632407,-0.015249217
30415000000,-0.00088493899,-0.015911214,-1.0052413,0.013140768,-0.98443508,0.017044201,0.00039726216,-0.01572217
30482500000,-0.000540965,-0.016436135,-1.004825,0.011426046,-0.98309821,0.015062362,0.00060774316,-0.015525389
30550000000,-0.0005657482,-0.015841175,-1.0037905,0.013016939,-0.9821229,0.017777681,0.0010997439,-0.015702084
30617500000,-0.00015265751,-0.016358159,-1.0053054,0.013448089,-0.98286593,0.016946733,0.00069041457,-0.015552377
30685000000,-0.00013745623,-0.01670081,-1.0043821,0.012034789,-0.98050034,0.015703902,0.0018321865,-0.016070038
30752500000,0.00025175,-0.016774811,-1.0024421,0.014003336,-0.98011386,0.017844796,0.0016360814,-0.016088804
30820000000,1.5538186e-005,-0.016588818,-1.003638,0.012132049,-0.98283243,0.015948236,0.0012469948,-0.016920319
30887500000,-0.00016286504,-0.016666664,-1.0030787,0.012750059,-0.97949815,0.016227871,0.0014213156,-0.016406549
30955000000,-0.00068265526,-0.017815737,-1.0045888,0.012826085,-0.98015422,0.018585473,0.0022981663,-0.017195685
31022500000,-0.00021245703,-0.017085224,-1.0050037,0.012734354,-0.98039937,0.017082095,0.0011961083,-0.017712541
31090000000,-8.0537517e-005,-0.017456479,-1.0032854,0.012999356,-0.97836149,0.016934812,0.0014698943,-0.017349659
31157500000,-0.00067542074,-0.017784081,-1.0036856,0.013841838,-0.97859043,0.017583758,0.00076139206,-0.0184117
31225000000,-0.0012214016,-0.018383959,-1.0045756,0.012796789,-0.97931677,0.016002744,0.0013804017,-0.018162033
31292500000,-0.00078104483,-0.017706906,-1.0030196,0.012372404,-0.9767347,0.016350567,0.0013130978,-0.018634463
31360000000,-0.0011994159,-0.018636618,-1.0042044,0.014548048,-0.97807831,0.016336024,0.00057454454,-0.018434655
31427500000,-0.0018046764,-0.017683633,-1.0034615,0.012801863,-0.97745627,0.016157165,2.0659296e-005,-0.018523443
31495000000,-0.0012477543,-0.018008854,-1.003345,0.014052391,-0.9772113,0.01663816,6.0450286e-005,-0.018610876
31562500000,-0.0013798396,-0.017448084,-1.0040305,0.014301464,-0.97851431,0.0164278,-0.00018419884,-0.018367158
31630000000,-0.0019008904,-0.017356673,-1.0035424,0.013376117,-0.9770537,0.015896231,-0.0004110625,-0.01799969
31697500000,-0.0022273581,-0.017430607,-1.004638,0.013735324,-0.9774794,0.016097277,-0.00081448257,-0.017688733
31765000000,-0.0018887045,-0.017923126,-1.0037837,0.014046729,-0.97886819,0.015390486,-0.00079923403,-0.017966799
31832500000,-0.0015916233,-0.017058168,-1.003951,0.015069008,-0.9787817,0.016049922,-0.0009108521,-0.017913219
31900000000,-0.0020838999,-0.017305566,-1.0040326,0.014362507,-0.97794884,0.016467802,-0.00049586373,-0.017558828
31967500000,-0.0022665153,-0.016939281,-1.003336,0.014246762,-0.97974706,0.017321438,-0.00055597653,-0.017381093
32035000000,-0.0015635937,-0.01740782,-1.0032727,0.013825297,-0.97917819,0.017347008,-0.00039912108,-0.017281378
32102500000,-0.001921132,-0.017294994,-1.0023992,0.015167318,-0.97876245,0.018294923,-0.00049885665,-0.016865823
32170000000,-0.0010954696,-0.016755586,-1.0024062,0.014650524,-0.9787004,0.017208934,-0.00033750897,-0.017111972
32237500000,-0.0016265004,-0.016476965,-1.00236,0.01427865,-0.978836,0.017463475,-8.8082626e-005,-0.017137526
32305000000,-0.001037796,-0.017108597,-1.0024366,0.013949513,-0.97891462,0.017207801,0.00013568066,-0.017191259
32372500000,-0.0012316578,-0.017194938,-1.001292,0.014509439,-0.97892427,0.017538875,0.00051726121,-0.017736232
32440000000,-0.001388472,-0.016800404,-1.0027407,0.015148774,-0.97830909,0.018062055,0.00023391051,-0.017530715
32507500000,-0.00090226869,-0.017220456,-1.0012596,0.01317035,-0.9777357,0.018121973,0.001116998,-0.017784243
32575000000,-0.0016312636,-0.01710212,-1.0021136,0.014244825,-0.97817373,0.017619759,0.00081564859,-0.018449031
32642500000,-0.0010101125,-0.016578771,-1.002593,0.014704287,-0.97739917,0.015952259,0.00034466106,-0.018372318
32710000000,-0.0014124261,-0.01761975,-1.0015705,0.012662172,-0.97737861,0.016048223,0.00033695484,-0.01894136
32777500000,-0.00094726193,-0.017233035,-1.0010339,0.013689041,-0.97775173,0.01663506,0.00032365555,-0.019017085
32845000000,-0.00092841871,-0.017202282,-1.0015633,0.013327628,-0.97719115,0.016141951,6.5979548e-005,-0.019168284
32912500000,-0.0013176999,-0.017547714,-1.0010295,0.013378203,-0.97734892,0.015833646,-0.00041351654,-0.01931924
32980000000,-0.0013095909,-0.017649585,-1.0022123,0.013489217,-0.9776122,0.014537066,-0.00014316197,-0.019728757
33047500000,-0.0017695297,-0.017729247,-1.0021486,0.013296485,-0.9773311,0.013256282,-0.00083398074,-0.019528322
33115000000,-0.0017489839,-0.01724341,-1.001684,0.012734473,-0.97841674,0.013682745,-0.0010646094,-0.019747237
33182500000,-0.0017353818,-0.017507723,-1.0019393,0.013362795,-0.97896254,0.012054116,-0.001673473,-0.019774728
33250000000,-0.0023151489,-0.017288988,-1.0023738,0.011981562,-0.97710627,0.012453124,-0.0023731948,-0.020207958
33317500000,-0.0021659588,-0.017959099,-1.0025498,0.013203055,-0.97811133,0.01266259,-0.0026522116,-0.019501472
33385000000,-0.002838443,-0.017312586,-1.0038669,0.013363391,-0.97968757,0.01066795,-0.0028005224,-0.020261284
33452500000,-0.0028288285,-0.017818276,-1.0028932,0.013275057,-0.97796595,0.010404438,-0.0032357015,-0.019660935
33520000000,-0.0028757146,-0.017540637,-1.0028269,0.013723701,-0.97998738,0.011331141,-0.0031339223,-0.019423554
33587500000,-0.0032596542,-0.017484302,-1.0038961,0.014338762,-0.98113686,0.0092976987,-0.0040863738,-0.019559029
33655000000,-0.0028750368,-0.017198045,-1.0035187,0.013402253,-0.97917151,0.010640487,-0.0037277788,-0.019013572
33722500000,-0.0032685869,-0.017287161,-1.0035276,0.013969481,-0.98094732,0.012146145,-0.0036248276,-0.018879836
33790000000,-0.003250957,-0.01686161,-1.0037277,0.014122784,-0.98037869,0.010619164,-0.0043719597,-0.018444819
33857500000,-0.0031825253,-0.016728044,-1.0037096,0.014393389,-0.97960287,0.011965543,-0.0037822812,-0.018358614
33925000000,-0.003394438,-0.01649184,-1.004097,0.015056044,-0.98152238,0.011918515,-0.0040385858,-0.017263889
33992500000,-0.0031779427,-0.016387835,-1.0050516,0.01437065,-0.9801209,0.011294752,-0.003982855,-0.018165581
34060000000,-0.0038290038,-0.016372925,-1.0040647,0.015105546,-0.98063707,0.013427526,-0.0040363921,-0.017244037
34127500000,-0.0037086359,-0.016121406,-1.0042468,0.015539914,-0.98190105,0.013255283,-0.0034032217,-0.017115079
34195000000,-0.0029626796,-0.016096218,-1.0046511,0.015446097,-0.97923201,0.012898088,-0.0038140342,-0.017206432
34262500000,-0.003539945,-0.01630553,-1.0035295,0.015718341,-0.97883832,0.015591681,-0.0031052227,-0.016622553
34330000000,-0.0034611837,-0.016010819,-1.0051855,0.015515268,-0.97966379,0.015065163,-0.0030152441,-0.016924165
34397500000,-0.0029303746,-0.016349142,-1.0045933,0.015935272,-0.97775686,0.015085727,-0.0028642747,-0.016513808
34465000000,-0.0032173721,-0.016147293,-1.0047278,0.016122043,-0.97868437,0.016525686,-0.0021953885,-0.016878357
34532500000,-0.0031113774,-0.016696483,-1.0045638,0.015517071,-0.97858781,0.015685067,-0.0021479537,-0.016663205
34600000000,-0.0026758977,-0.016474674,-1.0040992,0.014892519,-0.97652107,0.016912192,-0.0026057239,-0.017173693
34667500000,-0.002985951,-0.01670099,-1.0037733,0.016505212,-0.97783786,0.017123222,-0.0020492249,-0.01736119
34735000000,-0.00314757,-0.016804114,-1.0057498,0.014456272,-0.97660416,0.015983135,-0.0014040321,-0.018069254
34802500000,-0.0036293357,-0.017101912,-1.0055346,0.01618883,-0.97475934,0.017489165,-0.0023503681,-0.017738208
34870000000,-0.0033743074,-0.017516639,-1.0054972,0.015230507,-0.97481149,0.017200291,-0.0021599079,-0.018256735
34937500000,-0.0037738397,-0.017422887,-1.0055985,0.014940768,-0.97623324,0.016152591,-0.002654192,-0.018184237
35005000000,-0.0035044083,-0.017520051,-1.0057105,0.01513657,-0.97560024,0.01759411,-0.0026262335,-0.017920267
35072500000,-0.004433034,-0.017979367,-1.007691,0.015221924,-0.97603452,0.016511232,-0.0035036686,-0.018507857
35140000000,-0.0046005691,-0.017743282,-1.0062574,0.014264464,-0.97419745,0.016338438,-0.0035574879,-0.018176377
35207500000,-0.0047832858,-0.017351272,-1.0072418,0.015524857,-0.97599041,0.016172826,-0.0036840942,-0.017942196
35275000000,-0.0045937132,-0.017588621,-1.0068394,0.015606899,-0.97678715,0.014737118,-0.0039671762,-0.017637497
35342500000,-0.0051766206,-0.017074363,-1.0064405,0.015539482,-0.97599435,0.015577778,-0.0042643044,-0.018234272
35410000000,-0.005548167,-0.017456483,-1.0073646,0.016094103,-0.97812599,0.015062883,-0.0042471895,-0.016821418
35477500000,-0.0057478286,-0.017444402,-1.0075948,0.015244961,-0.97885072,0.015573621,-0.0051988745,-0.016855177
35545000000,-0.0058556455,-0.016640786,-1.0055205,0.015964657,-0.97873276,0.016093075,-0.0042884848,-0.016805001
35612500000,-0.0058348509,-0.016073596,-1.0074797,0.018418938,-0.98000735,0.016326159,-0.0048552221,-0.016984787
35680000000,-0.0058944291,-0.016045997,-1.0072995,0.01648587,-0.97962642,0.016887158,-0.004326357,-0.015696943
35747500000,-0.0064713419,-0.016270652,-1.0055085,0.016490608,-0.9801423,0.017117739,-0.0037037078,-0.016189216
35815000000,-0.0055893026,-0.015882894,-1.0058712,0.018008024,-0.98161668,0.016868025,-0.0041814712,-0.015650958
35882500000,-0.0057400023,-0.015467188,-1.0054189,0.017033987,-0.98074907,0.017207339,-0.0039013443,-0.014943315
35950000000,-0.0062873247,-0.015172499,-1.0067513,0.018311232,-0.98163819,0.018441021,-0.003997162,-0.015984545
36017500000,-0.0057731494,-0.015055452,-1.0057876,0.017931879,-0.98290735,0.017405942,-0.0038570897,-0.015125065
36085000000,-0.0058669127,-0.015271207,-1.0048465,0.017073393,-0.98247606,0.018143207,-0.0039683124,-0.015545544
36152500000,-0.0060000881,-0.014879419,-1.0061888,0.018113106,-0.98422623,0.018355489,-0.0043516038,-0.01512271
36220000000,-0.0055134171,-0.014386801,-1.0056651,0.017051846,-0.98326635,0.017661333,-0.0038036979,-0.014871152
36287500000,-0.0049636336,-0.014477934,-1.0034471,0.016893953,-0.98318785,0.018143311,-0.0032703499,-0.014807492
36355000000,-0.0050315661,-0.014567556,-1.004564,0.018986166,-0.98499537,0.01837647,-0.0028106605,-0.015825771
36422500000,-0.0048586274,-0.014393476,-1.005798,0.018552899,-0.98373437,0.018523067,-0.0030723438,-0.015432965
36490000000,-0.0048689167,-0.01470456,-1.0047525,0.017355256,-0.98522103,0.019246735,-0.0028409259,-0.015726997
36557500000,-0.0045281509,-0.014843395,-1.0042286,0.017833322,-0.98490691,0.017746538,-0.002827568,-0.016452875
36625000000,-0.0042879386,-0.014938666,-1.0029367,0.01709187,-0.98335034,0.018038005,-0.0034161541,-0.015840249
36692500000,-0.004365792,-0.015111811,-1.0033562,0.017904133,-0.98460168,0.018053532,-0.0026790011,-0.016638609
36760000000,-0.0045094676,-0.015004338,-1.0062594,0.017871886,-0.98376721,0.017373681,-0.0033220672,-0.016402466
36827500000,-0.004183359,-0.015326681,-1.0046229,0.016802013,-0.98467821,0.018054366,-0.0033517536,-0.01630603
36895000000,-0.0040784101,-0.015328434,-1.0029973,0.017675877,-0.98641253,0.017702997,-0.0028485209,-0.01708767
36962500000,-0.0045319349,-0.015067223,-1.0041443,0.017686442,-0.98429304,0.016257286,-0.002960532,-0.01749922
37030000000,-0.0045853308,-0.0155917,-1.0039929,0.016666502,-0.98339343,0.017147481,-0.0037780656,-0.016772382
37097500000,-0.0048212423,-0.015613576,-1.0052559,0.017604649,-0.98490107,0.016977727,-0.0036678822,-0.017339867
37165000000,-0.0048921951,-0.015724221,-1.0047464,0.015750349,-0.98281986,0.015945017,-0.0049922685,-0.017793197
37232500000,-0.0051637227,-0.015701864,-1.003695,0.017580807,-0.98487782,0.016497433,-0.0043871538,-0.017532621
37300000000,-0.005310107,-0.015721753,-1.0054078,0.01852569,-0.98578411,0.015856639,-0.0048988881,-0.017482784
37367500000,-0.005643243,-0.015087311,-1.0060278,0.018009007,-0.98368084,0.015616238,-0.0057630725,-0.017660633
37435000000,-0.0049416642,-0.015529396,-1.0043011,0.016981646,-0.98527271,0.017228641,-0.0055473265,-0.017127935
37502500000,-0.0057662493,-0.015028523,-1.0056186,0.018220395,-0.98425448,0.015786827,-0.0057014972,-0.01739621
37570000000,-0.0052983961,-0.015417436,-1.0060006,0.018099088,-0.98371929,0.016232057,-0.0060936641,-0.016855942
37637500000,-0.0058878302,-0.01537988,-1.0071058,0.018975712,-0.98467255,0.015881352,-0.0064047612,-0.017168136
37705000000,-0.0061888546,-0.014698904,-1.0071306,0.01869297,-0.98436159,0.015428007,-0.0064901151,-0.017264642
37772500000,-0.0068063186,-0.01435524,-1.0061072,0.019131735,-0.98468488,0.0159619,-0.0071859444,-0.016652785
37840000000,-0.0061207395,-0.014299266,-1.0079302,0.018613841,-0.98478305,0.016068578,-0.0070977882,-0.015901452
37907500000,-0.0055663423,-0.014641225,-1.0066959,0.018254526,-0.98406285,0.016199887,-0.0072789607,-0.015453853
37975000000,-0.0061876723,-0.013682315,-1.0046827,0.019443125,-0.98512566,0.017605245,-0.0071142749,-0.015848292
38042500000,-0.0058759581,-0.013681995,-1.0048717,0.020558357,-0.98474264,0.016525716,-0.0070720329,-0.014694111
38110000000,-0.0056216512,-0.013484825,-1.006253,0.019186646,-0.98303533,0.017558157,-0.0063630221,-0.015314553
38177500000,-0.0058236737,-0.013575116,-1.0055884,0.020659029,-0.98455226,0.017584175,-0.0067644664,-0.014680259
38245000000,-0.0052252216,-0.013300191,-1.0068476,0.020108968,-0.98382831,0.017237484,-0.0063320887,-0.014073053
