!CSV A.01.01
!Keysight Technologies,N5247B,US56070639,A.17.30.08
!Date: Wednesday, July 22, 2026 11:48:08
!Source: Standard

BEGIN CH1_DATA
Freq(Hz),S21(REAL),S21(IMAG),S11(REAL),S11(IMAG),S22(REAL),S22(IMAG),S12(REAL),S12(IMAG)
26500000000,-0.00056191394,-0.012926612,-1.005007,0.012902528,-0.98327583,0.020206511,-0.00066539226,-0.013590686
26567500000,-6.7773275e-005,-0.012868663,-1.0031004,0.010804802,-0.98327929,0.020164847,-0.00044838153,-0.013292785
26635000000,-0.00044420036,-0.01282764,-1.0016866,0.012047201,-0.98023725,0.019857526,-0.00011820672,-0.013710454
26702500000,-0.00049596792,-0.013088888,-1.0035939,0.012228906,-0.98170292,0.021210581,-0.00049102632,-0.013624704
26770000000,-0.0002244967,-0.01282374,-1.002988,0.010698214,-0.98202616,0.018305995,-0.0005124046,-0.013889482
26837500000,-0.00080457469,-0.012704796,-1.002,0.012644544,-0.98018759,0.020123005,-0.00091247563,-0.013284066
26905000000,-0.00058573904,-0.013117573,-1.0043879,0.011803955,-0.98240221,0.019438803,-0.00090945326,-0.01375599
26972500000,-0.00080167595,-0.013141671,-1.0021173,0.010999113,-0.98199928,0.018156916,-0.00080378121,-0.013783952
27040000000,-0.00077863823,-0.013012476,-1.0030259,0.013229001,-0.97960138,0.019249592,-0.00067924219,-0.013957388
27107500000,-0.00057022832,-0.013183169,-1.0042458,0.011998445,-0.98215508,0.019808829,-0.0008285176,-0.013501007
27175000000,-0.00036753551,-0.012392963,-1.0012785,0.011102617,-0.98154444,0.017107174,-0.0002578476,-0.013474085
27242500000,-0.0001029158,-0.012575278,-1.0014596,0.013432801,-0.98086601,0.019404978,-0.00036237482,-0.013372583
27310000000,-0.00012795243,-0.012812227,-1.0027418,0.011629269,-0.98095667,0.019668765,-0.0003382673,-0.013801477
27377500000,-2.3112865e-005,-0.012737639,-1.0007228,0.012486875,-0.97912002,0.017897159,-0.00060303067,-0.013782348
27445000000,0.0001968937,-0.013139522,-1.0015761,0.013043463,-0.97902644,0.018951774,-0.00039017713,-0.013041552
27512500000,-4.8241578e-005,-0.013198975,-1.0024972,0.011182725,-0.98163718,0.018264949,-0.00045666285,-0.013322486
27580000000,0.00011738203,-0.012969549,-0.99946558,0.012839884,-0.9776262,0.018415928,1.7347746e-005,-0.013325558
27647500000,0.00023522135,-0.013808184,-1.0019088,0.012195557,-0.97845447,0.019567043,5.2114949e-005,-0.014014345
27715000000,-0.00013481244,-0.013734417,-1.0014981,0.011673212,-0.98012364,0.018064231,-4.0723011e-005,-0.013620906
27782500000,0.00019074231,-0.013609199,-1.0015562,0.012292743,-0.97766906,0.018561244,0.00020153308,-0.013632005
27850000000,-0.00062674028,-0.013764245,-1.0016232,0.012658775,-0.9787581,0.019807652,-0.00045469077,-0.013480863
27917500000,-0.00016429508,-0.014275053,-1.0010425,0.01187712,-0.97840095,0.017372578,-0.00010715425,-0.014283989
27985000000,-0.00032779993,-0.013685936,-1.0008998,0.013619304,-0.97692776,0.017885506,-0.00044463109,-0.014314622
28052500000,-0.00045383722,-0.013618244,-1.0029439,0.011798948,-0.97975826,0.017673343,-0.00043770345,-0.013827853
28120000000,-0.00060374942,-0.013657944,-1.0011637,0.012275875,-0.97926348,0.01709646,-0.00053799246,-0.013552299
28187500000,-0.00016655447,-0.01356996,-1.0011824,0.012985393,-0.97740692,0.018769011,-0.00047950412,-0.013779862
28255000000,-0.0012519965,-0.013403897,-1.0018576,0.013125271,-0.97887814,0.018698543,-0.00053868396,-0.01353315
28322500000,-0.00070193829,-0.013558871,-1.0009809,0.012976497,-0.97777873,0.017748684,-0.00033483002,-0.0136216
28390000000,-0.00058867788,-0.013332352,-1.0017028,0.013822258,-0.97721118,0.01944077,-0.00037970312,-0.013310823
28457500000,-0.00093872519,-0.013002992,-1.0019746,0.013083816,-0.97862732,0.018964797,-0.0001502852,-0.013369023
28525000000,-0.00088364258,-0.013428005,-1.0011401,0.013459444,-0.97804236,0.018919587,6.6014007e-005,-0.013461357
28592500000,-0.00028491579,-0.013357351,-1.0004172,0.013713658,-0.97604251,0.019398928,0.0002198033,-0.013564492
28660000000,-0.00034711324,-0.013788601,-1.0019057,0.013213396,-0.97841609,0.019414902,0.00012607221,-0.014208265
28727500000,-0.00019253901,-0.013130005,-1.0015404,0.013668228,-0.97728121,0.019525461,0.00044798653,-0.013485624
28795000000,4.5386609e-005,-0.013231654,-1.0013562,0.012970939,-0.97670954,0.020672262,0.00056334026,-0.013670964
28862500000,4.4411048e-005,-0.013207095,-1.0015678,0.01375562,-0.97795784,0.020193398,0.0005327533,-0.013850216
28930000000,4.0005427e-005,-0.013559804,-1.0013466,0.013045132,-0.97716075,0.019104719,0.00063489517,-0.014011024
28997500000,0.00044360408,-0.013650848,-1.001184,0.013202868,-0.9770332,0.019684851,0.00047634495,-0.013904933
29065000000,0.00039747736,-0.014173098,-1.0017215,0.01315549,-0.97849882,0.020261779,0.00086236442,-0.01379388
29132500000,0.00018474367,-0.014369909,-1.0019861,0.012825131,-0.97707939,0.019323796,0.0011076573,-0.014392408
29200000000,0.0002453248,-0.014333844,-1.0011227,0.012682736,-0.97655249,0.020007849,0.00074781664,-0.014302066
29267500000,-9.3456823e-005,-0.014472236,-1.0020895,0.012758285,-0.97850853,0.019466862,0.00033267983,-0.01451095
29335000000,0.00064206729,-0.01435449,-1.0008986,0.012426004,-0.97703671,0.017953679,0.00068551721,-0.014313766
29402500000,-0.00027557998,-0.014839713,-1.0007782,0.013262093,-0.9780671,0.018844724,0.00053933449,-0.014590354
29470000000,0.00051363674,-0.014829089,-1.0024893,0.012683988,-0.97882611,0.018399417,0.0002321275,-0.015177236
29537500000,-0.00014702184,-0.015034573,-1.0009172,0.011377156,-0.9775008,0.016399831,0.0001459904,-0.015073939
29605000000,-4.5511406e-005,-0.015241281,-1.0009001,0.013493091,-0.97866225,0.017937303,0.00016898662,-0.015153553
29672500000,-0.00047807349,-0.015112794,-1.0042479,0.012619853,-0.97944164,0.016564727,0.00030000554,-0.014979363
29740000000,-0.00029956363,-0.015027336,-1.0014027,0.012560099,-0.97761834,0.01653856,3.6843121e-006,-0.014829583
29807500000,-0.00012551527,-0.014954785,-1.001611,0.013726652,-0.97928727,0.016773403,-8.539157e-005,-0.015388127
29875000000,-0.0004129475,-0.015486201,-1.0030875,0.013615847,-0.98178017,0.014935106,-0.0012290939,-0.015395655
29942500000,-6.3392974e-005,-0.015084514,-1.0011967,0.012204032,-0.98005825,0.014843386,2.3543835e-006,-0.014740694
30010000000,-0.00057199551,-0.015394942,-1.0020131,0.013539523,-0.98208863,0.017462939,-0.00050948514,-0.01404091
30077500000,-0.00071255723,-0.015233383,-1.0031002,0.012827754,-0.98206878,0.014654726,-0.0002949913,-0.01443721
30145000000,-0.00069203926,-0.014929103,-1.0013292,0.01300998,-0.97979641,0.015428603,-0.00022352021,-0.014864623
30212500000,-0.00056642061,-0.015094485,-1.0020756,0.014738381,-0.98352218,0.015855074,-0.00023519062,-0.014119512
30280000000,-0.00058028148,-0.014687127,-1.002525,0.012931228,-0.98255146,0.015329868,0.00054879161,-0.014614283
30347500000,6.7309011e-005,-0.015064789,-1.0002393,0.014371425,-0.98073781,0.015215635,0.00044992333,-0.01451847
30415000000,-0.0011005562,-0.01494338,-1.0027038,0.014586836,-0.98361397,0.016785339,0.00038298592,-0.01456437
30482500000,-0.00049350737,-0.015196828,-1.0017149,0.013134405,-0.98201156,0.014988035,0.00013641361,-0.014510561
30550000000,-0.00054710312,-0.015181221,-1.0011259,0.014556885,-0.98086822,0.017261803,0.0011046561,-0.014679611
30617500000,-0.00042426819,-0.015374398,-1.0024407,0.014948085,-0.98248225,0.01670751,0.0009987161,-0.014652864
30685000000,-0.00024677184,-0.015143153,-1.0011575,0.013765275,-0.97957444,0.015691549,0.0015746672,-0.015228272
30752500000,0.00032590935,-0.015676267,-0.99911052,0.015898645,-0.97960168,0.017466426,0.0013030916,-0.015301902
30820000000,-1.0495074e-005,-0.016249798,-1.0004525,0.013893098,-0.98235071,0.015727252,0.0013802331,-0.015806835
30887500000,-0.00022590905,-0.015805883,-0.9998343,0.014716029,-0.97890985,0.016086578,0.0013620649,-0.015542502
30955000000,-0.00053774379,-0.016122421,-1.0018924,0.014877886,-0.98009855,0.01841642,0.0024014341,-0.016169801
31022500000,-0.00052308943,-0.016170386,-1.0024059,0.01499036,-0.9798308,0.016888082,0.0012530796,-0.016630756
31090000000,-0.00071708439,-0.016242681,-0.99985051,0.014754176,-0.97822708,0.016472459,0.0013302136,-0.016440973
31157500000,-0.00025052251,-0.016449174,-1.0008962,0.015693814,-0.97787136,0.01675269,0.0014330382,-0.016939664
31225000000,-0.00069631403,-0.016932482,-1.0011584,0.015154183,-0.97819775,0.015696347,0.000848772,-0.017360052
31292500000,-0.00070426427,-0.016801478,-0.99957269,0.014406294,-0.97624826,0.015896052,0.0012163753,-0.017692674
31360000000,-0.001292621,-0.016730348,-1.0002811,0.015835389,-0.9772954,0.015922338,0.00017870124,-0.017935207
31427500000,-0.0010370887,-0.016226694,-0.99962604,0.014904842,-0.97730696,0.015755393,-0.00035626919,-0.017603792
31495000000,-0.0013642367,-0.016999772,-0.9993459,0.015808672,-0.97708201,0.016036808,0.00015015434,-0.017634286
31562500000,-0.0020083352,-0.016372776,-1.0011088,0.015857443,-0.9781056,0.016433805,-0.00033142907,-0.017295633
31630000000,-0.0013982845,-0.016400164,-1.000705,0.015201956,-0.97684205,0.015353233,-0.00032405136,-0.01741164
31697500000,-0.0019172574,-0.016719248,-1.0007997,0.015825212,-0.97745907,0.015646249,-0.00094563048,-0.017043281
31765000000,-0.0016227374,-0.016864339,-0.99997348,0.016427875,-0.97866952,0.015532047,-0.00063928869,-0.017180627
31832500000,-0.0012344876,-0.016364567,-0.99987781,0.015626281,-0.9785713,0.015506953,-0.00037680846,-0.01646065
31900000000,-0.001443958,-0.016150378,-0.99981308,0.016112678,-0.97860062,0.016395785,-0.0007993686,-0.016788878
31967500000,-0.0016291664,-0.015733913,-1.0001462,0.0162348,-0.97977126,0.016942382,-0.00069791358,-0.016282266
32035000000,-0.0017727483,-0.015826005,-0.99960053,0.016229391,-0.97962201,0.016854197,-0.00064130314,-0.016678598
32102500000,-0.0014764612,-0.015958425,-0.9992317,0.01685138,-0.97874266,0.017288484,-0.00060222775,-0.016020874
32170000000,-0.0011190665,-0.01604525,-0.99933696,0.016029686,-0.97908998,0.017220795,-0.00012803776,-0.01603562
32237500000,-0.0013939752,-0.015714243,-0.99943852,0.01580888,-0.97972059,0.017149389,-0.00037153019,-0.015998915
32305000000,-0.0014083651,-0.015870003,-0.99905807,0.015490592,-0.97940052,0.017480284,0.00041088928,-0.016391296
32372500000,-0.0010983553,-0.015958903,-0.9979465,0.015930057,-0.98029423,0.017701179,0.000642634,-0.01681163
32440000000,-0.0010801463,-0.015952094,-0.99977964,0.017229542,-0.97926384,0.01769875,0.00024385424,-0.017030999
32507500000,-0.00068743085,-0.016404919,-0.99798745,0.015284415,-0.97900432,0.017861042,0.00068481301,-0.017150316
32575000000,-0.0010922207,-0.016428739,-0.99855566,0.01597777,-0.97939944,0.017316282,0.00045972923,-0.017297912
32642500000,-0.00095227035,-0.015602274,-0.9993487,0.016436994,-0.97865129,0.016150445,0.0004701023,-0.017735923
32710000000,-0.0011851261,-0.016565904,-0.99884284,0.014976174,-0.9788506,0.015891641,0.00016299402,-0.017889686
32777500000,-0.0010600034,-0.016326679,-0.99812835,0.015336022,-0.97907525,0.016538247,0.0002338537,-0.017933166
32845000000,-0.0011181971,-0.016506705,-0.99857819,0.015203625,-0.97812247,0.015555799,-2.4106354e-005,-0.018006321
32912500000,-0.00096171303,-0.016575122,-0.99792391,0.015216023,-0.97905684,0.015897065,-0.00023131538,-0.018185021
32980000000,-0.0012976462,-0.016896553,-0.99916631,0.015273273,-0.97974133,0.015181959,-8.5097738e-005,-0.018576622
33047500000,-0.0014449083,-0.016725924,-0.99941164,0.014267474,-0.97874343,0.013133913,-0.00085701374,-0.018566521
33115000000,-0.0016228303,-0.01686948,-0.9987253,0.014695764,-0.97941834,0.014162779,-0.0011890004,-0.018971618
33182500000,-0.0013142782,-0.016849861,-0.99922174,0.015106499,-0.98103666,0.012551278,-0.0014583161,-0.019182723
33250000000,-0.0017959664,-0.01687271,-0.99942309,0.013896897,-0.97889054,0.013094559,-0.0023794738,-0.019101562
33317500000,-0.001833457,-0.016913366,-0.99846196,0.014231563,-0.98022646,0.013997734,-0.0025123674,-0.018754495
33385000000,-0.0023380602,-0.017042125,-1.0008211,0.015103906,-0.98138189,0.012191862,-0.002970783,-0.019629849
33452500000,-0.0025523384,-0.016589204,-1.0000323,0.014809668,-0.97915101,0.012098044,-0.0030143214,-0.01857667
33520000000,-0.0025697737,-0.016646054,-1.00012,0.015220493,-0.98221385,0.012773156,-0.0029429323,-0.018295839
33587500000,-0.0029643588,-0.016173357,-1.0011237,0.015368789,-0.98314124,0.010680228,-0.0037433123,-0.018190803
33655000000,-0.0025946042,-0.016399495,-1.0006366,0.0150778,-0.98141211,0.011872664,-0.0037159363,-0.017859036
33722500000,-0.0026905169,-0.016252724,-1.0005591,0.015495598,-0.98269248,0.013294578,-0.0038285791,-0.018038955
33790000000,-0.0031838417,-0.016078662,-1.0005434,0.015645236,-0.98175699,0.012240529,-0.0040943166,-0.017098363
33857500000,-0.0032492457,-0.016093474,-1.0006946,0.015735447,-0.98113877,0.013580501,-0.0037026117,-0.01734796
33925000000,-0.0033974075,-0.015810773,-1.0012864,0.016480625,-0.9828546,0.013579279,-0.0037786765,-0.016948149
33992500000,-0.0031553763,-0.015440286,-1.0018362,0.015811682,-0.98129475,0.012655258,-0.0038619488,-0.016891249
34060000000,-0.0031806626,-0.015741386,-1.0012715,0.016391575,-0.98158705,0.01459837,-0.0036727223,-0.016543455
34127500000,-0.0036012982,-0.015701758,-1.0013744,0.016869083,-0.98311985,0.014519028,-0.0033444646,-0.016478008
34195000000,-0.0033361265,-0.015007712,-1.001259,0.016583502,-0.98006237,0.014777809,-0.0035523651,-0.016747717
34262500000,-0.0030745985,-0.015740354,-1.00047,0.01697138,-0.97952497,0.017008126,-0.0032337373,-0.016285598
34330000000,-0.003134975,-0.015563146,-1.0014199,0.017268807,-0.98094946,0.017285168,-0.0034194735,-0.016255401
34397500000,-0.0025772136,-0.015647307,-1.0011909,0.017246991,-0.97843421,0.01723066,-0.0028672621,-0.016179992
34465000000,-0.0028079608,-0.015613769,-1.001452,0.017985106,-0.97927868,0.018750072,-0.0029047043,-0.015908601
34532500000,-0.0028782864,-0.015908992,-1.0011586,0.016798124,-0.97959816,0.01794292,-0.0020101224,-0.015760653
34600000000,-0.0028823465,-0.016218053,-1.0011373,0.01652658,-0.97800624,0.018849641,-0.0021222502,-0.016827958
34667500000,-0.0023203832,-0.016146366,-1.0011204,0.018209249,-0.97869271,0.019367844,-0.0026126034,-0.016018743
34735000000,-0.0030851266,-0.015982326,-1.0018427,0.016451955,-0.97797418,0.018557191,-0.0021289987,-0.017215848
34802500000,-0.003116772,-0.016237274,-1.002178,0.017703325,-0.9758926,0.019806415,-0.0021619317,-0.016650109
34870000000,-0.0028341943,-0.016381379,-1.0018039,0.01731807,-0.97605318,0.019724816,-0.0022103866,-0.017651966
34937500000,-0.0035415408,-0.016314708,-1.0020324,0.016699016,-0.97689074,0.019315928,-0.0027764458,-0.01743982
35005000000,-0.0038316369,-0.017063536,-1.0013785,0.017597865,-0.97699195,0.01982455,-0.0026229995,-0.017046841
35072500000,-0.0037590889,-0.017290482,-1.0043243,0.016272306,-0.97651362,0.01867947,-0.0033627809,-0.017318375
35140000000,-0.0052164914,-0.017369475,-1.0030687,0.0157938,-0.97521555,0.018184111,-0.0030808435,-0.017386807
35207500000,-0.0044742255,-0.016486265,-1.0028353,0.016735211,-0.97675294,0.019105792,-0.0031818105,-0.017406028
35275000000,-0.0046500294,-0.016624987,-1.0020057,0.017708002,-0.97698259,0.017616516,-0.0043183435,-0.01664987
35342500000,-0.005075098,-0.016211217,-1.0022258,0.016314648,-0.97578585,0.01862222,-0.0042112395,-0.017287413
35410000000,-0.0052115261,-0.016791346,-1.0025728,0.017507553,-0.97826099,0.017952114,-0.004724836,-0.016260328
35477500000,-0.0055050962,-0.016212169,-1.0035995,0.016587764,-0.97872883,0.017315894,-0.0049274284,-0.016400259
35545000000,-0.0054658344,-0.016156849,-1.0011153,0.017365098,-0.97925687,0.018302798,-0.0041727447,-0.016115773
35612500000,-0.0056898231,-0.015147258,-1.0043492,0.018645674,-0.97941691,0.019296825,-0.0048358548,-0.01524643
35680000000,-0.0062486883,-0.015172352,-1.002924,0.017493427,-0.98041582,0.019202739,-0.0041633551,-0.014637161
35747500000,-0.0062635136,-0.015484966,-1.0016428,0.018093705,-0.97998399,0.019760221,-0.0043742135,-0.015612783
35815000000,-0.0060862838,-0.014892027,-1.0013827,0.018487692,-0.98215306,0.01894322,-0.0042156428,-0.015534738
35882500000,-0.0058859638,-0.014681395,-1.001878,0.018273342,-0.98160386,0.019479521,-0.0039098519,-0.014637926
35950000000,-0.0058317534,-0.014319068,-1.0024704,0.019564837,-0.98233807,0.021051049,-0.0042985268,-0.015128409
36017500000,-0.0053492058,-0.014152972,-1.0024786,0.018926978,-0.98347998,0.019776613,-0.003887733,-0.014518291
36085000000,-0.0055204141,-0.014606895,-1.0009581,0.018185705,-0.98301113,0.020530611,-0.003844765,-0.014807856
36152500000,-0.0053029698,-0.014439253,-1.0023872,0.019130021,-0.98381305,0.020911202,-0.0039079245,-0.014440933
36220000000,-0.0051799226,-0.013973425,-1.0022974,0.018370032,-0.98378998,0.02040714,-0.0036721001,-0.014334035
36287500000,-0.0048951888,-0.013699413,-0.99958873,0.01849547,-0.98496825,0.020731673,-0.0029789428,-0.013774879
36355000000,-0.004881483,-0.014039488,-1.0000229,0.019963533,-0.98615485,0.02070196,-0.0032453251,-0.014586058
36422500000,-0.0044857385,-0.013396194,-1.0023997,0.019459933,-0.98447633,0.020475537,-0.0029632421,-0.014727832
36490000000,-0.0047392901,-0.014897607,-1.0012429,0.018138528,-0.98637146,0.021789998,-0.0027039391,-0.015381587
36557500000,-0.0043349159,-0.014251498,-1.0001227,0.018966377,-0.9858228,0.020681381,-0.0032012118,-0.015425538
36625000000,-0.0040036803,-0.014165935,-0.99863136,0.018840641,-0.98476619,0.020453304,-0.003570284,-0.015141088
36692500000,-0.0041616978,-0.01451077,-0.99962002,0.019560486,-0.98599273,0.0208866,-0.0026887446,-0.015669603
36760000000,-0.0047190697,-0.014884794,-1.0032299,0.019050628,-0.98507798,0.019984156,-0.0034056031,-0.016565003
36827500000,-0.0037544605,-0.01433483,-1.0005747,0.017682463,-0.98596346,0.020858109,-0.0030897988,-0.015643157
36895000000,-0.004073069,-0.014830312,-0.99851298,0.019325823,-0.98742723,0.020198166,-0.0032839901,-0.016123705
36962500000,-0.0038068073,-0.014671393,-1.0004663,0.018717542,-0.98569793,0.019121036,-0.0037051891,-0.016879739
37030000000,-0.0043152231,-0.014791137,-1.0001214,0.018391192,-0.98492217,0.020055205,-0.0039674002,-0.016106229
37097500000,-0.0047699027,-0.014978801,-1.0007627,0.019190103,-0.98659992,0.019420952,-0.0042145569,-0.016562697
37165000000,-0.0049376963,-0.014809012,-0.99987328,0.018266708,-0.98402542,0.019005537,-0.0044954941,-0.016906478
37232500000,-0.0045957966,-0.015172936,-0.99962038,0.018519431,-0.9860003,0.019822508,-0.0046965871,-0.016251087
37300000000,-0.0050558308,-0.015032657,-1.0021191,0.019226179,-0.98711896,0.018908799,-0.0051731481,-0.016874474
37367500000,-0.0050840285,-0.014798315,-1.001804,0.018570244,-0.98464262,0.018581539,-0.0060235495,-0.016431428
37435000000,-0.0050941659,-0.014854457,-1.0004771,0.018177867,-0.98598546,0.0204686,-0.0053851753,-0.016341256
37502500000,-0.0052124532,-0.014446978,-1.0008155,0.019082785,-0.98504567,0.019181222,-0.0055995281,-0.016874529
37570000000,-0.0059856782,-0.01459576,-1.0013002,0.01978934,-0.98497391,0.020211812,-0.0059279539,-0.016708408
37637500000,-0.0059867827,-0.014291374,-1.0021865,0.019887373,-0.98514426,0.020033523,-0.0062039094,-0.016159577
37705000000,-0.0061060856,-0.014141642,-1.0024166,0.020008832,-0.98464119,0.018976957,-0.0067524416,-0.016803933
37772500000,-0.006234772,-0.013677342,-1.0023105,0.020266488,-0.98441935,0.020031333,-0.0064932238,-0.015732422
37840000000,-0.0061060227,-0.014303837,-1.0033798,0.019309878,-0.98516417,0.02060185,-0.0072992947,-0.015095158
37907500000,-0.005956097,-0.014021692,-1.002449,0.019003358,-0.98447806,0.020686727,-0.0072832345,-0.015289776
37975000000,-0.0061904611,-0.013597839,-1.0007445,0.020050228,-0.98511583,0.021846831,-0.0076565854,-0.014641752
38042500000,-0.0055979835,-0.013421701,-1.0010548,0.020827085,-0.98507547,0.019926757,-0.0070774867,-0.013781626
38110000000,-0.0058123805,-0.013225261,-1.0024579,0.020320445,-0.98348224,0.020959824,-0.006523808,-0.013730746
38177500000,-0.0058542723,-0.013188237,-1.0021412,0.022046477,-0.98422515,0.021928728,-0.0070174872,-0.013886508
