!CSV A.01.01
!Keysight Technologies,N5247B,US56070639,A.17.30.08
!Date: Wednesday, July 22, 2026 09:59:46
!Source: Standard

BEGIN CH1_DATA
Freq(Hz),S21(REAL),S21(IMAG),S11(REAL),S11(IMAG),S22(REAL),S22(IMAG),S12(REAL),S12(IMAG)
26500000000,0.0010535799,-0.0027036658,-0.99242675,0.022677928,-0.98993683,0.02818495,0.00079595263,-0.0029262335
26567500000,0.00081781682,-0.0028412538,-0.9913128,0.021525711,-0.99021274,0.028487265,0.0010342861,-0.0029909986
26635000000,0.0011122483,-0.0033505752,-0.99102759,0.02228263,-0.98858011,0.027986676,0.0011004271,-0.0031018255
26702500000,0.00083550258,-0.0029979269,-0.9913156,0.02280964,-0.98887962,0.029309705,0.00082890654,-0.0032034791
26770000000,0.00088086794,-0.0029642202,-0.99130589,0.021940932,-0.98945546,0.028148204,0.00089209597,-0.0031436863
26837500000,0.0011295496,-0.003211227,-0.99085176,0.022557929,-0.9873414,0.028932765,0.00053721759,-0.0037145442
26905000000,0.0010075001,-0.0033118818,-0.99170363,0.022486538,-0.98852181,0.029132128,0.0010006997,-0.0035035424
26972500000,0.00082392467,-0.0037599946,-0.9911648,0.022060513,-0.98878545,0.028514892,0.0011989909,-0.0033665607
27040000000,0.0012073902,-0.003483572,-0.99193388,0.023166586,-0.98781508,0.028428655,0.00068613433,-0.0037319972
27107500000,0.00091487297,-0.0033389609,-0.99244201,0.022792846,-0.98822224,0.028732806,0.00083099771,-0.0035806326
27175000000,0.00093507417,-0.0034600489,-0.9907999,0.022402719,-0.98800665,0.027461812,0.0006963599,-0.0038534161
27242500000,0.0010178876,-0.0037575117,-0.99052197,0.023896426,-0.98823118,0.028643459,0.00085752166,-0.0040240176
27310000000,0.00092396751,-0.0033086867,-0.99127889,0.023394018,-0.98732841,0.029421106,0.0007914232,-0.0039981781
27377500000,0.00084713189,-0.003797763,-0.99072766,0.023643598,-0.98709279,0.028194919,0.00060722302,-0.0038218061
27445000000,0.0011356216,-0.0035588974,-0.99087244,0.024033338,-0.9867363,0.028147131,0.0007151782,-0.0040130476
27512500000,0.00084785919,-0.0040638321,-0.99129164,0.023373127,-0.98865438,0.028014004,0.00050061324,-0.0041801576
27580000000,0.001227646,-0.003857356,-0.98979104,0.0240376,-0.98667151,0.027835965,0.00080263289,-0.0041126716
27647500000,0.00096851692,-0.0042072423,-0.99106634,0.02407515,-0.98695147,0.028852761,0.00065751723,-0.0045448374
27715000000,0.00088247098,-0.0041215313,-0.99047667,0.02414313,-0.98757082,0.027762473,0.00060958078,-0.0041818554
27782500000,0.0010783629,-0.0042806906,-0.99029124,0.024050742,-0.98674893,0.027825862,0.00071880629,-0.0043265643
27850000000,0.0009947631,-0.0045096539,-0.99001688,0.024082124,-0.98755223,0.028639138,0.00038562075,-0.0043234294
27917500000,0.00080961018,-0.0044234172,-0.98927391,0.02402699,-0.98741072,0.027548164,0.00064639485,-0.004773234
27985000000,0.00063703477,-0.0041930256,-0.98973823,0.024695367,-0.98702657,0.02783066,0.00067068194,-0.0046125809
28052500000,0.00067492155,-0.0046160854,-0.99004161,0.023558229,-0.98792887,0.027374297,0.00040124962,-0.0047100731
28120000000,0.00060287269,-0.0043992018,-0.9889546,0.024112195,-0.98776877,0.027157158,3.3455668e-005,-0.0045471471
28187500000,0.00070315955,-0.0045417617,-0.98922634,0.024490133,-0.98699546,0.028107196,0.00030046614,-0.0045294594
28255000000,0.00037239713,-0.0048466437,-0.98955774,0.024376333,-0.98752308,0.027395725,0.00028596958,-0.0049994215
28322500000,0.00071388355,-0.0043886527,-0.98913109,0.024148226,-0.98686469,0.027032107,0.0002334048,-0.0044989856
28390000000,0.00037480937,-0.0046511521,-0.9899407,0.025012344,-0.9862569,0.028109267,0.00030318327,-0.004326114
28457500000,0.00052548514,-0.0045053577,-0.98954642,0.024433613,-0.98642957,0.027824342,0.00023744954,-0.0042988947
28525000000,0.00040462962,-0.0047334516,-0.98900872,0.02466923,-0.9871136,0.028421521,0.00022991723,-0.0046848482
28592500000,0.00047354586,-0.0047485377,-0.98856294,0.025427848,-0.98601365,0.028509945,0.00055980403,-0.0045664194
28660000000,0.00055619678,-0.0045388252,-0.98911059,0.025680095,-0.98668003,0.02784425,0.00057219435,-0.0048659816
28727500000,0.00044557118,-0.0047199884,-0.98878878,0.025700089,-0.98643243,0.02815583,0.00028904562,-0.0046853614
28795000000,0.00033773156,-0.0046536205,-0.98956883,0.025231957,-0.98601806,0.028825924,0.00029958668,-0.0049702511
28862500000,0.00023774663,-0.0044376166,-0.98941278,0.026160091,-0.98597848,0.028946638,0.0003513319,-0.004661507
28930000000,0.00023418409,-0.0047475141,-0.98880088,0.026021242,-0.98546433,0.028361738,0.00041059195,-0.00518107
28997500000,0.00031979827,-0.0049466197,-0.98840618,0.026411854,-0.98544425,0.028254986,0.00032241852,-0.0049040834
29065000000,0.00056133984,-0.0049687652,-0.98791927,0.026171505,-0.98628575,0.029354818,0.00033957735,-0.0051240567
29132500000,0.00056431745,-0.0051158108,-0.98835522,0.025992483,-0.98529267,0.028625071,0.00010407553,-0.0052779913
29200000000,0.00032871449,-0.0053918622,-0.98777258,0.026179999,-0.9847278,0.028690845,6.3279644e-005,-0.0052731875
29267500000,5.6255609e-005,-0.0050530434,-0.98815793,0.026443809,-0.98577809,0.02889077,3.2443466e-005,-0.0053720549
29335000000,0.00024633243,-0.0053037107,-0.98741263,0.026151165,-0.98502165,0.027709588,-7.8675104e-005,-0.0054293615
29402500000,8.0374128e-005,-0.0055301827,-0.98657328,0.026691116,-0.9854899,0.027901977,-0.00016531505,-0.0054498371
29470000000,0.00011349039,-0.0055781826,-0.98742354,0.027141958,-0.98638439,0.02766256,-4.6927365e-005,-0.0054384065
29537500000,-9.6062198e-005,-0.0056826989,-0.98606396,0.025545672,-0.98501945,0.026258171,-0.00021421094,-0.0058470387
29605000000,0.00018733041,-0.0055868952,-0.98591524,0.026738256,-0.98515832,0.027178735,-9.2751114e-005,-0.0054618851
29672500000,-0.00022371276,-0.0053495662,-0.98790455,0.025911242,-0.98512042,0.026374012,-0.00011093682,-0.0056955684
29740000000,-0.0001834617,-0.0054114237,-0.98682123,0.025549561,-0.98467624,0.026120663,-0.00052377931,-0.0050740475
29807500000,-0.00015416648,-0.0056094932,-0.98665857,0.026458234,-0.98455203,0.026695192,-0.00040265475,-0.0055568675
29875000000,-0.00025380054,-0.0059529967,-0.98647141,0.026413441,-0.98614371,0.025210351,-0.00084159593,-0.00552647
29942500000,-0.00055119686,-0.005312888,-0.98566556,0.025458168,-0.98510331,0.025360357,-0.00048555853,-0.0052867034
30010000000,-0.00057308469,-0.0053668753,-0.98600221,0.026498824,-0.98571056,0.026046038,-0.00063592521,-0.0051724198
30077500000,-0.00048307085,-0.0052598529,-0.98760474,0.02559948,-0.98602533,0.025149584,-0.00088815892,-0.0052343961
30145000000,-0.00068409985,-0.0052394723,-0.98680037,0.02519086,-0.98441827,0.025634021,-0.00071942201,-0.0052202228
30212500000,-0.00040729437,-0.0054518152,-0.98658574,0.026218891,-0.98634529,0.024927855,-0.00060295407,-0.0051086955
30280000000,-0.00035287836,-0.0054921117,-0.98683089,0.02612415,-0.98612988,0.025540054,-0.00047296612,-0.0050958823
30347500000,-0.00024469639,-0.0055583864,-0.9858467,0.026544213,-0.9845798,0.025221884,-0.00040224416,-0.0051014731
30415000000,-0.00087706133,-0.0052957474,-0.98652881,0.026490346,-0.9867866,0.026707694,-0.00046064885,-0.0053317305
30482500000,-0.00024024502,-0.0055233845,-0.9867608,0.025873229,-0.9856714,0.02594021,-0.00069374021,-0.0052705449
30550000000,-0.00030368124,-0.0054311976,-0.98675495,0.026113421,-0.98476434,0.026735187,-0.00013273698,-0.0051571545
30617500000,-0.00038346113,-0.005477597,-0.98670971,0.027030468,-0.98535174,0.026508108,-1.7257466e-005,-0.005405264
30685000000,-0.00023077684,-0.0055515324,-0.98655152,0.026904553,-0.98429185,0.026568413,2.5602872e-005,-0.005534017
30752500000,-0.00025478716,-0.0054138512,-0.98470438,0.02844739,-0.98408753,0.027788937,2.6040478e-005,-0.0051664542
30820000000,-0.00014373288,-0.0059412727,-0.98446381,0.027423739,-0.9852457,0.026983351,4.5481836e-005,-0.0055185854
30887500000,-0.00068533164,-0.005509017,-0.98421079,0.028051615,-0.98281062,0.027592599,-0.00010176632,-0.0056892261
30955000000,-0.00060543558,-0.0060324739,-0.98463911,0.027591541,-0.98302639,0.028610498,-7.7653793e-005,-0.0061433651
31022500000,-0.00068475469,-0.0058555333,-0.98486435,0.028649807,-0.98296225,0.02899918,-0.00023454521,-0.0061154999
31090000000,-0.00044240896,-0.0062206341,-0.98407388,0.028206915,-0.98188353,0.028591841,-0.00020933198,-0.006412385
31157500000,-0.00086357619,-0.0057890983,-0.98366892,0.029105723,-0.98088682,0.029669374,-0.00064091058,-0.0067440006
31225000000,-0.00081661541,-0.0067391042,-0.98322535,0.028796077,-0.98059553,0.02882424,-0.00055687793,-0.0066813775
31292500000,-0.00071689079,-0.0061894772,-0.98247838,0.027819961,-0.97931671,0.02922231,-0.00029184518,-0.0067970292
31360000000,-0.0010861227,-0.0063373591,-0.98283845,0.029166982,-0.98016775,0.028005376,-0.00064788567,-0.0067845285
31427500000,-0.0011024083,-0.0059951502,-0.98182702,0.028004128,-0.97858649,0.029286142,-0.0012439488,-0.0066985763
31495000000,-0.0011020231,-0.0062290654,-0.98219168,0.02831763,-0.97923386,0.028827518,-0.00088937837,-0.0067646336
31562500000,-0.0015006887,-0.0062130284,-0.9836334,0.028194577,-0.97916931,0.027986243,-0.0010972414,-0.0068602515
31630000000,-0.0012245676,-0.0061605545,-0.98280209,0.027776539,-0.97763324,0.028894335,-0.001442285,-0.0061471271
31697500000,-0.0012288888,-0.0061935633,-0.98314548,0.028134495,-0.97919738,0.029015958,-0.0012392395,-0.006593355
31765000000,-0.0012601062,-0.0061761052,-0.98205429,0.028329074,-0.97953218,0.028257549,-0.0014285536,-0.0063155545
31832500000,-0.001466766,-0.005964471,-0.98140192,0.028297096,-0.97966969,0.028489977,-0.001438061,-0.0061022658
31900000000,-0.0015946786,-0.0058555366,-0.98162758,0.028599542,-0.97971928,0.028784472,-0.0017202499,-0.0064546387
31967500000,-0.0020361096,-0.0059938165,-0.9828223,0.02903486,-0.9802382,0.029491022,-0.0016311912,-0.0058388487
32035000000,-0.0015930654,-0.0059083854,-0.9823432,0.028676122,-0.98031914,0.029371381,-0.0016225327,-0.0061743697
32102500000,-0.001665086,-0.0062635439,-0.98288655,0.028893545,-0.98020673,0.029791102,-0.0019985663,-0.0060421871
32170000000,-0.0016689014,-0.0062581212,-0.98272902,0.028782874,-0.98065531,0.029066354,-0.001433871,-0.0063634077
32237500000,-0.0017617601,-0.0061068609,-0.98350632,0.028604627,-0.98025668,0.02986595,-0.0016481715,-0.0065336544
32305000000,-0.0014330752,-0.0063676322,-0.98230803,0.028721333,-0.98086059,0.029875487,-0.0015310496,-0.006177254
32372500000,-0.0014469963,-0.0061678966,-0.98176163,0.0290007,-0.98084283,0.030482292,-0.0014801456,-0.0064485152
32440000000,-0.001533307,-0.0061656348,-0.9818238,0.029567242,-0.98050797,0.030298442,-0.0015127693,-0.0068129646
32507500000,-0.0015365058,-0.0060884822,-0.98053759,0.02912467,-0.98017281,0.030439042,-0.0016201353,-0.006491615
32575000000,-0.0021545314,-0.0063153612,-0.98121119,0.02946794,-0.97948682,0.031052321,-0.001753205,-0.0066703833
32642500000,-0.0019399715,-0.0058568423,-0.98253256,0.029738873,-0.97941369,0.030077845,-0.0018385659,-0.006849376
32710000000,-0.0020515239,-0.0064943954,-0.98194754,0.02859354,-0.97940964,0.029317796,-0.0019936038,-0.0068085957
32777500000,-0.0020176051,-0.0061638313,-0.98132616,0.028925151,-0.97899759,0.029758662,-0.0018408269,-0.0066463049
32845000000,-0.0021524467,-0.0061949384,-0.98128796,0.028882265,-0.9784379,0.029587984,-0.0023928208,-0.0071610943
32912500000,-0.0022365623,-0.0063504647,-0.9812001,0.028908938,-0.97917819,0.029518008,-0.0026591462,-0.0070709451
32980000000,-0.0024069799,-0.0063320361,-0.98145711,0.028431356,-0.97881043,0.028960735,-0.0028266059,-0.0070518479
33047500000,-0.0024996416,-0.0063811857,-0.98109525,0.028057754,-0.97877026,0.027960896,-0.0027602497,-0.0069605461
33115000000,-0.0028405366,-0.0062797512,-0.98098868,0.027746722,-0.97911185,0.027882872,-0.0029182874,-0.0069311135
33182500000,-0.0024541612,-0.0063009853,-0.98101747,0.027502239,-0.97953224,0.027221262,-0.0034893905,-0.0065721581
33250000000,-0.0026651195,-0.0060409787,-0.98080051,0.027425021,-0.97797018,0.026838019,-0.0040084552,-0.0063181063
33317500000,-0.0026842405,-0.0060920133,-0.98069692,0.027571231,-0.97800624,0.026374251,-0.0040003699,-0.0060932571
33385000000,-0.002796886,-0.0059509277,-0.98149025,0.027442783,-0.97849786,0.025583953,-0.0042320648,-0.0064206542
33452500000,-0.0030828326,-0.005804426,-0.98036844,0.027094305,-0.97744089,0.025202781,-0.0042156801,-0.0062696617
33520000000,-0.0031751115,-0.0055435714,-0.98130608,0.02701062,-0.97930098,0.025307328,-0.0039979592,-0.0062575052
33587500000,-0.0032412163,-0.0055780797,-0.98134422,0.026755542,-0.97978711,0.023573428,-0.0038077966,-0.005853428
33655000000,-0.0032339781,-0.0056729233,-0.9813236,0.026166335,-0.97888404,0.02400513,-0.0044083041,-0.0054652975
33722500000,-0.0032989362,-0.0052685696,-0.98133588,0.026294708,-0.97913885,0.024533629,-0.0042382185,-0.0053122304
33790000000,-0.0031953868,-0.0053327307,-0.98136711,0.026652157,-0.97919255,0.023863792,-0.0043175267,-0.005067281
33857500000,-0.0032639455,-0.005182154,-0.98146427,0.026224524,-0.97857332,0.024683088,-0.0042306595,-0.005422526
33925000000,-0.0032684433,-0.0050595896,-0.98195171,0.027041584,-0.97958517,0.023886889,-0.0046454305,-0.0050281156
33992500000,-0.0032637618,-0.0045320415,-0.98175693,0.02627629,-0.97822577,0.023761183,-0.0042529628,-0.0045846631
34060000000,-0.0034187287,-0.0044954591,-0.98199868,0.026648521,-0.97908992,0.023972571,-0.0044353716,-0.0048375502
34127500000,-0.003019972,-0.0046022153,-0.98190808,0.02694039,-0.97930759,0.023575056,-0.0038675638,-0.0042277128
34195000000,-0.0036426105,-0.0047061872,-0.98217672,0.027199656,-0.97760642,0.023543835,-0.0041028704,-0.0041444995
34262500000,-0.0030029216,-0.0048405612,-0.9809643,0.02728343,-0.97734332,0.02567941,-0.0038003922,-0.0041709244
34330000000,-0.003158092,-0.0047324398,-0.98169339,0.027579457,-0.97768044,0.025577992,-0.0039432263,-0.003827292
34397500000,-0.0035118498,-0.0042332048,-0.98222029,0.028587371,-0.97658992,0.025417984,-0.003989209,-0.0041157403
34465000000,-0.003660938,-0.0043779677,-0.98235637,0.028668225,-0.97696686,0.026146144,-0.0037269145,-0.0037046224
34532500000,-0.0032887089,-0.0044386522,-0.98169243,0.02816841,-0.97668517,0.026078433,-0.0036459034,-0.0040001119
34600000000,-0.0032912772,-0.0042747227,-0.98165113,0.028116539,-0.97547585,0.026379868,-0.0036135428,-0.0039674984
34667500000,-0.0030796942,-0.0040505584,-0.98071355,0.029025197,-0.9768216,0.026580155,-0.0036166029,-0.0040418482
34735000000,-0.0033451775,-0.0040878286,-0.98073709,0.028066069,-0.97585273,0.026294768,-0.0035993375,-0.0042486396
34802500000,-0.0029700866,-0.0040795654,-0.98109663,0.029704511,-0.97454572,0.026552588,-0.0039951438,-0.0040827435
34870000000,-0.0033127968,-0.0041890047,-0.98083651,0.028711766,-0.97451472,0.026568294,-0.0038706518,-0.0036452857
34937500000,-0.003451742,-0.0041876449,-0.97964799,0.02848956,-0.97445285,0.026601195,-0.0034846456,-0.0035862355
35005000000,-0.0037610813,-0.0038509679,-0.97997636,0.02894897,-0.97444457,0.026954688,-0.0030903828,-0.0034431205
35072500000,-0.0040791668,-0.0039791735,-0.98050636,0.027712554,-0.97483903,0.026020706,-0.0036121113,-0.003529246
35140000000,-0.003745222,-0.0039664325,-0.97846812,0.027296908,-0.97353834,0.025644258,-0.0035504824,-0.0035785446
35207500000,-0.0039684698,-0.0038484777,-0.97964787,0.02823519,-0.9759469,0.024744101,-0.0034475867,-0.0034910541
35275000000,-0.0035734659,-0.0038140547,-0.97955298,0.027303524,-0.97503537,0.024253106,-0.0032932919,-0.0035860776
35342500000,-0.0035476731,-0.0036064149,-0.97912502,0.026357085,-0.97498816,0.024818704,-0.0032477737,-0.0031571593
35410000000,-0.0034955484,-0.0034588051,-0.97866148,0.027635977,-0.9767133,0.023960873,-0.0031684686,-0.003246469
35477500000,-0.0035344386,-0.0034556079,-0.9799881,0.026653171,-0.97744715,0.024086416,-0.0031489055,-0.0028635394
35545000000,-0.0031259612,-0.0030889418,-0.97953701,0.027105033,-0.97754705,0.024534911,-0.0028115939,-0.0030354774
35612500000,-0.0032199793,-0.0030334438,-0.98102218,0.026814699,-0.97867739,0.024867713,-0.0026761722,-0.0032001641
35680000000,-0.0030750204,-0.0031517246,-0.98103911,0.025706708,-0.97785139,0.025172025,-0.0025516092,-0.0026546884
35747500000,-0.002887228,-0.0029965371,-0.97866052,0.026253879,-0.97856164,0.026089728,-0.0026399433,-0.0031187125
35815000000,-0.0032164268,-0.0032984312,-0.97949004,0.027607501,-0.98098814,0.024449974,-0.0024807288,-0.0031461404
35882500000,-0.0028835649,-0.0029298379,-0.9804942,0.026402555,-0.98051411,0.025292806,-0.002174363,-0.0026286566
35950000000,-0.0024384835,-0.0034025535,-0.98036379,0.026618063,-0.98067701,0.025798619,-0.0025002346,-0.0032410587
36017500000,-0.002601133,-0.0027957461,-0.97930849,0.027714781,-0.98202085,0.025970161,-0.0023113664,-0.0028761134
36085000000,-0.0023905111,-0.0030674357,-0.98069727,0.027419329,-0.98248971,0.026566237,-0.0022618722,-0.0029729139
36152500000,-0.0021781567,-0.0027935109,-0.98232174,0.02737695,-0.98325849,0.025658414,-0.0022817384,-0.0031391743
36220000000,-0.0022143018,-0.0028350058,-0.98166513,0.027611256,-0.98342276,0.02627483,-0.0021400452,-0.0035507167
36287500000,-0.0019806209,-0.0030897649,-0.97961152,0.027147062,-0.9843992,0.026986584,-0.0019560445,-0.0031693203
36355000000,-0.0022346615,-0.003080999,-0.97945142,0.028724492,-0.98577237,0.027168512,-0.0019440698,-0.0033675705
36422500000,-0.0019885823,-0.0028993012,-0.98182797,0.028628767,-0.98465025,0.027362883,-0.0018468709,-0.0035502899
36490000000,-0.0024425504,-0.0035396719,-0.98167706,0.027670115,-0.98552316,0.028404802,-0.0019126289,-0.003427072
36557500000,-0.0021024547,-0.0036695402,-0.97938025,0.028115302,-0.98541027,0.027634203,-0.0019287769,-0.0041365549
36625000000,-0.0018454094,-0.0034235802,-0.97782642,0.029070288,-0.98493356,0.027589634,-0.0019735964,-0.0035818345
36692500000,-0.0019248407,-0.0037616948,-0.97906643,0.02919215,-0.98525476,0.027752936,-0.0019737501,-0.0041587804
36760000000,-0.0024241479,-0.0033610151,-0.98110658,0.029269367,-0.98416126,0.028546274,-0.0027703855,-0.0042343996
36827500000,-0.0019997272,-0.0036851263,-0.98054367,0.028322846,-0.98459834,0.029076234,-0.0017142531,-0.0043865335
36895000000,-0.0022816863,-0.0037772688,-0.97845435,0.029044092,-0.98629677,0.028427958,-0.0020214524,-0.0047052521
36962500000,-0.002146394,-0.0037775545,-0.97898161,0.028817862,-0.98418176,0.02778101,-0.0021217987,-0.0046139704
37030000000,-0.0023160628,-0.003561836,-0.97882783,0.027972907,-0.98354983,0.028597414,-0.0027318737,-0.0044602193
37097500000,-0.0022888822,-0.0038497364,-0.97935301,0.028325349,-0.98398304,0.028165162,-0.0022125952,-0.0046767667
37165000000,-0.002463456,-0.0037808365,-0.97768235,0.027493924,-0.98190248,0.028737366,-0.0030081817,-0.004601432
37232500000,-0.0020775155,-0.004493488,-0.97723615,0.028372496,-0.98341507,0.028147727,-0.0028612053,-0.004364999
37300000000,-0.0025354659,-0.0040846858,-0.97874051,0.028158337,-0.9835043,0.028511912,-0.0031978665,-0.0049139182
37367500000,-0.0025956137,-0.0037072829,-0.97887123,0.028126031,-0.98112965,0.028169662,-0.0033158446,-0.0044390792
37435000000,-0.0022568814,-0.0035148999,-0.97978157,0.027656838,-0.98284745,0.028746713,-0.0034711594,-0.0046005659
37502500000,-0.0031496873,-0.0038180586,-0.97851372,0.027099907,-0.98206818,0.02841714,-0.0033492006,-0.0043240138
37570000000,-0.0029281268,-0.0039448757,-0.97743171,0.027441934,-0.98098892,0.028339803,-0.0036721085,-0.0040547466
37637500000,-0.0029044296,-0.0036310097,-0.97852999,0.027222037,-0.98119992,0.028352499,-0.0035442803,-0.0039656144
37705000000,-0.003115054,-0.0032023131,-0.98106229,0.027264714,-0.98080254,0.029065132,-0.0044438997,-0.0041462714
37772500000,-0.0029543519,-0.0030922282,-0.98041379,0.026573285,-0.98041719,0.027754188,-0.0043476522,-0.0036457377
37840000000,-0.0031535549,-0.0030664839,-0.98040783,0.026411518,-0.98022753,0.028419636,-0.0044653802,-0.0035729904
37907500000,-0.0032639306,-0.0035988369,-0.97873032,0.026440792,-0.97987884,0.028707217,-0.0038733003,-0.0031060344
37975000000,-0.0034595334,-0.0032515402,-0.97808176,0.026924819,-0.98066956,0.028486818,-0.0035642711,-0.0033665637
