!CSV A.01.01
!Keysight Technologies,N5247B,US56070639,A.17.30.08
!Date: Wednesday, July 22, 2026 09:58:50
!Source: Standard

BEGIN CH1_DATA
Freq(Hz),S21(REAL),S21(IMAG),S11(REAL),S11(IMAG),S22(REAL),S22(IMAG),S12(REAL),S12(IMAG)
26500000000,0.0006066577,-0.0014396595,-1.0012497,0.019372612,-0.98635709,0.021238625,0.00067739352,-0.0021848348
26567500000,0.00050489599,-0.0016780639,-1.0003489,0.018433243,-0.98646784,0.021972656,0.00073919317,-0.0023902606
26635000000,0.0009497524,-0.0017007031,-0.99973077,0.018758267,-0.98557937,0.021514624,0.00051953574,-0.0025173714
26702500000,0.00094723201,-0.0019254048,-1.0006055,0.019229978,-0.98532432,0.023526371,0.0010550068,-0.0026217131
26770000000,0.00078322622,-0.0017391869,-1.0004214,0.018923715,-0.98657537,0.021695428,0.00065609097,-0.002876563
26837500000,0.00086455297,-0.0020309223,-1.0000716,0.019498184,-0.9852891,0.022765622,0.00088151073,-0.0030529117
26905000000,0.00090887892,-0.0023821089,-1.0012619,0.018923566,-0.98566341,0.023035705,0.00096381002,-0.0032143365
26972500000,0.00083721342,-0.0026487939,-1.0002241,0.019158512,-0.98637402,0.022941023,0.00066019327,-0.0033507515
27040000000,0.00090103515,-0.0024640949,-1.0016418,0.020045288,-0.98491251,0.023262192,0.00073966302,-0.0036820872
27107500000,0.00071844133,-0.002822761,-1.0016446,0.019540787,-0.98572111,0.024151772,0.00059655262,-0.0036515174
27175000000,0.00096416008,-0.0027819781,-1.0001281,0.019138694,-0.98548132,0.022944614,0.0005224726,-0.0034788088
27242500000,0.0011226949,-0.0030707661,-0.99995327,0.020607144,-0.9854061,0.023780078,0.00078990287,-0.0038495213
27310000000,0.0010154345,-0.0029088343,-1.0006925,0.019764572,-0.98477668,0.025234692,0.00069333741,-0.0041922713
27377500000,0.00082938088,-0.0031254459,-0.99987864,0.020348489,-0.98404157,0.024013028,0.00073627563,-0.004287323
27445000000,0.0010363648,-0.0033233867,-1.0004183,0.02028358,-0.98411292,0.024557561,0.00052313798,-0.0039884155
27512500000,0.0008934876,-0.0034354136,-1.0007321,0.020150989,-0.98589474,0.024724334,0.00034614815,-0.0039205137
27580000000,0.00088760175,-0.0034718327,-0.99912298,0.020588636,-0.98348165,0.025143564,0.00044466509,-0.0040168669
27647500000,0.0010470469,-0.0041931067,-1.0003582,0.020731509,-0.98449486,0.025352508,0.00069560425,-0.0043229312
27715000000,0.00064263411,-0.0040453598,-1.0004333,0.020606637,-0.98470402,0.025259644,0.00060700427,-0.0042769527
27782500000,0.00064665626,-0.0040796301,-1.0002425,0.02085492,-0.98368478,0.025257498,0.00069364347,-0.0047589075
27850000000,0.00079817558,-0.0045164218,-1.0001693,0.02098161,-0.98429525,0.026220262,0.0007110337,-0.0046059988
27917500000,0.00091007008,-0.0044661365,-0.99957073,0.020184875,-0.98415256,0.024982363,0.00026431738,-0.0043285973
27985000000,0.00059029274,-0.0046175737,-0.99956155,0.021796107,-0.98364508,0.025352389,2.823025e-005,-0.0050676921
28052500000,0.00060088024,-0.0043766098,-1.000101,0.02050826,-0.98383462,0.024806678,0.00029301783,-0.004968999
28120000000,0.00053195888,-0.0045072678,-0.99948967,0.021015257,-0.98366928,0.024739504,7.5524207e-005,-0.0047342451
28187500000,0.00083663041,-0.0046859491,-0.99917495,0.021886885,-0.98323143,0.025820434,0.00025887188,-0.0050032185
28255000000,0.00047143665,-0.0051116287,-0.99931538,0.021272629,-0.9833321,0.025412649,0.00010788487,-0.0048504416
28322500000,0.00021982507,-0.0046423962,-0.99950325,0.021369159,-0.9829191,0.02492255,0.00022349565,-0.0051443256
28390000000,3.6476122e-006,-0.0046351021,-1.0000312,0.02176559,-0.98231268,0.026357591,9.1129958e-005,-0.005042796
28457500000,-5.8013597e-005,-0.0047684889,-0.99975294,0.021490544,-0.98324752,0.026228696,3.3587916e-005,-0.0051383628
28525000000,0.00026543718,-0.0049488368,-0.9991982,0.021964818,-0.9833684,0.027049035,4.4329325e-005,-0.0050680051
28592500000,0.00014937948,-0.0048724823,-0.99809688,0.022113144,-0.98172271,0.02655527,-3.6405399e-006,-0.0052657081
28660000000,0.00029565371,-0.0050939587,-0.99916577,0.022189498,-0.98211718,0.026922286,5.1278388e-005,-0.0055311108
28727500000,0.00017740592,-0.0050259195,-0.99909925,0.022294082,-0.98212922,0.027213719,0.00014586246,-0.0051605562
28795000000,0.00033366773,-0.0052906633,-0.99972755,0.021185413,-0.98142904,0.027785882,0.00011502113,-0.0054475395
28862500000,0.00028115953,-0.0053297775,-0.99960983,0.022240937,-0.98158425,0.027786642,4.2956555e-005,-0.0055409428
28930000000,0.00019563199,-0.0052887085,-0.99903738,0.022210598,-0.98127782,0.027101785,0.00013869279,-0.0055632386
28997500000,0.00014780197,-0.0052417666,-0.99823689,0.023175046,-0.98066068,0.027470358,-0.00016916159,-0.0054701623
29065000000,0.00021459255,-0.0054151854,-0.99886703,0.02254311,-0.98161834,0.028604127,7.7397388e-005,-0.0056662317
29132500000,-0.00013515027,-0.0055150306,-0.99869037,0.022118151,-0.98083377,0.027973711,-0.00013736309,-0.0057500331
29200000000,0.00025216467,-0.0057009328,-0.99855125,0.022097826,-0.97971171,0.027795792,-8.0313534e-005,-0.0059442353
29267500000,-0.00019303209,-0.0058067231,-0.99918836,0.02207952,-0.98079628,0.028050624,-0.00048291706,-0.0056924559
29335000000,3.2700482e-005,-0.0055822516,-0.99860406,0.022501826,-0.97980523,0.02716881,-0.00051693921,-0.0059793619
29402500000,9.7455457e-005,-0.0061792331,-0.99788439,0.022717521,-0.98000735,0.027442575,-0.00032125908,-0.0061532096
29470000000,-0.0001414601,-0.0059190462,-0.99879664,0.023146778,-0.98037297,0.027687445,-0.00027856906,-0.0061091492
29537500000,-0.00051785936,-0.0061603612,-0.99814814,0.022095323,-0.97889102,0.026087597,-0.00055215147,-0.0061514126
29605000000,-0.00094387913,-0.0064074812,-0.99800539,0.022857636,-0.97922516,0.026952952,-0.00058388896,-0.0061047459
29672500000,-0.00063684187,-0.0061357887,-0.99975789,0.022664458,-0.98019367,0.026517242,-0.00069524557,-0.0063563762
29740000000,-0.00085015758,-0.0062082922,-0.99871266,0.022441626,-0.97894752,0.025797725,-0.00068968628,-0.0061534038
29807500000,-0.00059565553,-0.0060865022,-0.99862576,0.022797823,-0.97880757,0.025545657,-0.00094291777,-0.006073284
29875000000,-0.001071207,-0.0066898996,-0.99856126,0.022969902,-0.97982419,0.024422437,-0.0013951806,-0.0061027166
29942500000,-0.00097813422,-0.0062159356,-0.99783105,0.022280872,-0.9793514,0.024610339,-0.00091526087,-0.0061001331
30010000000,-0.0012338341,-0.0063567394,-0.99814296,0.02338621,-0.98022413,0.02607435,-0.0011271799,-0.0057036388
30077500000,-0.0012470335,-0.0062674307,-0.99936891,0.023205847,-0.98016483,0.02460447,-0.0010152709,-0.005707243
30145000000,-0.0013312612,-0.0064245854,-0.99921638,0.022476032,-0.97885251,0.024880335,-0.0010008928,-0.0060196179
30212500000,-0.0013621355,-0.0065234527,-0.99823725,0.023256183,-0.98049241,0.024824381,-0.00078529748,-0.0057459595
30280000000,-0.001212178,-0.0060867174,-0.99888456,0.022662938,-0.97965229,0.025343627,-0.00085624168,-0.0060580173
30347500000,-0.00096692657,-0.0067476747,-0.99761808,0.023289919,-0.97881639,0.024523139,-0.00073230278,-0.0058151698
30415000000,-0.0014263222,-0.0063160472,-0.9983089,0.023656353,-0.98063368,0.026758179,-0.0010900397,-0.0060363743
30482500000,-0.0012431296,-0.0066813165,-0.99876696,0.023136064,-0.97964978,0.02533026,-0.00080784439,-0.0062416629
30550000000,-0.0012939629,-0.0061789011,-0.99865681,0.023189306,-0.97895539,0.026457459,-0.00083541987,-0.0059456052
30617500000,-0.001161495,-0.006529009,-0.99887544,0.024011329,-0.97930664,0.02615647,-0.00088160555,-0.0064085741
30685000000,-0.0014060823,-0.0063676345,-0.99827003,0.023838609,-0.97796804,0.02646786,-0.00085575716,-0.0065754773
30752500000,-0.0013367161,-0.0064606275,-0.99689871,0.024542481,-0.97749615,0.02774176,-0.00091776089,-0.0062819915
30820000000,-0.0016092097,-0.0065135527,-0.99721473,0.023672163,-0.97862852,0.027474642,-0.00076010614,-0.0065670316
30887500000,-0.001584166,-0.0065361047,-0.9963007,0.02418977,-0.97672808,0.026933253,-0.0009112081,-0.0065789055
30955000000,-0.0016511466,-0.006769524,-0.99742079,0.024404824,-0.97716707,0.027727783,-0.00072256039,-0.006775165
31022500000,-0.0018457302,-0.0065852618,-0.99762368,0.024773389,-0.97715557,0.027675748,-0.0011894791,-0.006725227
31090000000,-0.0018941173,-0.0064081526,-0.99671572,0.024358273,-0.97577232,0.028021693,-0.0012565526,-0.0066469419
31157500000,-0.0022372301,-0.0073314225,-0.9968524,0.02528891,-0.97462142,0.028057694,-0.00084026833,-0.0064722733
31225000000,-0.0023049996,-0.0072167553,-0.9966954,0.025194675,-0.97374308,0.028047591,-0.0011568299,-0.0071240258
31292500000,-0.0021738757,-0.0068450295,-0.99613351,0.024071574,-0.97355771,0.02804181,-0.0011586103,-0.0069309133
31360000000,-0.0022491892,-0.0072001279,-0.99652505,0.025542095,-0.97341442,0.027345955,-0.001951477,-0.0075482563
31427500000,-0.0024062907,-0.0065177488,-0.99534905,0.024916567,-0.97280085,0.028125361,-0.0018771013,-0.006813725
31495000000,-0.0022035462,-0.0069890805,-0.99569571,0.025081545,-0.97342086,0.027252167,-0.0013329131,-0.0069442941
31562500000,-0.0029464671,-0.0063143955,-0.99723917,0.025394097,-0.97394025,0.027084336,-0.0017070191,-0.0066427547
31630000000,-0.0024642355,-0.0063437149,-0.99687672,0.024585068,-0.97285426,0.027217478,-0.0019340192,-0.0070222639
31697500000,-0.0022094718,-0.0069274488,-0.99702191,0.024764597,-0.97366399,0.027493298,-0.001801871,-0.0071750311
31765000000,-0.0026395004,-0.0067450693,-0.99559927,0.02500543,-0.97414708,0.027190506,-0.0015577152,-0.0067708185
31832500000,-0.0025736587,-0.0063556321,-0.99505496,0.025782257,-0.9744277,0.027724564,-0.0020762819,-0.0066798609
31900000000,-0.0023182654,-0.0066248057,-0.99546951,0.025977783,-0.97459322,0.028335962,-0.0018993344,-0.0069397278
31967500000,-0.0028456259,-0.0067282808,-0.99566388,0.025882214,-0.9748466,0.028670885,-0.0023136889,-0.0069791181
32035000000,-0.0028646409,-0.0069695371,-0.99593925,0.026005059,-0.97499704,0.029028624,-0.0021002016,-0.0068391194
32102500000,-0.0025126343,-0.0068527102,-0.99631506,0.025861025,-0.97553074,0.029239386,-0.0017300418,-0.0066866241
32170000000,-0.0025733709,-0.006804565,-0.99552333,0.025772095,-0.97547287,0.029244959,-0.001971306,-0.0068379515
32237500000,-0.002470864,-0.0068836431,-0.99572092,0.025071144,-0.97509474,0.029698759,-0.001646157,-0.0069240797
32305000000,-0.0027612513,-0.0066460026,-0.99572766,0.025271237,-0.97507381,0.030024976,-0.0020537248,-0.0066797677
32372500000,-0.0026010282,-0.0071170824,-0.99466634,0.025810301,-0.97491121,0.030737698,-0.0016480584,-0.0072519658
32440000000,-0.002785251,-0.006472853,-0.99483979,0.025989681,-0.97490197,0.030615106,-0.0018913226,-0.0071184575
32507500000,-0.002429998,-0.0069272481,-0.99410623,0.026287694,-0.97462159,0.030597929,-0.0016406677,-0.0071157333
32575000000,-0.0028204068,-0.006723064,-0.99478495,0.025822788,-0.97410113,0.030846536,-0.0018657711,-0.0074320403
32642500000,-0.0027880422,-0.0067595392,-0.99507678,0.026276022,-0.9729504,0.030827343,-0.001921915,-0.0077215843
32710000000,-0.0027517537,-0.0071821203,-0.9955315,0.025493175,-0.97363234,0.030367106,-0.002343284,-0.0078823417
32777500000,-0.0028926716,-0.0069827349,-0.994856,0.025509462,-0.973185,0.031015664,-0.002373558,-0.0077046063
32845000000,-0.0030498612,-0.007010621,-0.99522245,0.025862038,-0.97232854,0.030261517,-0.0026939029,-0.0079176212
32912500000,-0.0026706697,-0.0069554267,-0.99533165,0.025562465,-0.97266483,0.029839993,-0.0026584836,-0.0077480013
32980000000,-0.0031451271,-0.0068881214,-0.99564624,0.025368601,-0.9728601,0.029533744,-0.002859222,-0.0078835627
33047500000,-0.0032721804,-0.007367813,-0.99540436,0.025283962,-0.97179025,0.028390884,-0.002891768,-0.0075570326
33115000000,-0.0038503597,-0.0070500635,-0.99508888,0.024949536,-0.97216165,0.028266564,-0.0031162761,-0.0078858444
33182500000,-0.0035967594,-0.0073213195,-0.99491799,0.024882287,-0.97232211,0.027000129,-0.003653493,-0.0080008209
33250000000,-0.0036551889,-0.006798232,-0.99482918,0.024365291,-0.97065651,0.026915759,-0.0037308077,-0.0077563366
33317500000,-0.0037572549,-0.007017687,-0.99489784,0.024962604,-0.97088838,0.026703596,-0.0044985111,-0.0075454554
33385000000,-0.0043164277,-0.0069131833,-0.99553454,0.025247663,-0.97097385,0.025477797,-0.0038942161,-0.0078989007
33452500000,-0.0044334074,-0.0068451124,-0.99498367,0.02508229,-0.97040176,0.025676429,-0.0045288196,-0.0070540747
33520000000,-0.0042178379,-0.0067155831,-0.99536127,0.024789572,-0.97151178,0.025172979,-0.0042889803,-0.0079941768
33587500000,-0.0040119486,-0.006759787,-0.99614507,0.02515921,-0.97211087,0.023384809,-0.0045329379,-0.0074305544
33655000000,-0.0044457456,-0.0063682771,-0.99524403,0.024681196,-0.97116679,0.024071187,-0.0044492469,-0.0071410844
33722500000,-0.004337288,-0.0063223173,-0.99556869,0.024935782,-0.97178745,0.023819894,-0.0049823825,-0.0066696256
33790000000,-0.0044094776,-0.0063309669,-0.9952395,0.025475264,-0.97156465,0.023675412,-0.0052277572,-0.0063458043
33857500000,-0.0043945657,-0.0062957155,-0.99550223,0.024631202,-0.97161537,0.023993433,-0.0044434317,-0.0067268377
33925000000,-0.0046019838,-0.0056483396,-0.99604821,0.025117904,-0.97223008,0.02421701,-0.0046543702,-0.0064410884
33992500000,-0.0045847101,-0.0059896088,-0.99560261,0.025298119,-0.97107005,0.023292035,-0.0046876823,-0.0066369725
34060000000,-0.0048274328,-0.0061384197,-0.99549937,0.025404096,-0.97194898,0.024511516,-0.0045894561,-0.0062472043
34127500000,-0.0046417457,-0.0058753458,-0.99583799,0.0254356,-0.97236961,0.023661371,-0.0045560827,-0.0063314452
34195000000,-0.0045201555,-0.0055926316,-0.99557912,0.025705695,-0.97050047,0.024182051,-0.0049416767,-0.0061808983
34262500000,-0.0049469853,-0.0056654331,-0.99454772,0.026079983,-0.97040588,0.026013613,-0.0042337719,-0.0061865076
34330000000,-0.0049672262,-0.0057844892,-0.99553019,0.025936037,-0.97026515,0.025504261,-0.0048197885,-0.0059310626
34397500000,-0.0046442878,-0.005916575,-0.99563324,0.026341617,-0.96945322,0.025832415,-0.004229431,-0.0059846025
34465000000,-0.0046298383,-0.0058150482,-0.99598742,0.026537359,-0.96954811,0.026838273,-0.0044588861,-0.0055989129
34532500000,-0.0047811437,-0.0062277429,-0.99557972,0.026481956,-0.96887553,0.026764333,-0.0043194229,-0.0060339617
34600000000,-0.0047185081,-0.0058860676,-0.99526274,0.026260078,-0.9682647,0.027397707,-0.0049830345,-0.0066208011
34667500000,-0.004836543,-0.0058505596,-0.99525642,0.026873618,-0.96789992,0.027590692,-0.0047271643,-0.0061136251
34735000000,-0.004874785,-0.0061975042,-0.99496984,0.026386023,-0.96740675,0.027107924,-0.004458149,-0.0063981046
34802500000,-0.0053960932,-0.005811152,-0.99531507,0.027793944,-0.96543419,0.028442234,-0.0051511964,-0.0058432352
34870000000,-0.0053034038,-0.005533793,-0.99569583,0.026752561,-0.96516865,0.027759343,-0.0047400249,-0.006383705
34937500000,-0.0059453109,-0.0055644419,-0.9941057,0.026978225,-0.96549141,0.026912302,-0.0054430515,-0.0060055344
35005000000,-0.005692868,-0.0049389154,-0.9949019,0.026964679,-0.96482301,0.027958035,-0.0050408184,-0.0057544466
35072500000,-0.0058688913,-0.0055518756,-0.99591595,0.026391357,-0.96455443,0.026246786,-0.0050419252,-0.0058280253
35140000000,-0.0058464794,-0.0052818866,-0.99393219,0.026260167,-0.96258712,0.026203945,-0.0054287743,-0.0062236032
35207500000,-0.0057749478,-0.0054764468,-0.99488854,0.026602939,-0.96574479,0.024306364,-0.0059710476,-0.0054353098
35275000000,-0.006004428,-0.0046476447,-0.99490803,0.026451739,-0.96493864,0.023514092,-0.0052179098,-0.0052917572
35342500000,-0.005684955,-0.0045269174,-0.99473608,0.026367486,-0.96398592,0.024900287,-0.0057985242,-0.0053885248
35410000000,-0.0064154584,-0.0052078511,-0.99439824,0.027075872,-0.96594614,0.022979215,-0.0056240363,-0.0049117431
35477500000,-0.0065251999,-0.0046217269,-0.99565232,0.02630803,-0.96711421,0.022701621,-0.0057610194,-0.004336867
35545000000,-0.0063667321,-0.0041383132,-0.99396783,0.026499003,-0.96693581,0.022473991,-0.0049200919,-0.0045844493
35612500000,-0.0066524963,-0.0036014607,-0.99655205,0.026777446,-0.96760023,0.023035884,-0.0058698184,-0.0040654149
35680000000,-0.0056798328,-0.0034776176,-0.99569279,0.025558114,-0.96777755,0.02310586,-0.0053488333,-0.0042568455
35747500000,-0.0060293889,-0.0035035345,-0.99403864,0.025792331,-0.96790147,0.024003327,-0.0048364839,-0.0042915237
35815000000,-0.006055288,-0.0033779657,-0.99381727,0.027178138,-0.97041202,0.022314489,-0.0053169355,-0.0038717226
35882500000,-0.0060880128,-0.0031747208,-0.99517286,0.026349716,-0.97025502,0.023047224,-0.004950773,-0.003978732
35950000000,-0.0053913845,-0.0033671146,-0.99465972,0.027106017,-0.9702028,0.023406595,-0.0051179584,-0.0038730972
36017500000,-0.0057649203,-0.0029535543,-0.99395216,0.027304791,-0.97168785,0.023385964,-0.0046618078,-0.0038776507
36085000000,-0.0057535665,-0.0031730547,-0.99494278,0.026454151,-0.97179687,0.023137569,-0.0049272273,-0.0037947025
36152500000,-0.0051744781,-0.0028545628,-0.99617088,0.02661489,-0.97248858,0.022814721,-0.004794186,-0.0038527304
36220000000,-0.0050634369,-0.0031109822,-0.99525011,0.026315182,-0.97255921,0.023348719,-0.0048494162,-0.0037361966
36287500000,-0.0053771613,-0.0029123728,-0.99366075,0.026052669,-0.97326297,0.023925498,-0.0045542493,-0.0039105779
36355000000,-0.004869726,-0.0028710924,-0.99391782,0.027462095,-0.97419989,0.023754388,-0.0048048738,-0.003989439
36422500000,-0.0050340053,-0.0028836876,-0.99555421,0.027482331,-0.97375226,0.024275601,-0.0044085276,-0.003965959
36490000000,-0.0050123981,-0.0031426663,-0.99547261,0.026297078,-0.97399974,0.024769798,-0.0044435104,-0.0042761019
36557500000,-0.0046461099,-0.002866053,-0.99382585,0.02682963,-0.9741084,0.023872405,-0.0050212322,-0.0038393277
36625000000,-0.0048097405,-0.0032069595,-0.99184418,0.026924744,-0.97322428,0.0238664,-0.0046971287,-0.0034427075
36692500000,-0.004950745,-0.0027003363,-0.99337602,0.027492613,-0.9737494,0.024142921,-0.0048918156,-0.0037701516
36760000000,-0.0048127389,-0.0029160606,-0.99561739,0.027865142,-0.9724347,0.023768067,-0.0050361874,-0.0040357206
36827500000,-0.0047699162,-0.0030947574,-0.99540675,0.026398212,-0.97325063,0.024378434,-0.004909249,-0.0034567099
36895000000,-0.005025411,-0.0028265091,-0.99369544,0.027268827,-0.97470868,0.023796439,-0.0051045069,-0.0037165235
36962500000,-0.0052345064,-0.0025960833,-0.99387002,0.027324349,-0.97331643,0.022950202,-0.0054341317,-0.0040630354
37030000000,-0.005289495,-0.0030669256,-0.99397159,0.026649803,-0.97191304,0.022852272,-0.005278639,-0.0036703246
37097500000,-0.0053379317,-0.0031912732,-0.99455857,0.027168214,-0.97242367,0.02279219,-0.0051799417,-0.0037536484
37165000000,-0.0055638328,-0.0027324515,-0.9931277,0.025734216,-0.97093815,0.022611588,-0.0053338702,-0.0039667897
37232500000,-0.004796349,-0.0028261496,-0.9931705,0.027267784,-0.97225493,0.02275598,-0.0047898302,-0.0037826309
37300000000,-0.0054536681,-0.0024798547,-0.99411875,0.027425647,-0.97245038,0.022377908,-0.0052813329,-0.0036839275
37367500000,-0.0050041019,-0.0025651455,-0.99466211,0.026888162,-0.97103804,0.021461517,-0.0053664572,-0.0032765516
37435000000,-0.0051959325,-0.002674829,-0.99449903,0.026601736,-0.97179788,0.021967918,-0.0057048756,-0.0031885505
37502500000,-0.0050436216,-0.0021869782,-0.99422693,0.026287526,-0.97164178,0.020974159,-0.0052235192,-0.0028883149
37570000000,-0.0049028243,-0.002317922,-0.99350864,0.027189955,-0.97101378,0.021216132,-0.0053489427,-0.0027212652
37637500000,-0.0052342559,-0.0018395341,-0.99514616,0.027138084,-0.97081578,0.020289198,-0.0055932039,-0.0025142122
37705000000,-0.0049408223,-0.0015475398,-0.99624193,0.027364135,-0.97058463,0.020544142,-0.0059020342,-0.0022806316
37772500000,-0.0043234508,-0.0014067814,-0.99583703,0.027167112,-0.97112578,0.019101769,-0.005953704,-0.0024392579
37840000000,-0.0046860832,-0.0016829136,-0.99650884,0.026397377,-0.97058702,0.02047094,-0.0051994734,-0.0020444794
37907500000,-0.0049405368,-0.001526797,-0.99490875,0.026660819,-0.97098809,0.019911978,-0.0055862763,-0.0017672208
37975000000,-0.0046478165,-0.0011829828,-0.99340129,0.027339697,-0.97261369,0.02109763,-0.0056621153,-0.001689055
