!CSV A.01.01
!Keysight Technologies,N5247B,US56070639,A.17.30.08
!Date: Wednesday, July 22, 2026 09:51:47
!Source: Standard

BEGIN CH1_DATA
Freq(Hz),S21(REAL),S21(IMAG),S11(REAL),S11(IMAG),S22(REAL),S22(IMAG),S12(REAL),S12(IMAG)
26500000000,-0.001300686,0.00069507898,-0.99660951,0.021488965,-0.96835268,0.029156804,-0.0012128048,0.00081815943
26567500000,-0.0011611278,0.00072988361,-0.99535024,0.020385206,-0.96852505,0.029971838,-0.0013521863,0.00086122577
26635000000,-0.00090342382,0.00065868144,-0.99487162,0.020850837,-0.967592,0.029372603,-0.0015003833,0.00061650388
26702500000,-0.0010881352,0.00051357463,-0.99553144,0.021336198,-0.96689576,0.030448183,-0.0010815884,0.00075544114
26770000000,-0.0012102528,0.00071215548,-0.995327,0.02040647,-0.9673537,0.028476477,-0.0013235379,0.00070974021
26837500000,-0.0009315256,0.00072976504,-0.99430382,0.021329477,-0.9666788,0.028605074,-0.0009518438,0.00086650066
26905000000,-0.0009670615,0.00086376822,-0.99574459,0.020579845,-0.96815848,0.028928578,-0.00078001403,0.00074202381
26972500000,-0.00088576495,0.00080485595,-0.99470305,0.020653993,-0.968117,0.028641373,-0.0013698195,0.00077349599
27040000000,-0.00084156048,0.00081410998,-0.99508083,0.021659557,-0.96657884,0.027877897,-0.0010632774,0.00074539095
27107500000,-0.00090995786,0.00084620848,-0.99542487,0.02080822,-0.96734577,0.027482837,-0.0009406858,0.00073330716
27175000000,-0.00095998036,0.00081707677,-0.99411899,0.020775005,-0.96754903,0.026451997,-0.00082471175,0.00078110927
27242500000,-0.00077569438,0.00059166551,-0.9938817,0.022199094,-0.9677825,0.027830184,-0.00090954948,0.00069628126
27310000000,-0.00074318313,0.00055828912,-0.99437225,0.021254912,-0.96714008,0.028485045,-0.00064783834,0.0007452853
27377500000,-0.0010493658,0.00075858424,-0.9941479,0.021795362,-0.96709651,0.026711315,-0.00057181314,0.00048445439
27445000000,-0.00069493876,0.00051593134,-0.99398148,0.021854401,-0.9675709,0.026834309,-0.00092675083,0.00067319447
27512500000,-0.00090872182,0.00065819698,-0.9944309,0.021308333,-0.96863204,0.026781648,-0.00095607323,0.00063194701
27580000000,-0.00062757608,0.00051051087,-0.9928056,0.021882862,-0.96716392,0.0274086,-0.0008747484,0.00061615277
27647500000,-0.00071472535,0.00054550183,-0.99426216,0.022021741,-0.96763706,0.027547374,-0.0008204573,0.00062133005
27715000000,-0.00083426927,0.00041210922,-0.99397564,0.021835461,-0.96815509,0.026624277,-0.00089994643,0.00054454699
27782500000,-0.0007899857,0.00070542947,-0.99390388,0.021904469,-0.9677949,0.026702493,-0.00067177688,0.00075362984
27850000000,-0.00067741418,0.00021759207,-0.99300426,0.021748379,-0.96836603,0.027811825,-0.00065552525,0.00054704939
27917500000,-0.00069148338,0.00054041645,-0.99259335,0.021614671,-0.96782732,0.026162982,-0.00095488626,0.00063228229
27985000000,-0.00083536329,0.00074165349,-0.99302197,0.022814512,-0.96696699,0.025569797,-0.00088856078,0.00055865024
28052500000,-0.00047768414,0.00043903085,-0.99384737,0.021628529,-0.9685396,0.024935693,-0.00046596798,0.00058938848
28120000000,-0.00073752989,0.00044688518,-0.99301773,0.021942765,-0.96929669,0.025000781,-0.00074675248,0.00047700264
28187500000,-0.00060885824,0.0004444342,-0.99305707,0.021843269,-0.96857107,0.025947288,-0.00088817975,0.00050544739
28255000000,-0.00043060427,0.00053808617,-0.99288636,0.022136569,-0.96883374,0.02532196,-0.00039303084,0.00027752976
28322500000,-0.00045075032,0.00052874652,-0.99245632,0.022211045,-0.96830589,0.024989218,-0.00084487442,0.00032657574
28390000000,-0.00061161665,0.00042640331,-0.99348658,0.022374265,-0.9685384,0.026024513,-0.0004122011,0.00052300427
28457500000,-0.00043636531,0.00050317729,-0.99346256,0.022167832,-0.96906984,0.025876522,-0.00051036733,0.00040436868
28525000000,-0.00063645054,0.0002295584,-0.99310482,0.022670627,-0.96962714,0.026627839,-0.00030080095,0.00032933155
28592500000,-0.00075466279,0.00014190018,-0.99243259,0.022829533,-0.96803135,0.026463479,-0.0007465675,0.00026330096
28660000000,-0.00067710812,0.00038011011,-0.99270892,0.022916108,-0.96866691,0.027093828,-0.00085937232,1.453911e-005
28727500000,-0.00052226637,0.00022243858,-0.99293447,0.023581441,-0.96887869,0.026613083,-0.00045015611,0.00025857161
28795000000,-0.00070304086,0.00030202977,-0.99331093,0.022503555,-0.96842325,0.027766392,-0.00062491035,0.00028634624
28862500000,-0.00050371606,0.00049183401,-0.99335665,0.023685098,-0.96809471,0.027638435,-0.00082844537,0.00014927416
28930000000,-0.00062741019,0.00032399243,-0.99291611,0.023463249,-0.96827412,0.026419312,-0.00066989951,0.00044967211
28997500000,-0.0005323845,0.00025055479,-0.99247605,0.024046719,-0.96770424,0.026600793,-0.00065949716,0.00046953963
29065000000,-0.000681023,-9.6465461e-005,-0.99225146,0.024003163,-0.9692263,0.028044835,-0.00077815109,0.00012938803
29132500000,-0.00076261623,0.00027509005,-0.99292767,0.023715943,-0.96722353,0.027072072,-0.00068330008,0.0003249899
29200000000,-0.00044313376,0.00018833046,-0.99242997,0.023792833,-0.96675313,0.027208298,-0.00052004989,0.00030669366
29267500000,-0.00060326542,0.000144387,-0.99242383,0.023588397,-0.96806329,0.027066246,-0.00099852204,0.00032644495
29335000000,-0.00071399752,0.00025776474,-0.99237937,0.023601107,-0.96762979,0.025932401,-0.00039018426,0.00010470394
29402500000,-0.00050613761,0.00026603858,-0.9919827,0.024175361,-0.9676066,0.025596403,-0.00054119522,0.00015386553
29470000000,-0.00059343898,0.00023504021,-0.9928267,0.024087176,-0.96743977,0.026081324,-0.00043333595,0.00031832597
29537500000,-0.00049132807,0.00018097191,-0.99164248,0.023019761,-0.96648848,0.024115682,-0.00079601811,0.00030611228
29605000000,-0.00050883507,0.0002843932,-0.99128652,0.024039358,-0.96697927,0.024990469,-0.00079770014,0.0002852474
29672500000,-0.00047160557,0.00037638459,-0.99312168,0.023481607,-0.96740329,0.024003625,-0.00064721273,0.00015597303
29740000000,-0.00060441293,0.000410031,-0.99162835,0.023776531,-0.96696389,0.023774654,-0.00062968512,0.0001757514
29807500000,-0.00062267767,0.00026728256,-0.9917537,0.024175853,-0.96664321,0.023189902,-0.000501364,0.000385566
29875000000,-0.00023144897,0.0001263078,-0.99232543,0.024268448,-0.96815896,0.022551596,-0.00059063442,0.00027789857
29942500000,-0.0005121518,-5.2111089e-005,-0.99175292,0.022576269,-0.96885133,0.022217307,-0.00051351276,0.00019138517
30010000000,-0.00048109371,-7.2995812e-005,-0.99183857,0.02411595,-0.9695971,0.023443967,-0.00040004519,3.7899052e-005
30077500000,-0.00055228244,0.00027137517,-0.99256408,0.023153275,-0.96965379,0.022077382,-0.00037051574,0.00022845931
30145000000,-0.00017257233,0.00026542728,-0.99289078,0.02308166,-0.96835673,0.02258563,-0.00043225766,0.00011509457
30212500000,-0.00036736287,0.00058392022,-0.99263859,0.023419112,-0.970541,0.0222013,-0.00060475402,0.00014668623
30280000000,-0.00045253249,0.00033936591,-0.99280274,0.022930831,-0.96998262,0.023299515,-0.00064580835,0.00015380964
30347500000,-0.00028619778,0.00026251172,-0.99191821,0.023569524,-0.96904719,0.022518307,-0.0005426663,7.1181683e-005
30415000000,-0.00045773276,0.00017103378,-0.99302143,0.023543671,-0.97022885,0.024361089,-0.00026647581,0.00042631527
30482500000,-0.00044779776,9.0398586e-005,-0.99282545,0.023092836,-0.96961963,0.023546219,-0.00046058357,0.00020605727
30550000000,-0.00066596601,-3.3205695e-005,-0.99284405,0.023714602,-0.96942043,0.024543941,-0.00048324,0.00018136328
30617500000,-0.00053655013,0.00033388875,-0.99338138,0.023895949,-0.96961462,0.024209931,-0.0005564735,0.00012997541
30685000000,-0.00061432598,0.00020210505,-0.99300623,0.023388267,-0.96764737,0.025105894,-0.00025350892,0.000520695
30752500000,-0.00024735977,0.00038112525,-0.9915989,0.024905398,-0.96725291,0.026279718,-0.0004349318,0.00010566237
30820000000,-0.00084022747,0.00038083884,-0.99188578,0.023345411,-0.96756834,0.024651736,-0.00064475305,0.00021038379
30887500000,-0.00061516848,5.8765552e-005,-0.9916333,0.024136841,-0.96573895,0.025846004,-0.0005206216,7.7764853e-006
30955000000,-0.00054661493,0.00036590686,-0.99239546,0.024161533,-0.96707273,0.027168885,-0.00027318005,9.1628041e-005
31022500000,-0.00027666445,0.00050518382,-0.99228048,0.024380714,-0.96529448,0.026675105,-0.00056919322,0.000468368
31090000000,-0.00064754288,-0.00017482341,-0.99154121,0.023927391,-0.9640311,0.026662558,-8.8866953e-005,-0.00011347693
31157500000,-0.00076932722,0.00029177329,-0.9920001,0.024564952,-0.96323311,0.026533663,-0.00067169621,0.00045050165
31225000000,-0.00078358361,0.00029742456,-0.99157739,0.024396926,-0.9628787,0.025976971,-0.00034277351,0.00032605452
31292500000,-6.0195089e-006,0.00026382567,-0.9910484,0.023678511,-0.96178132,0.026113719,-0.00058021303,0.00037598633
31360000000,-0.00034107373,2.0451407e-006,-0.99080545,0.024814591,-0.96233779,0.024722964,-0.00060337043,7.2421673e-005
31427500000,-0.00041456774,-3.447543e-005,-0.99087912,0.023693323,-0.96184617,0.025013167,-0.00037935242,0.00014627322
31495000000,-0.00028817719,-1.2200297e-005,-0.99162459,0.024479359,-0.9615227,0.024956703,-0.00034739339,-9.9690937e-005
31562500000,-0.00021176568,1.1577369e-005,-0.99182272,0.024737999,-0.96293652,0.024104401,0.00030653135,-2.82158e-005
31630000000,-0.00015988402,0.0004663805,-0.99120528,0.024006903,-0.96200746,0.024128854,-0.00018853795,0.00030456251
31697500000,-0.0004293797,0.00057476573,-0.99210721,0.02468133,-0.96312946,0.024069637,-0.00014732975,0.00015384384
31765000000,-0.00027250164,-0.00011861492,-0.99157518,0.024296731,-0.96409512,0.023867607,-0.00066154392,-0.0002372192
31832500000,-0.00033898535,0.00026482032,-0.99089444,0.024490178,-0.96448302,0.024199963,-9.5833777e-005,0.00013031748
31900000000,-0.00043854126,0.0003427325,-0.99102002,0.024464944,-0.96424776,0.024475921,-4.1104577e-005,6.9464273e-005
31967500000,-0.0001661149,0.00018127973,-0.99154198,0.024856567,-0.9656136,0.024143778,-0.00036705224,6.8662019e-005
32035000000,-0.00028885869,-1.135451e-005,-0.99134684,0.024383634,-0.96543235,0.024922252,-0.0004185923,0.00017172718
32102500000,-0.00060003699,-9.047897e-005,-0.99147177,0.025050461,-0.96594715,0.024901778,-0.00029520117,-2.7206566e-005
32170000000,5.2148316e-006,0.00021642326,-0.99137974,0.024823815,-0.96606839,0.025746644,-7.4071351e-005,7.9101781e-005
32237500000,-3.4900444e-005,-0.00016172465,-0.9915942,0.024388462,-0.96621686,0.026143968,-0.00027271971,0.00017430297
32305000000,-0.00058164762,-2.292401e-005,-0.99068606,0.024827868,-0.96681142,0.026103079,-0.00055123284,0.00018546508
32372500000,-0.00010510513,-0.00029212658,-0.99043959,0.025053889,-0.96632349,0.026373357,0.00012766544,-0.0001827877
32440000000,-0.00043312242,-0.00022362178,-0.99165732,0.025919005,-0.96613687,0.026867554,-0.00025343843,0.00035187966
32507500000,-8.0292575e-006,0.0001005855,-0.99039674,0.025144763,-0.96599418,0.026879743,-0.00029408452,0.00013575815
32575000000,-0.00048289046,4.581867e-005,-0.99047649,0.025278807,-0.96556699,0.027525991,-0.00014538792,-3.630673e-005
32642500000,-3.5856483e-005,0.00026694598,-0.99091893,0.025523871,-0.96511585,0.026378572,-0.00021560852,-0.00012159924
32710000000,-0.00039715818,0.00017124337,-0.99072558,0.024897933,-0.96489251,0.026041061,-7.880092e-005,0.0001270986
32777500000,-0.00045150233,7.1479015e-005,-0.99002177,0.025226086,-0.96475631,0.025900573,4.8364207e-005,9.4524643e-005
32845000000,-6.9732072e-005,7.87401e-005,-0.99001181,0.025825024,-0.96467996,0.025220305,-0.00026343827,0.00028039905
32912500000,-0.00049699552,-1.1213997e-005,-0.98993844,0.025311351,-0.96515584,0.025077373,-7.0606278e-005,2.2234182e-005
32980000000,-0.0003928456,0.00020916038,-0.99031776,0.025236279,-0.9647063,0.023648471,-5.362006e-005,-8.475138e-005
33047500000,-0.00026792192,4.4524597e-005,-0.99060667,0.025182396,-0.96560222,0.022985101,0.00012059102,4.1398827e-005
33115000000,0.00016839277,-0.00011312465,-0.9901793,0.025084646,-0.96540439,0.022382783,-7.0742884e-005,-0.00021354119
33182500000,-0.00028825333,-0.00012232458,-0.99048412,0.025332272,-0.96592808,0.021390706,-4.5559864e-007,-0.00013244114
33250000000,-9.0474132e-005,-0.00045635618,-0.99045485,0.024541989,-0.96487927,0.021543264,-0.00014308406,-0.00020918694
33317500000,-0.00018526767,-0.00013507019,-0.98988664,0.02533567,-0.96545303,0.020653903,-0.00032452869,-0.0001679811
33385000000,9.2182454e-006,0.00010799464,-0.99077201,0.025417179,-0.96653903,0.019814074,-0.00023741098,-0.00023486221
33452500000,8.2497361e-005,-0.00025758799,-0.98973447,0.02534157,-0.96574676,0.019435555,-0.00020774608,-0.00013663963
33520000000,0.00020435623,0.00020839481,-0.99070513,0.024987757,-0.96704268,0.01965344,-0.0002524927,-3.8592967e-005
33587500000,0.00015505898,-0.00034376583,-0.99037147,0.025121063,-0.96789485,0.017622709,-0.00019303005,-9.2800969e-005
33655000000,-8.7299843e-005,-0.00014050782,-0.99014753,0.025082029,-0.96743894,0.018096633,-0.00018204645,3.8486229e-005
33722500000,-0.00014025098,-0.000298917,-0.99053955,0.024364501,-0.96832597,0.018914431,-8.2362974e-005,-5.3099015e-005
33790000000,-0.00033882496,-0.00038281397,-0.99061984,0.025273532,-0.96788549,0.018531233,-0.00016390669,-0.00014827447
33857500000,-0.00011522835,-0.00030352367,-0.99056965,0.024880022,-0.96841508,0.019311637,0.0001633583,0.00012250747
33925000000,0.00019240989,-0.00044724389,-0.99119431,0.025321245,-0.96945387,0.019008547,-0.00025464472,1.5128433e-005
33992500000,-6.6620036e-005,-0.00031921957,-0.99063766,0.024745613,-0.96885097,0.018999219,-0.00010994144,-0.00028533567
34060000000,9.6114236e-006,-0.00013504051,-0.99085701,0.025256395,-0.96951199,0.020012498,-0.00010845042,-0.00024575912
34127500000,-0.00027219817,-0.0004793581,-0.99105281,0.025672209,-0.97012323,0.020112343,-0.00028850365,-0.00036089498
34195000000,6.4170745e-006,-0.00042783847,-0.99109983,0.025606215,-0.96813929,0.020613343,0.00025232651,-0.00037510888
34262500000,2.4123641e-005,-0.00021960876,-0.98986721,0.026086628,-0.96847641,0.022218674,-0.00019257888,-0.00035831897
34330000000,-0.00014649807,-0.00011243651,-0.99127924,0.026049137,-0.96877325,0.022214025,-0.00014150988,-0.00028973143
34397500000,9.274605e-005,-0.00051808229,-0.99173516,0.026518375,-0.96762359,0.022691965,0.00025549476,-0.00034309886
34465000000,-0.00024204869,-0.00044819177,-0.99171805,0.026705354,-0.96762586,0.024393231,-0.00010071801,-0.00033463346
34532500000,-4.8194735e-005,-0.00048161933,-0.99084401,0.026421666,-0.96733201,0.024027407,0.00012554327,-0.00040125049
34600000000,-7.2518931e-005,-0.00046660416,-0.99045563,0.026448771,-0.9664079,0.026131526,-1.7294951e-007,-0.00070050039
34667500000,-0.00043725595,-0.0003751342,-0.99027371,0.02697891,-0.96669155,0.02481401,0.00015672942,-0.000451367
34735000000,-0.0001049932,-0.00032575999,-0.99043685,0.026019722,-0.9657048,0.02487424,9.5375726e-006,-0.00033804731
34802500000,-0.00028091157,-0.00030424941,-0.99132609,0.027516335,-0.96363109,0.026728868,8.9661742e-005,-0.0007061197
34870000000,-0.00012623057,-0.0003302448,-0.99098897,0.026545733,-0.96309978,0.026135951,-9.5212599e-005,-0.00054040272
34937500000,0.0001164971,-0.00065365876,-0.98978132,0.025948256,-0.96394587,0.025781989,-0.00021012817,-0.00023869617
35005000000,-0.00044058618,-0.00086459517,-0.99013007,0.026850805,-0.96337527,0.026946746,8.5190142e-005,-0.00084823405
35072500000,-0.00018135278,-0.00070301862,-0.99149448,0.025901824,-0.96335888,0.025586516,0.00031025108,-0.00060372904
35140000000,-8.4613697e-005,-0.00038895485,-0.98971093,0.025613494,-0.96132815,0.025133595,-0.00013740227,-0.00096534856
35207500000,-0.00035162622,-0.0007256688,-0.99057311,0.02596394,-0.96361792,0.025366269,4.6132045e-005,-0.00086452032
35275000000,-0.00013604116,-0.00042578817,-0.99006271,0.026163412,-0.96357876,0.024030052,0.00017416621,-0.00051174074
35342500000,-0.00014141278,-0.00073347153,-0.9905923,0.025381833,-0.96296084,0.024639413,-0.00021403661,-0.00083451159
35410000000,5.7755489e-005,-0.00039665066,-0.9903276,0.025631219,-0.96457827,0.024663463,-0.00024896202,-0.00071124837
35477500000,-0.00054421963,-0.00045316108,-0.99009633,0.025233537,-0.96538347,0.02357474,0.00012431708,-0.00099045446
35545000000,-0.00022711392,-0.00073272147,-0.99006867,0.026368469,-0.9657675,0.023892999,9.3920287e-005,-0.00060987804
35612500000,-0.00036548701,-0.00099629047,-0.99146378,0.02659598,-0.96742654,0.023965895,-0.00029652077,-0.0011298145
35680000000,-0.00021435015,-0.0006109525,-0.99101913,0.025495678,-0.96715409,0.024358243,-5.0740782e-006,-0.00086484221
35747500000,-0.00017865826,-0.0006432964,-0.99013251,0.025358379,-0.96736109,0.026278675,0.00033193032,-0.0010034636
35815000000,-0.00021949086,-0.00041354005,-0.99002492,0.026638538,-0.96885026,0.025324196,-0.00022377077,-0.00041163634
35882500000,4.9216975e-005,-0.00059042999,-0.99127728,0.026100025,-0.96960878,0.025691599,3.103567e-005,-0.00039571995
35950000000,-0.00030244485,-0.00077585201,-0.99065506,0.026218474,-0.96900654,0.026061237,-0.0003550991,-0.00098741241
36017500000,-0.00021974789,-0.0011419086,-0.99035919,0.027073018,-0.97039682,0.026454151,-3.2736698e-005,-0.00078711472
36085000000,-0.00010394547,-0.00051893044,-0.99090028,0.026584148,-0.97078973,0.026693195,-0.0002508905,-0.00092989148
36152500000,-0.00013263684,-0.00080173102,-0.99218392,0.027133048,-0.97181606,0.026595607,-5.147983e-005,-0.00088942645
36220000000,-0.00014652711,-0.00074749941,-0.99243861,0.026112646,-0.97236818,0.026670158,-0.00030021428,-0.00089887192
36287500000,-0.00026365643,-0.00093414914,-0.98989785,0.026114486,-0.973005,0.027268395,-0.00029632021,-0.00060297368
36355000000,7.0488291e-005,-0.00046841704,-0.98969769,0.027878374,-0.97420841,0.027954996,0.00034499806,-0.0011393786
36422500000,4.9751252e-006,-0.00085215323,-0.99157339,0.027676672,-0.97354603,0.027682036,-0.00020279223,-0.00068778143
36490000000,-7.9782789e-005,-0.00059995922,-0.99240643,0.027023897,-0.97468686,0.028972626,-0.00030904787,-0.00076284312
36557500000,-0.0001862887,-0.00095193496,-0.99076468,0.026933372,-0.97404039,0.028996259,-0.00013746234,-0.001005206
36625000000,-0.00037559983,-0.00061387557,-0.98908609,0.027517751,-0.97359693,0.027885795,-0.00036844041,-0.00077795261
36692500000,-0.00033174996,-0.00078549737,-0.99018633,0.027779222,-0.97372031,0.028491914,-0.00014199325,-0.00088613655
36760000000,-0.00019897829,-0.0010424112,-0.99297136,0.028304368,-0.97253525,0.028608739,-0.00039665904,-0.00095428387
36827500000,-0.00054655876,-0.00098831626,-0.9917013,0.027029037,-0.97294247,0.029131979,-0.00016224507,-0.0008203183
36895000000,-0.00037182192,-0.0012127105,-0.98955834,0.027960539,-0.97401309,0.029037565,-0.0001739384,-0.0010858178
36962500000,1.2154647e-005,-0.00087325822,-0.99064636,0.027980864,-0.97241497,0.028303742,-0.00055288954,-0.0010962235
37030000000,-3.9823557e-005,-0.00081496511,-0.9901278,0.027689248,-0.9712472,0.028604209,-0.00039193372,-0.0011492682
37097500000,-0.00048892468,-0.0013101276,-0.99133712,0.02779457,-0.97140509,0.028654218,-0.00013047032,-0.0014053162
37165000000,-0.0004260258,-0.00099173852,-0.98943555,0.02642262,-0.97034037,0.02870509,2.5808258e-005,-0.00086709257
37232500000,-0.00060836022,-0.00098905689,-0.98959291,0.028263032,-0.97098088,0.028897822,-0.00045763492,-0.0010457603
37300000000,-0.00036185293,-0.00050653785,-0.99159706,0.027864158,-0.97129524,0.028020114,-0.00012814012,-0.0010478506
37367500000,-0.00026450655,-0.0010144429,-0.99186003,0.02788198,-0.96941793,0.027489215,-0.00067695091,-0.0010471746
37435000000,-0.00066808698,-0.00083261204,-0.991624,0.027136028,-0.97005111,0.029056747,-0.00081445323,-0.00081966695
37502500000,9.9936733e-006,-0.0010894518,-0.99068201,0.027133584,-0.96932018,0.028160572,-0.00045561005,-0.00086834462
37570000000,-0.00058839144,-0.00086582324,-0.99073285,0.027921423,-0.9689092,0.027714655,-0.00095106248,-0.00091343909
37637500000,-0.00046715315,-0.00093006773,-0.99125022,0.027914524,-0.96809864,0.027438924,-0.00071385462,-0.00088625849
37705000000,-0.000665267,-0.00078685774,-0.99234998,0.027492732,-0.96722835,0.027618855,-0.00054250634,-0.0010778346
