!CSV A.01.01
!Keysight Technologies,N5247B,US56070639,A.17.30.08
!Date: Wednesday, July 22, 2026 10:06:46
!Source: Standard

BEGIN CH1_DATA
Freq(Hz),S21(REAL),S21(IMAG),S11(REAL),S11(IMAG),S22(REAL),S22(IMAG),S12(REAL),S12(IMAG)
26500000000,0.00011163659,-0.004359738,-1.0115428,0.017159164,-0.97372961,0.03683418,6.7308196e-005,-0.0044359677
26567500000,0.00013524201,-0.0040683756,-1.0107574,0.016076267,-0.97437584,0.037486821,0.00032637664,-0.0043559335
26635000000,1.1608936e-005,-0.0044094832,-1.0105133,0.016605794,-0.97255266,0.036754549,0.00050299836,-0.0043658442
26702500000,-0.0001292082,-0.0042867153,-1.0109372,0.016814083,-0.97253197,0.03805016,0.00026797666,-0.0043717721
26770000000,-0.00011551043,-0.0043665334,-1.0110818,0.015982062,-0.97315347,0.035917997,0.00017905797,-0.0046048914
26837500000,-0.0001164212,-0.0042726123,-1.0105214,0.016778424,-0.97092074,0.036346301,7.0722308e-005,-0.0044588982
26905000000,-0.00018546137,-0.0046180617,-1.0116432,0.016474351,-0.97234869,0.036814108,-1.1144555e-005,-0.0043891468
26972500000,-2.2608088e-005,-0.0045303376,-1.0107743,0.016909719,-0.97284651,0.036112785,0.00035392318,-0.0042692418
27040000000,9.0688292e-005,-0.0042802077,-1.0112036,0.017438304,-0.97107053,0.035833158,0.00026862955,-0.0044005509
27107500000,8.9512905e-005,-0.0045257271,-1.0109423,0.016627818,-0.97229528,0.035419703,0.00044446951,-0.0045368606
27175000000,1.4077988e-005,-0.0044493475,-1.0100423,0.016275749,-0.97139204,0.034161717,0.00028963696,-0.0044089588
27242500000,0.0004701711,-0.0044816434,-1.0096941,0.016927689,-0.97179937,0.035962194,0.00028798252,-0.0042311302
27310000000,4.9912836e-005,-0.0042320797,-1.0105199,0.01602906,-0.97131854,0.036497533,0.00031368781,-0.0043808999
27377500000,0.00033549865,-0.0043692826,-1.0098996,0.016350016,-0.96986735,0.035149008,0.00022650365,-0.0044507422
27445000000,0.00017730775,-0.0043965001,-1.010038,0.016831368,-0.97058189,0.035104454,0.00026784022,-0.0044549061
27512500000,0.0004220386,-0.0045822365,-1.0107102,0.016139686,-0.97212505,0.034801304,0.00017127744,-0.00430666
27580000000,0.00020981277,-0.0043096938,-1.0093688,0.016659766,-0.9704833,0.035422653,0.00029673288,-0.0043166466
27647500000,0.0003824234,-0.0044768853,-1.0109483,0.016270041,-0.97036743,0.036246032,0.0004749184,-0.0046953293
27715000000,1.7732382e-005,-0.0046480405,-1.0105793,0.016360968,-0.97119808,0.034586638,0.00021688896,-0.0047798804
27782500000,0.00019981503,-0.0046156361,-1.0104742,0.016785353,-0.9699223,0.034923226,0.00042578578,-0.004587193
27850000000,0.00015537115,-0.0047052815,-1.0107697,0.016929299,-0.97078353,0.036283523,0.00050509674,-0.004498099
27917500000,0.00032222318,-0.0050496208,-1.0105209,0.016808897,-0.96986532,0.034721375,0.00069708115,-0.0047572996
27985000000,0.00039979815,-0.0049422667,-1.0104549,0.018012762,-0.96888006,0.034440577,0.00027318555,-0.0047433497
28052500000,-0.00013814797,-0.0049001537,-1.0111613,0.017015964,-0.97051907,0.033587873,0.00017311517,-0.0044441875
28120000000,0.00026152655,-0.0046913587,-1.0107313,0.017343521,-0.9710381,0.033415228,0.0003670014,-0.0046889535
28187500000,0.00028960401,-0.0048718159,-1.0104209,0.017854989,-0.96972924,0.034707218,0.00049302733,-0.0045734756
28255000000,-7.8338431e-005,-0.0047964067,-1.0106134,0.01812312,-0.97032332,0.034558058,-4.5650755e-005,-0.004526508
28322500000,-0.00011901814,-0.0044258526,-1.0098156,0.017857671,-0.97001916,0.03370738,0.00016220962,-0.0049580787
28390000000,-3.9434555e-005,-0.0047219666,-1.0106087,0.018615529,-0.96972775,0.035077114,0.00052949454,-0.0045165755
28457500000,-0.00041386508,-0.0045337095,-1.0104961,0.018007457,-0.97065902,0.034562439,0.00036127889,-0.0047332393
28525000000,-3.5997946e-006,-0.0043528834,-1.0102388,0.018000185,-0.97080493,0.035244524,0.00024863775,-0.00486079
28592500000,5.9926882e-005,-0.0046567833,-1.0093429,0.018267274,-0.96941996,0.035229266,0.00038514822,-0.0045886878
28660000000,8.9197652e-005,-0.0051256269,-1.0101184,0.018587619,-0.97058308,0.035114855,0.00056914205,-0.0048236134
28727500000,3.9590523e-005,-0.0048386627,-1.0103995,0.019075777,-0.97040099,0.034980655,0.00041861043,-0.0043383688
28795000000,0.00019899663,-0.005024645,-1.0102739,0.017166302,-0.97007716,0.0362124,0.0003595067,-0.004869991
28862500000,0.0001293025,-0.0047752704,-1.0108892,0.017745554,-0.96983993,0.036456287,0.00063770497,-0.0050141085
28930000000,1.2371573e-005,-0.0048931944,-1.0102471,0.01805073,-0.96942723,0.035580575,0.00067843031,-0.0051480262
28997500000,0.00035358674,-0.0049475129,-1.0106126,0.018373482,-0.96917051,0.035761073,0.0003860601,-0.005044891
29065000000,0.00033919804,-0.0052703135,-1.0106056,0.017691955,-0.97058606,0.037027098,0.00086004956,-0.0047482834
29132500000,0.00044299569,-0.0050790329,-1.0111446,0.017620832,-0.9690547,0.036216468,0.00081122783,-0.0049185068
29200000000,0.00031607412,-0.0054901894,-1.0113988,0.017403126,-0.96815062,0.036552191,0.00071463175,-0.0052574221
29267500000,0.00010637776,-0.0052713049,-1.0117453,0.017627619,-0.96949643,0.036040027,0.00055919227,-0.0051332731
29335000000,0.00010924856,-0.0049452884,-1.0114502,0.017469659,-0.968777,0.035382807,0.00041323603,-0.0049077324
29402500000,0.00015873648,-0.0055395472,-1.0112029,0.018079743,-0.96837312,0.035673723,0.00057496945,-0.0052327318
29470000000,0.00018657983,-0.0053622047,-1.011621,0.018105835,-0.9691987,0.03614147,0.00055859878,-0.0053718444
29537500000,6.9106696e-005,-0.0055028331,-1.0113461,0.017432362,-0.96742231,0.033779338,0.00041071424,-0.0050408044
29605000000,1.6170321e-005,-0.0056029712,-1.0112237,0.018414974,-0.96768928,0.034969896,0.0003106998,-0.0054154745
29672500000,-0.00015728269,-0.0056968783,-1.0129567,0.017808169,-0.96797097,0.034581423,0.00029294961,-0.0052036205
29740000000,9.4389543e-007,-0.0054842187,-1.01166,0.018549323,-0.96764386,0.034165651,0.0004664727,-0.0051578702
29807500000,-0.00052051945,-0.0054475348,-1.0120397,0.01883319,-0.96711743,0.033463717,0.00017162366,-0.0051052836
29875000000,-2.8460985e-005,-0.0057684723,-1.0122734,0.018832266,-0.96837163,0.031973362,-0.00016465317,-0.0053541572
29942500000,-0.00013812732,-0.0053367564,-1.0113826,0.017879713,-0.96828419,0.032204039,9.2625007e-005,-0.0052317767
30010000000,-0.00043735583,-0.0058055464,-1.0120406,0.019343764,-0.96975935,0.033711493,0.00022471091,-0.0050784661
30077500000,-0.00060455222,-0.005358987,-1.0127006,0.01887387,-0.96957147,0.032069951,0.00032595254,-0.0048114057
30145000000,-0.00048014091,-0.0054982752,-1.0122718,0.018249273,-0.96809304,0.032861337,0.00047480525,-0.0049824561
30212500000,-0.00036554784,-0.0056549395,-1.0122911,0.01957503,-0.96999145,0.031802565,0.00010242313,-0.0050092922
30280000000,-0.00017281203,-0.0054050782,-1.0124379,0.018702984,-0.97040963,0.033200562,0.00031689322,-0.0051596686
30347500000,0.00011582486,-0.0054884576,-1.0113064,0.019187659,-0.96870351,0.03269881,0.00034245895,-0.0050961161
30415000000,2.7113128e-007,-0.005697805,-1.011663,0.019696027,-0.97092849,0.034722909,-4.7657639e-005,-0.0053172577
30482500000,-5.8578677e-005,-0.0054619941,-1.0124034,0.01877597,-0.96993041,0.033715561,0.00033097214,-0.0051632794
30550000000,-0.00061672227,-0.0055902149,-1.0115989,0.019446373,-0.96923828,0.034936517,0.00082752295,-0.0049358006
30617500000,1.0768417e-005,-0.0057182154,-1.0124696,0.019773379,-0.97045165,0.03484875,0.00059606589,-0.0050188438
30685000000,-0.00017448817,-0.0055784937,-1.0123348,0.018907338,-0.96826035,0.035470903,0.0010991399,-0.0055137854
30752500000,5.9866346e-005,-0.0055689309,-1.0110394,0.020036221,-0.96795088,0.03716898,0.00084545871,-0.0053877383
30820000000,-0.00020331074,-0.0054664034,-1.0117899,0.019153416,-0.96847248,0.035395831,0.00069534266,-0.0053543351
30887500000,-3.3949502e-005,-0.0054880818,-1.0109718,0.019047618,-0.9670707,0.036434352,0.00062235422,-0.0056527751
30955000000,-0.0005116543,-0.0060715419,-1.0125308,0.019238725,-0.96731204,0.038703486,0.001148383,-0.0055847722
31022500000,-0.00061186054,-0.0062001934,-1.0125244,0.020237505,-0.96691191,0.037979364,0.00058584544,-0.005670019
31090000000,-0.00039540371,-0.0057445085,-1.0119998,0.019018412,-0.96554852,0.037641376,0.00075969519,-0.0060225497
31157500000,-0.00021992018,-0.006468269,-1.0125196,0.020320117,-0.96474886,0.03745392,0.00017580576,-0.0058984561
31225000000,-0.00047090917,-0.0059368545,-1.0129685,0.01932615,-0.96395934,0.037553489,0.00068838522,-0.0063708271
31292500000,-0.00017740962,-0.0061313417,-1.0122422,0.019195795,-0.96263933,0.038398713,0.00072348921,-0.0063164951
31360000000,-0.00052781549,-0.006201298,-1.0132115,0.02091898,-0.9632237,0.036157653,-9.7674667e-005,-0.0065102107
31427500000,-0.00058531394,-0.0064672194,-1.012439,0.020158641,-0.96212322,0.037498359,-0.00014819892,-0.0060921866
31495000000,-0.00079063606,-0.0059008906,-1.0120971,0.020613223,-0.96278787,0.036875665,0.00023506209,-0.0062001101
31562500000,-0.0013116044,-0.0063615097,-1.0126442,0.020731643,-0.96416974,0.035607949,8.3502382e-005,-0.0061738319
31630000000,-0.0006064896,-0.0061622243,-1.0123646,0.019983172,-0.96208358,0.035570621,-4.6180328e-005,-0.0059345048
31697500000,-0.00033913273,-0.0061993403,-1.0126073,0.020249575,-0.96232975,0.035529971,0.00018039811,-0.0060254652
31765000000,-0.00075566885,-0.0062938044,-1.0114093,0.020562649,-0.96370983,0.03565532,-0.00010567252,-0.0057986202
31832500000,-0.00092238374,-0.0057474049,-1.0113913,0.0209741,-0.9638468,0.035172999,-0.00045023067,-0.0060633044
31900000000,-0.00098467909,-0.0061566266,-1.011355,0.021357536,-0.96377456,0.035757128,-0.00029686865,-0.0057596364
31967500000,-0.00089677371,-0.0061428673,-1.0107647,0.021045744,-0.96427161,0.036031596,-0.00010020105,-0.0055627064
32035000000,-0.0010794909,-0.0059467023,-1.0111182,0.020978212,-0.96475852,0.036447734,-0.00043339306,-0.0058381306
32102500000,-0.0010493797,-0.0058887783,-1.0117729,0.021156393,-0.96510017,0.036914438,-7.2041876e-005,-0.005661001
32170000000,-0.00060922885,-0.005777406,-1.0120051,0.020695835,-0.96541822,0.036623478,6.576383e-005,-0.0054227365
32237500000,-0.00095055951,-0.0058139781,-1.011568,0.020361394,-0.96562946,0.037025332,-5.5570621e-005,-0.0056647337
32305000000,-0.000632304,-0.0061434647,-1.0117342,0.019965887,-0.96578562,0.037462503,0.00019401265,-0.0058174627
32372500000,-0.00081277848,-0.0060002236,-1.0104883,0.020665914,-0.96496427,0.038597465,0.00013033394,-0.0055849757
32440000000,-0.00086315064,-0.0059392205,-1.0114613,0.020346805,-0.96501458,0.039007813,0.000407174,-0.0058380351
32507500000,-0.00046533503,-0.006162886,-1.0102376,0.019840058,-0.96484792,0.039275311,0.00023220634,-0.0060590869
32575000000,-0.0012839111,-0.0061497698,-1.0109332,0.02003029,-0.96360636,0.039925545,0.00042426423,-0.0061089662
32642500000,-0.00074037421,-0.0060251979,-1.0117414,0.020602405,-0.96263719,0.039691269,0.00032560294,-0.0064435299
32710000000,-0.00079483213,-0.0059812814,-1.0115958,0.019884199,-0.96297288,0.039131701,-0.00019670976,-0.0063829012
32777500000,-0.00053953193,-0.0058786198,-1.0109931,0.019860357,-0.96284658,0.039673507,-0.00027241639,-0.0063391286
32845000000,-0.00078784325,-0.0060051009,-1.0113418,0.019647837,-0.96162349,0.039129376,-0.00010102917,-0.0063850433
32912500000,-0.00091361417,-0.0064676534,-1.0115514,0.019731432,-0.96114844,0.038502574,-0.00015049847,-0.0065102624
32980000000,-0.00079597672,-0.0060942317,-1.0121316,0.019704878,-0.96097749,0.037826061,-0.00012690225,-0.0066630887
33047500000,-0.00092000328,-0.0058870083,-1.01197,0.019814998,-0.96083313,0.036695987,-0.00062112964,-0.0065837451
33115000000,-0.0012135335,-0.0061273696,-1.0119767,0.020218477,-0.96099669,0.036772441,-0.00074317155,-0.0066607459
33182500000,-0.0011482884,-0.00605423,-1.0119013,0.020364612,-0.96139133,0.035119414,-0.00064395927,-0.0063828519
33250000000,-0.0014607396,-0.0064107766,-1.0118514,0.02030772,-0.96018249,0.034795448,-0.00078539038,-0.0065261736
33317500000,-0.00098856422,-0.0057889004,-1.0118543,0.020406127,-0.95990527,0.034129322,-0.0011078261,-0.0065321359
33385000000,-0.001612456,-0.0059080715,-1.0126152,0.020886421,-0.95975858,0.033416122,-0.0010407704,-0.0067744595
33452500000,-0.0015104036,-0.0061767269,-1.0127095,0.02148962,-0.95919585,0.032596678,-0.0010830788,-0.006423899
33520000000,-0.0015436865,-0.0059907297,-1.0125517,0.021187693,-0.96099126,0.032359809,-0.0010685776,-0.0064445301
33587500000,-0.0017580676,-0.0062373215,-1.0124543,0.021282405,-0.9615975,0.030578315,-0.0013552726,-0.0067093861
33655000000,-0.001861301,-0.0057535735,-1.0127251,0.021497905,-0.96071583,0.031140521,-0.0017270268,-0.0059558195
33722500000,-0.0015466957,-0.0056563457,-1.012388,0.020904213,-0.96220815,0.031252831,-0.0014629483,-0.0059718164
33790000000,-0.0014882386,-0.0057698512,-1.012491,0.02134648,-0.96162969,0.030416787,-0.0015516242,-0.0060196887
33857500000,-0.0019514071,-0.0054082,-1.0125319,0.021969676,-0.96195662,0.031221569,-0.0015557626,-0.0058351192
33925000000,-0.0020735152,-0.005474716,-1.0128938,0.022012591,-0.9630186,0.030600756,-0.0012947236,-0.0058910027
33992500000,-0.0016438233,-0.0054373303,-1.0124197,0.022016436,-0.96218115,0.030037671,-0.0013550092,-0.0058991215
34060000000,-0.0015032778,-0.0059860554,-1.0126271,0.022158027,-0.9638924,0.03112939,-0.0018137076,-0.0057478435
34127500000,-0.0021592965,-0.0052659269,-1.0123944,0.02242402,-0.96372426,0.030794472,-0.0014850008,-0.0057630171
34195000000,-0.0015467363,-0.0055086901,-1.011778,0.022052795,-0.96295244,0.031686693,-0.001790243,-0.005365653
34262500000,-0.0016004695,-0.0055152243,-1.0120788,0.022619516,-0.96327651,0.033211946,-0.0016542178,-0.0055391151
34330000000,-0.001524556,-0.0055341609,-1.0125146,0.021991819,-0.96373755,0.033222198,-0.0016049744,-0.0054326328
34397500000,-0.0015714772,-0.0053346492,-1.0125633,0.022380561,-0.96335876,0.033552051,-0.0015725363,-0.0053250613
34465000000,-0.0017497581,-0.0053587304,-1.0135918,0.022693425,-0.96398711,0.034974873,-0.00088344282,-0.0057383571
34532500000,-0.0013673315,-0.0053822426,-1.0126238,0.02199778,-0.96338546,0.034762949,-0.00091205316,-0.0054796897
34600000000,-0.0018085077,-0.0058691651,-1.0126442,0.021567702,-0.96190983,0.036420316,-0.0011209124,-0.0054027
34667500000,-0.0016596452,-0.0057245651,-1.0126752,0.022639215,-0.96267545,0.036448836,-0.0013450044,-0.0057302983
34735000000,-0.0017439694,-0.0052844523,-1.0134236,0.021624267,-0.96217871,0.036472052,-0.0009948574,-0.0057192873
34802500000,-0.0017107369,-0.0054984568,-1.0137459,0.022378743,-0.96060312,0.038158625,-0.0010121291,-0.0062801242
34870000000,-0.0018569855,-0.0059684981,-1.0136518,0.021870345,-0.95895207,0.037640452,-0.0011171147,-0.0055758469
34937500000,-0.0017112866,-0.0056366986,-1.014515,0.021815926,-0.95992911,0.037264019,-0.001324519,-0.0056005861
35005000000,-0.0020074006,-0.0055175107,-1.0140705,0.022972504,-0.9602167,0.037235461,-0.0010842551,-0.0057522799
35072500000,-0.0024023745,-0.0063965614,-1.0153166,0.022107273,-0.95907271,0.036992997,-0.0016057789,-0.0056612673
35140000000,-0.0022414818,-0.0060555064,-1.0148119,0.022129416,-0.95728767,0.036377326,-0.001690088,-0.0060320664
35207500000,-0.0023716162,-0.0058820159,-1.0155152,0.022911936,-0.96004975,0.035776392,-0.0015540371,-0.005969957
35275000000,-0.0020692833,-0.0053899018,-1.0144817,0.023621021,-0.95859873,0.03406471,-0.001700358,-0.0059863594
35342500000,-0.0026802931,-0.0053418679,-1.0151912,0.022987269,-0.95779765,0.035726845,-0.0017942309,-0.0057609105
35410000000,-0.0030964979,-0.0055685453,-1.014711,0.024262413,-0.95974451,0.033621594,-0.0015616218,-0.0055942158
35477500000,-0.0028465861,-0.005451004,-1.0153809,0.023789853,-0.96016252,0.03291899,-0.0023405326,-0.0052489806
35545000000,-0.0027285863,-0.005351657,-1.015383,0.024030477,-0.96084499,0.033761948,-0.0018200293,-0.0051799258
35612500000,-0.0029715872,-0.005330259,-1.016219,0.024710715,-0.96132654,0.03393209,-0.0020512464,-0.0050373133
35680000000,-0.0022655916,-0.0046361294,-1.015475,0.024001777,-0.96142232,0.033693314,-0.0019353146,-0.0050938455
35747500000,-0.0031015463,-0.0052534752,-1.0147095,0.024900943,-0.9619301,0.035503536,-0.0017147182,-0.0053391447
35815000000,-0.0026119188,-0.0058109257,-1.0143838,0.024833351,-0.96357358,0.034190178,-0.002185551,-0.0050229966
35882500000,-0.0026394778,-0.0048311912,-1.0155561,0.02508235,-0.96356726,0.034382086,-0.0014228758,-0.0043013287
35950000000,-0.002821489,-0.0044273729,-1.013658,0.02496931,-0.96306753,0.03578487,-0.001811042,-0.0049833637
36017500000,-0.0026037279,-0.0044465549,-1.0132478,0.025463715,-0.96462685,0.035735406,-0.0015294836,-0.0050184331
36085000000,-0.0023740488,-0.0046919771,-1.0140412,0.025224417,-0.96454972,0.036216974,-0.0015151351,-0.0047502178
36152500000,-0.0025280905,-0.0044441414,-1.0148895,0.025271162,-0.9655838,0.035651505,-0.001771963,-0.0044729826
36220000000,-0.0023676706,-0.0040401546,-1.014483,0.024998248,-0.96565729,0.036109,-0.0014193915,-0.0046563279
36287500000,-0.0022925632,-0.0045187455,-1.0131192,0.024322793,-0.96662772,0.036379337,-0.0012898332,-0.0047639827
36355000000,-0.0022705863,-0.0049449303,-1.012849,0.025674105,-0.96837062,0.037401274,-0.0013161401,-0.0050449176
36422500000,-0.0022719442,-0.0044520409,-1.0143733,0.025857747,-0.96640652,0.037172288,-0.0013351355,-0.0047279247
36490000000,-0.0023003239,-0.004592821,-1.0146171,0.024325512,-0.96694982,0.038779564,-0.0012718862,-0.0048926873
36557500000,-0.0019560712,-0.0044239541,-1.0126274,0.024092942,-0.96682394,0.038842469,-0.0013099739,-0.0049781231
36625000000,-0.0021758997,-0.0042059193,-1.0120966,0.023946732,-0.96557295,0.03854163,-0.0013975458,-0.0045875912
36692500000,-0.0022186986,-0.0048273159,-1.0130275,0.024239719,-0.9654088,0.03930968,-0.00083256932,-0.0048054494
36760000000,-0.0018790546,-0.0046622488,-1.0149926,0.024867237,-0.96361256,0.038917184,-0.0013843519,-0.0051166192
36827500000,-0.002052516,-0.0047519966,-1.0146053,0.024122521,-0.96469802,0.039880708,-0.0014537137,-0.0053027649
36895000000,-0.0020037191,-0.0047513111,-1.0139837,0.024462134,-0.96527529,0.039400429,-0.001081408,-0.0050168703
36962500000,-0.0024069287,-0.0045556123,-1.0139695,0.024040788,-0.96339726,0.039321765,-0.0012898565,-0.0052567278
37030000000,-0.0020841835,-0.004759077,-1.0142733,0.023869604,-0.96198177,0.039091021,-0.0014767526,-0.0050100815
37097500000,-0.002249476,-0.0046831807,-1.0145371,0.024167538,-0.96281791,0.039889336,-0.0013885328,-0.0052732565
37165000000,-0.002348972,-0.0047626891,-1.01354,0.023595273,-0.96065348,0.039137095,-0.0014689859,-0.0054350998
37232500000,-0.0023219339,-0.0048521212,-1.0143266,0.024712712,-0.96114427,0.039185703,-0.0016683097,-0.0051378259
37300000000,-0.0023656511,-0.0050200201,-1.0159442,0.025514245,-0.96063101,0.03928566,-0.0017646465,-0.0048944084
37367500000,-0.0023503606,-0.0048857979,-1.015805,0.025235653,-0.95928454,0.038429767,-0.0019987142,-0.0052612503
37435000000,-0.0018965671,-0.0045717289,-1.0145692,0.02500163,-0.96022987,0.039159518,-0.0022594521,-0.0050754771
37502500000,-0.0021288577,-0.0046468154,-1.0150388,0.025899947,-0.9591822,0.038055271,-0.0018933845,-0.0050910455
37570000000,-0.0022683933,-0.0048415568,-1.0156467,0.026399106,-0.95846391,0.038291354,-0.0016317974,-0.005299794
37637500000,-0.0026645241,-0.0046643498,-1.016832,0.027008675,-0.95796973,0.037843168,-0.001846245,-0.0050314008
37705000000,-0.0026735221,-0.0045184661,-1.0167129,0.026476353,-0.95745027,0.03734535,-0.0023920021,-0.0053980425
37772500000,-0.002426584,-0.0044237552,-1.0161511,0.026918069,-0.95759439,0.03624782,-0.0020444936,-0.0045852391
37840000000,-0.0022424636,-0.0043802862,-1.0164542,0.026929162,-0.95698154,0.036758475,-0.0022016992,-0.0042270846
37907500000,-0.002426462,-0.0043066284,-1.0154754,0.026086338,-0.95730144,0.035816133,-0.0022445843,-0.0048187678
37975000000,-0.0020443699,-0.0042637903,-1.0144817,0.026838958,-0.95743084,0.03655532,-0.0022004,-0.0050795814
38042500000,-0.0025266809,-0.0041414886,-1.0141817,0.027724594,-0.95831019,0.034959614,-0.0023959661,-0.0040856861
