!CSV A.01.01
!Keysight Technologies,N5247B,US56070639,A.17.30.08
!Date: Wednesday, July 22, 2026 10:14:26
!Source: Standard

BEGIN CH1_DATA
Freq(Hz),S21(REAL),S21(IMAG),S11(REAL),S11(IMAG),S22(REAL),S22(IMAG),S12(REAL),S12(IMAG)
26500000000,-0.0010042443,-0.0028044297,-1.0005269,0.022999406,-0.98420066,0.030627489,-0.0011811529,-0.0027802838
26567500000,-0.0010622991,-0.0027763851,-0.99951738,0.021848619,-0.98454386,0.031081319,-0.0012585741,-0.0027567726
26635000000,-0.0010417318,-0.0025757216,-0.99896336,0.022594959,-0.98326015,0.030421942,-0.0011928529,-0.0030940739
26702500000,-0.0014223305,-0.0025713751,-0.9996447,0.022829235,-0.98327649,0.031518728,-0.0014080598,-0.0030278626
26770000000,-0.0009307295,-0.0028476457,-0.99936056,0.022263028,-0.98339802,0.029541157,-0.0012978129,-0.0027872082
26837500000,-0.001101281,-0.0027522552,-0.99923062,0.022746623,-0.98124981,0.030297846,-0.0016124065,-0.0028417343
26905000000,-0.0013008527,-0.0027752053,-1.0006535,0.022571996,-0.9824754,0.030548871,-0.0014890162,-0.0028393818
26972500000,-0.0013273691,-0.0024802051,-0.9993757,0.022275448,-0.98275936,0.029790014,-0.0014422348,-0.0026693144
27040000000,-0.0011401621,-0.0030345884,-0.99974573,0.023369532,-0.98080969,0.029970488,-0.0014788223,-0.0027430945
27107500000,-0.0012617141,-0.0025936603,-1.000464,0.022487283,-0.98203683,0.030217707,-0.0014189889,-0.0025667269
27175000000,-0.0015320281,-0.0027214065,-0.99851984,0.021980584,-0.98107588,0.027987719,-0.0013529989,-0.0027132572
27242500000,-0.0012436286,-0.0023869518,-0.99797624,0.023381025,-0.9806565,0.029760271,-0.0013749802,-0.0028706137
27310000000,-0.001402376,-0.0025148937,-0.99933052,0.022562802,-0.98081291,0.029986247,-0.0011201128,-0.0028436393
27377500000,-0.001264884,-0.002601855,-0.99875253,0.023071244,-0.9797461,0.028570861,-0.0015505832,-0.0027870187
27445000000,-0.0013572102,-0.0027808193,-0.99900138,0.023450434,-0.97926968,0.028613478,-0.0014475014,-0.0027772691
27512500000,-0.0013796799,-0.0027634089,-0.99880159,0.022741169,-0.98112506,0.028842032,-0.0015063565,-0.0028245326
27580000000,-0.0011269639,-0.0026174085,-0.9972378,0.023494273,-0.97861612,0.029081315,-0.0014043619,-0.0025270756
27647500000,-0.0013840239,-0.0028333045,-0.9986968,0.023757994,-0.97868276,0.029704869,-0.0017158582,-0.0029605681
27715000000,-0.0017274001,-0.0026262235,-0.99859846,0.023261309,-0.97933871,0.028397501,-0.0015149396,-0.0026870691
27782500000,-0.0016665707,-0.0026276405,-0.99866319,0.023421496,-0.97783083,0.028405875,-0.0014909249,-0.002767018
27850000000,-0.0014326175,-0.0025212874,-0.99806094,0.023398012,-0.97826833,0.029809639,-0.0013940854,-0.0023749468
27917500000,-0.0014962957,-0.0027412607,-0.99766576,0.02326712,-0.97789377,0.027589887,-0.0019437445,-0.0026522991
27985000000,-0.0014076389,-0.0026121303,-0.99730217,0.024546772,-0.9770748,0.027782947,-0.0018017734,-0.0027822433
28052500000,-0.0017183241,-0.0026060981,-0.99842668,0.023094922,-0.97802854,0.027494103,-0.0018602152,-0.0023059289
28120000000,-0.00184972,-0.0025540018,-0.99776381,0.023454189,-0.97820324,0.026851714,-0.0015486804,-0.0026689419
28187500000,-0.0016851057,-0.0026414187,-0.99773455,0.024003625,-0.97721326,0.028242707,-0.0018305064,-0.0027786524
28255000000,-0.0018025221,-0.0023229481,-0.99782377,0.024146885,-0.97810602,0.028023034,-0.0019574976,-0.0023456342
28322500000,-0.0017809984,-0.0023553385,-0.99679816,0.023630232,-0.97746688,0.026813298,-0.0015842193,-0.0025136108
28390000000,-0.0019544179,-0.0022717484,-0.99814266,0.024162039,-0.97696298,0.02751442,-0.0018480398,-0.002502592
28457500000,-0.0018070149,-0.0025066019,-0.99768722,0.023596019,-0.97746074,0.027573645,-0.0013827176,-0.0024624779
28525000000,-0.0015405555,-0.0022741156,-0.99749446,0.024094433,-0.97848785,0.028228641,-0.001762807,-0.0024346642
28592500000,-0.0016445527,-0.0021790087,-0.99657518,0.024685681,-0.97687036,0.027705014,-0.0017779354,-0.0024791507
28660000000,-0.0017552488,-0.0020424309,-0.99757969,0.024296701,-0.97830081,0.027591765,-0.0015678806,-0.0023554517
28727500000,-0.0015593143,-0.0024054844,-0.99777251,0.024256233,-0.97761595,0.027463414,-0.0014645371,-0.0022269355
28795000000,-0.0018675041,-0.0022990122,-0.99759769,0.02396594,-0.97691679,0.028533101,-0.0014159423,-0.0025754648
28862500000,-0.0017167784,-0.0021921708,-0.99815023,0.024628639,-0.97695804,0.028469801,-0.0016029226,-0.0025298479
28930000000,-0.0016231958,-0.0022079102,-0.9977113,0.024720848,-0.97692573,0.0273076,-0.0019007504,-0.0026029064
28997500000,-0.0016728237,-0.0023973736,-0.99739873,0.024880894,-0.976515,0.027804755,-0.0016384186,-0.0025191829
29065000000,-0.0017287588,-0.0025074938,-0.9976908,0.024870746,-0.97733122,0.028814688,-0.0016720297,-0.0023615696
29132500000,-0.0015332688,-0.0023162039,-0.99761581,0.024544418,-0.97621441,0.028165668,-0.0015221341,-0.0023181324
29200000000,-0.002001303,-0.002449627,-0.9976573,0.024431765,-0.97566551,0.02739352,-0.0021447123,-0.002311432
29267500000,-0.0021644984,-0.0025687939,-0.99817497,0.02456646,-0.97670358,0.027393144,-0.0018504688,-0.0026607437
29335000000,-0.0016144195,-0.0023005498,-0.99712217,0.024387911,-0.97553045,0.026645169,-0.0017354356,-0.0021461397
29402500000,-0.0018924957,-0.0023345342,-0.99688101,0.025604591,-0.97574931,0.026651837,-0.0016780174,-0.002478508
29470000000,-0.0019001178,-0.0026040028,-0.99796718,0.025399357,-0.97681433,0.02644366,-0.001784832,-0.0024592828
29537500000,-0.0018469132,-0.0022791226,-0.99708039,0.02413018,-0.97532666,0.024598673,-0.001779722,-0.0024650795
29605000000,-0.0017766217,-0.0019858135,-0.99648237,0.025161684,-0.97559547,0.025558531,-0.0016933088,-0.0022463039
29672500000,-0.0018141764,-0.0024838503,-0.99836838,0.024792403,-0.97635555,0.024835914,-0.0021129565,-0.0021394321
29740000000,-0.0017272051,-0.0021392668,-0.99721783,0.024674326,-0.97533095,0.02481094,-0.0017981295,-0.0020308082
29807500000,-0.0018365751,-0.002040376,-0.99745512,0.025316358,-0.97601902,0.023910314,-0.0019666727,-0.0021992032
29875000000,-0.00246925,-0.0019520158,-0.99798554,0.025140285,-0.97711909,0.023037523,-0.0022329062,-0.0018189469
29942500000,-0.0018387021,-0.0019930864,-0.99704278,0.024019653,-0.97669864,0.022790775,-0.0019321146,-0.0020401692
30010000000,-0.0020121436,-0.0017968458,-0.99698615,0.024926603,-0.97777605,0.024509698,-0.0019217477,-0.0020638087
30077500000,-0.002047766,-0.0018465541,-0.99785489,0.025279015,-0.977292,0.022718996,-0.0014928139,-0.0020852368
30145000000,-0.0020438442,-0.0019669575,-0.99802732,0.024583638,-0.97606951,0.023170888,-0.0018568451,-0.0021257675
30212500000,-0.0021348498,-0.0019074755,-0.99781114,0.025303006,-0.97826016,0.022651255,-0.0021404792,-0.0019020429
30280000000,-0.002056119,-0.0020151061,-0.99796748,0.024285913,-0.97805345,0.023216844,-0.0019634408,-0.0019621719
30347500000,-0.0018808581,-0.0017719724,-0.99677998,0.025393844,-0.97632706,0.022866249,-0.0019807355,-0.0021790136
30415000000,-0.0020373245,-0.0018885866,-0.99830592,0.025604442,-0.97855079,0.024679869,-0.001613463,-0.0019598883
30482500000,-0.0022448362,-0.0020081264,-0.99841225,0.024823874,-0.97801012,0.023344785,-0.001731144,-0.0018347086
30550000000,-0.0017437304,-0.0017531215,-0.99782729,0.025347412,-0.9769814,0.024496228,-0.0017892402,-0.0019002191
30617500000,-0.0017146658,-0.0018972864,-0.99812782,0.025994241,-0.9777354,0.023905873,-0.0017620972,-0.0015599031
30685000000,-0.0017927429,-0.001975283,-0.99808758,0.025313258,-0.97593045,0.023494393,-0.0016310111,-0.0021047909
30752500000,-0.0018060713,-0.0019984548,-0.99643236,0.026259959,-0.97586083,0.024451077,-0.0017595103,-0.0019104343
30820000000,-0.0021276569,-0.0022275976,-0.99629319,0.025815308,-0.97750151,0.023863345,-0.0015452879,-0.0018433646
30887500000,-0.0021839382,-0.0018556762,-0.99624664,0.02621308,-0.97564483,0.023997098,-0.0014951493,-0.002041789
30955000000,-0.0016250476,-0.0018826866,-0.99794233,0.026193991,-0.97588313,0.025366008,-0.0015608347,-0.0024378854
31022500000,-0.0020747837,-0.001971127,-0.99749303,0.026584148,-0.97542584,0.02495423,-0.0020061149,-0.0018925243
31090000000,-0.0018353713,-0.001856006,-0.99644363,0.026402354,-0.97473502,0.023455054,-0.0019013318,-0.0020372209
31157500000,-0.0021661883,-0.0021236765,-0.99663037,0.02807048,-0.97439384,0.02364108,-0.0025983402,-0.0019482491
31225000000,-0.0023737759,-0.0021348146,-0.99679184,0.026701242,-0.97391045,0.023459941,-0.0020435036,-0.0020499099
31292500000,-0.0018443647,-0.0016618653,-0.99617887,0.026264638,-0.97319603,0.023702621,-0.001866922,-0.0024894706
31360000000,-0.0021349315,-0.0012599207,-0.99539924,0.027105764,-0.97342157,0.022806674,-0.0022075397,-0.0023268294
31427500000,-0.0022410792,-0.0016612886,-0.9954437,0.026954338,-0.9737134,0.022288516,-0.001751935,-0.0019814752
31495000000,-0.0020676935,-0.0015317423,-0.9955616,0.027352422,-0.97350323,0.021732509,-0.0022469827,-0.0022767186
31562500000,-0.0017309292,-0.0015267382,-0.99619627,0.027096361,-0.97501862,0.022015035,-0.0019363784,-0.0021388172
31630000000,-0.0019883737,-0.0014633812,-0.99607652,0.026416391,-0.97245336,0.02111122,-0.0019447084,-0.0018222216
31697500000,-0.0017881284,-0.0013909684,-0.99685168,0.02642113,-0.97389436,0.021474838,-0.0019099619,-0.0018002721
31765000000,-0.0022217871,-0.0013179732,-0.99520981,0.026821941,-0.97451645,0.020837784,-0.0018304033,-0.0016278953
31832500000,-0.0019165007,-0.0016376291,-0.99475926,0.027384192,-0.97515929,0.020744085,-0.0020111457,-0.0018223338
31900000000,-0.0018711344,-0.0014993888,-0.9952516,0.027225643,-0.97525144,0.021030966,-0.0019470343,-0.0019816202
31967500000,-0.0020117667,-0.0012648407,-0.99589878,0.02700977,-0.97578341,0.02103813,-0.0015981504,-0.0016978084
32035000000,-0.0022611013,-0.00086451857,-0.9962002,0.026801467,-0.97590107,0.02168259,-0.0017815926,-0.0017978272
32102500000,-0.0014240611,-0.0015849149,-0.99561685,0.027627021,-0.97562873,0.021716654,-0.0016391097,-0.0013139209
32170000000,-0.0017902993,-0.0012562848,-0.99581695,0.027440518,-0.97629464,0.021142304,-0.0016985678,-0.001651112
32237500000,-0.0015474012,-0.0016716499,-0.99627888,0.027270973,-0.97588503,0.021273196,-0.0014812062,-0.0015819956
32305000000,-0.001724671,-0.0014661544,-0.99583161,0.026924551,-0.97568703,0.02183333,-0.001543566,-0.0016653872
32372500000,-0.001854309,-0.0014411194,-0.99457502,0.026901096,-0.97621298,0.022019655,-0.00163209,-0.0015611982
32440000000,-0.0023182088,-0.0012769068,-0.99575031,0.027848959,-0.97596622,0.022705331,-0.0015304466,-0.0015348513
32507500000,-0.0016312745,-0.0013703872,-0.99428552,0.027219366,-0.9752686,0.021839403,-0.0013718429,-0.0016367643
32575000000,-0.0015864831,-0.0014596488,-0.99465168,0.027379662,-0.97484875,0.02155441,-0.0015032367,-0.0015813048
32642500000,-0.0015398619,-0.0013433594,-0.99576074,0.027796835,-0.97417486,0.020702153,-0.0018342064,-0.001469834
32710000000,-0.0017143831,-0.0012520248,-0.99601704,0.026816934,-0.97439641,0.020371437,-0.001824874,-0.0018383688
32777500000,-0.0012568517,-0.0015700657,-0.99546599,0.027139455,-0.97449142,0.020003974,-0.0014351216,-0.001377729
32845000000,-0.0015054441,-0.0013834356,-0.9948014,0.027288616,-0.97400373,0.019785762,-0.0012417301,-0.0014446279
32912500000,-0.0016154561,-0.0016371234,-0.99482059,0.027155012,-0.97398436,0.019678205,-0.0014952507,-0.0016043764
32980000000,-0.0013539258,-0.0014759278,-0.99561298,0.027146548,-0.97464716,0.018533945,-0.0017754792,-0.0013931945
33047500000,-0.0013104004,-0.0014540289,-0.99587876,0.026542813,-0.97444797,0.017434597,-0.0015913724,-0.0016346433
33115000000,-0.0011123022,-0.0016255353,-0.99562788,0.025968838,-0.9755618,0.017528124,-0.0018166949,-0.0018555035
33182500000,-0.0014564801,-0.001501579,-0.99528062,0.026829153,-0.97658169,0.016335279,-0.0013288619,-0.0014900477
33250000000,-0.0014157089,-0.0011246644,-0.99471557,0.026361018,-0.97562134,0.01582621,-0.001570805,-0.0014727591
33317500000,-0.0013116184,-0.0012471884,-0.99518728,0.026818961,-0.97620821,0.016047269,-0.001568602,-0.0010071589
33385000000,-0.0012009456,-0.0010055731,-0.99582922,0.027138084,-0.97661436,0.014966816,-0.0013043975,-0.0015118007
33452500000,-0.0012577234,-0.0012406366,-0.99521387,0.027029842,-0.97615087,0.014643461,-0.0014385404,-0.0013981095
33520000000,-0.0014288818,-0.0014114644,-0.99572158,0.026619434,-0.9783963,0.014755428,-0.0016669631,-0.0015488635
33587500000,-0.0014915045,-0.0011668671,-0.99518442,0.026713222,-0.97995341,0.013321996,-0.0011724578,-0.0015604763
33655000000,-0.0010180444,-0.00094869197,-0.99571949,0.026903197,-0.97921646,0.014047846,-0.0013498339,-0.001347975
33722500000,-0.00090357661,-0.00087496475,-0.99581891,0.026402563,-0.98102421,0.014620304,-0.0012536572,-0.0015889244
33790000000,-0.00082380295,-0.0012621552,-0.99576783,0.026948959,-0.98084956,0.013949811,-0.0011105107,-0.00143287
33857500000,-0.001190315,-0.0016033822,-0.99575204,0.026822656,-0.98185283,0.014451087,-0.0014199778,-0.0015417484
33925000000,-0.0011188899,-0.0015623957,-0.99579281,0.02725628,-0.98236018,0.014689028,-0.0013023335,-0.0014004513
33992500000,-0.00071671937,-0.0014932901,-0.99607182,0.026952386,-0.98166817,0.014543027,-0.0010531447,-0.0013526652
34060000000,-0.00090223283,-0.001134049,-0.99592865,0.027100265,-0.98312545,0.015803725,-0.00084463408,-0.0013712603
34127500000,-0.00099529687,-0.0013851008,-0.99634266,0.027553454,-0.98406714,0.016224526,-0.00092633441,-0.0010162416
34195000000,-0.00086193439,-0.001058107,-0.99669302,0.027103454,-0.98199177,0.016474307,-0.00078778371,-0.0010859722
34262500000,-0.00073249481,-0.0012355433,-0.99518263,0.028254092,-0.9826473,0.017771304,-0.00075013528,-0.0010885329
34330000000,-0.00073917105,-0.0015153755,-0.99598992,0.02800259,-0.98310775,0.018284589,-0.0010113014,-0.0015646333
34397500000,-0.0009049041,-0.0012082348,-0.99643373,0.028431654,-0.98282135,0.018121779,-0.00073061319,-0.0015366133
34465000000,-0.00096934719,-0.0014308052,-0.9969666,0.028669864,-0.98327291,0.019621432,-0.0010866708,-0.001716848
34532500000,-0.00071254803,-0.001370894,-0.99577296,0.027977958,-0.98277533,0.018635035,-0.00078533869,-0.001353013
34600000000,-0.00067457027,-0.0014529991,-0.99601215,0.028409123,-0.98207492,0.019648731,-0.00109845,-0.0015817815
34667500000,-0.00079628237,-0.0014862493,-0.99580169,0.029209495,-0.98408937,0.019664645,-0.0009475004,-0.0017001714
34735000000,-0.00087115431,-0.0017142161,-0.99607462,0.028345197,-0.98346007,0.018634796,-0.00031704456,-0.0017516124
34802500000,-0.00046944706,-0.001867582,-0.99639642,0.029225081,-0.98235565,0.019410253,-0.00095918204,-0.0013657265
34870000000,-0.00077646249,-0.0016606507,-0.99685985,0.028768122,-0.98245686,0.01949057,-0.00071663747,-0.0020148186
34937500000,-0.0006267156,-0.0014027481,-0.99554169,0.028514117,-0.98338002,0.019724041,-0.00060845067,-0.0020048353
35005000000,-0.00063343637,-0.0018056723,-0.99627918,0.029367395,-0.98364359,0.020182695,-0.00096468278,-0.0018943306
35072500000,-0.00090610603,-0.0017921521,-0.99747396,0.028918862,-0.98508418,0.019235104,-0.0011060414,-0.0020660597
35140000000,-0.00085998583,-0.001753187,-0.99540663,0.028186411,-0.98251569,0.019464016,-0.0014642299,-0.0014772433
35207500000,-0.00062090269,-0.0014354022,-0.99631667,0.028825101,-0.9852646,0.02024591,-0.00065603398,-0.0021984661
35275000000,-0.00081190618,-0.0022218328,-0.99624872,0.028670754,-0.98423523,0.018276736,-0.0009280995,-0.0019651353
35342500000,-0.0008894357,-0.0013830288,-0.99660206,0.027719475,-0.98289502,0.019564144,-0.00077667751,-0.0019553415
35410000000,-0.0010278472,-0.0018306603,-0.99588776,0.029134274,-0.98506409,0.01941523,-0.0013997138,-0.0018218247
35477500000,-0.00051082938,-0.0021148787,-0.99597394,0.028868437,-0.98590362,0.019082725,-0.0011820685,-0.0016076325
35545000000,-0.0011006426,-0.0020581069,-0.99451208,0.028865159,-0.98623621,0.019626766,-0.0011569252,-0.0018594991
35612500000,-0.0010301266,-0.0017077378,-0.99688137,0.029389858,-0.9850297,0.020652264,-0.00077802088,-0.0020900902
35680000000,-0.00096126832,-0.0017221499,-0.99679822,0.028648078,-0.98558074,0.020986646,-0.00089591136,-0.001733203
35747500000,-0.001137924,-0.0016819299,-0.99498403,0.028390199,-0.98547614,0.021599263,-0.00092202914,-0.0018045704
35815000000,-0.0012607429,-0.0017102718,-0.99491787,0.029980391,-0.98732185,0.021467507,-0.00093370723,-0.0021229736
35882500000,-0.0010503378,-0.0018068277,-0.99618059,0.029384386,-0.98776859,0.022148274,-0.00061163708,-0.0018071341
35950000000,-0.00096903119,-0.0019156891,-0.99592495,0.028777361,-0.98777628,0.022883773,-0.00049702555,-0.0019360824
36017500000,-0.00080962648,-0.0020880522,-0.99454004,0.030110985,-0.9880144,0.022969276,-0.00073583162,-0.0016212622
36085000000,-0.0012522811,-0.0019317329,-0.99593157,0.029160112,-0.98804128,0.023417383,-0.0008964439,-0.0019629754
36152500000,-0.00064324704,-0.001776065,-0.99698848,0.029229194,-0.98857659,0.023306906,-0.00069318328,-0.0020621303
36220000000,-0.00058332324,-0.0016567579,-0.99718809,0.028772831,-0.98881763,0.023619354,-0.00060382084,-0.0020027021
36287500000,-0.0011481107,-0.0016551273,-0.99432129,0.02823244,-0.98835349,0.023474365,-0.00055483042,-0.0018650976
36355000000,-0.0006549735,-0.001915406,-0.99386108,0.030440837,-0.98940063,0.023918867,-0.00085163052,-0.0021812029
36422500000,-0.00076980313,-0.0020157001,-0.99608326,0.030249834,-0.98821318,0.024121284,-0.00082259375,-0.0020090644
36490000000,-0.00079828815,-0.0019295876,-0.99720144,0.028845392,-0.98881894,0.025728874,-0.00076668308,-0.002237611
36557500000,-0.00085115398,-0.0021100505,-0.99438179,0.028541028,-0.98860812,0.024849445,-0.00092499296,-0.0023208722
36625000000,-0.00061424403,-0.0021138478,-0.99229759,0.029835671,-0.98800558,0.025103539,-0.00085612596,-0.0020775562
36692500000,-0.00064950885,-0.0021054081,-0.99425697,0.030430645,-0.98815346,0.025568038,-0.00075964653,-0.0024546541
36760000000,-0.00038243673,-0.0021083788,-0.99711287,0.030220926,-0.98794067,0.025605291,-0.00092225627,-0.0021778559
36827500000,-0.00054699066,-0.0020158901,-0.99680197,0.029465422,-0.98791552,0.026104808,-0.00087259198,-0.002324559
36895000000,-0.00083802862,-0.0024279756,-0.99449891,0.03005439,-0.98903763,0.026412278,-0.00058942323,-0.0028633219
36962500000,-0.0010403201,-0.0019301896,-0.99473894,0.030942544,-0.98844498,0.02602835,-0.00060157559,-0.0026458914
37030000000,-0.00084978365,-0.0021495647,-0.99525738,0.029608458,-0.98704553,0.026115686,-0.0011852414,-0.0025251219
37097500000,-0.00084366731,-0.0022098501,-0.99614286,0.029959798,-0.98770761,0.026500553,-0.0011014583,-0.0024434631
37165000000,-0.0012134738,-0.0023021826,-0.99391365,0.028745949,-0.98618096,0.026407897,-0.0010873225,-0.0026516544
37232500000,-0.00097372779,-0.0027032127,-0.99356902,0.030196369,-0.98709351,0.026491165,-0.0008299959,-0.0024289428
37300000000,-0.0011144159,-0.0025709071,-0.99580485,0.030845582,-0.98762584,0.026993111,-0.0009909817,-0.0024291663
37367500000,-0.0010859173,-0.0024841453,-0.9967134,0.030617684,-0.9868992,0.027238905,-0.00098541752,-0.0025370899
37435000000,-0.00085305661,-0.0024904495,-0.99648631,0.029477663,-0.98811835,0.028702259,-0.0012230932,-0.002897138
37502500000,-0.00081961183,-0.0024896041,-0.99512231,0.029756963,-0.98732334,0.02735576,-0.0012695345,-0.0027869369
37570000000,-0.0012969946,-0.0025137386,-0.99473381,0.030315865,-0.98664027,0.028455997,-0.0017157743,-0.0024959547
37637500000,-0.00095700414,-0.0022056673,-0.99638635,0.030743323,-0.98699987,0.028001204,-0.0016229141,-0.002597803
37705000000,-0.0014565964,-0.002143048,-0.99716616,0.030841291,-0.98650157,0.028546751,-0.0012781193,-0.002845905
37772500000,-0.001698378,-0.0025782739,-0.9967643,0.030849576,-0.98693776,0.028504729,-0.0016793113,-0.0030654236
37840000000,-0.001488468,-0.0021988868,-0.99705076,0.029823069,-0.98634875,0.028867614,-0.0014562405,-0.0025315364
37907500000,-0.0010535228,-0.0024681559,-0.99490994,0.029744366,-0.98616707,0.029456977,-0.0019480288,-0.0027401298
